
SetupTitle, TFT Id-Vd
PrimitiveTest, I/V Sweep
TestParameter, Context.MainFrame, B1500A
TestParameter, Channel.UnitType, SMU, SMU, SMU
TestParameter, Channel.Unit, SMU4:HR, SMU1:HP, SMU3:HR
TestParameter, Channel.IName, Isource, Igate, Idrain
TestParameter, Channel.VName, Vsource, Vgate, Vdrain
TestParameter, Channel.Mode, V, V, V
TestParameter, Channel.Func, CONST, VAR2, VAR1
TestParameter, Channel.Index, 
TestParameter, Channel.Time, 
TestParameter, Measurement.Port.Unit, SMU4:HR, SMU1:HP, SMU3:HR
TestParameter, Measurement.Port.SeriesResistor, NONE, NONE, NONE
TestParameter, Measurement.Port.Filter, ON, ON, ON
TestParameter, Measurement.Port.OutputVoltageComparison, 0, 0, 0
TestParameter, Measurement.Primary.Locus, Single
TestParameter, Measurement.Primary.Scale, LINEAR
TestParameter, Measurement.Primary.Start, 0
TestParameter, Measurement.Primary.Stop, 15
TestParameter, Measurement.Primary.Step, 0.05
TestParameter, Measurement.Primary.Compliance, 0.01
TestParameter, Measurement.Primary.PowerCompliance, 0
TestParameter, Measurement.Aborting.Condition, CONTINUE AT ANY
TestParameter, Measurement.PostOutput.Value, START
TestParameter, Measurement.PostOutput.Retention, OFF
TestParameter, Measurement.Secondary.Start, 0
TestParameter, Measurement.Secondary.Count, 6
TestParameter, Measurement.Secondary.Step, 2
TestParameter, Measurement.Secondary.Compliance, 0.0001
TestParameter, Measurement.Secondary.PowerCompliance, 0
TestParameter, Measurement.Bias.Source, 0, 0, 0
TestParameter, Measurement.Bias.Compliance, 0.1, 0.0001, 0.01
TestParameter, Measurement.Monitor.Unit, SMU4:HR, SMU1:HP, SMU3:HR
TestParameter, Measurement.Monitor.Adc, HR ADC, HR ADC, HR ADC
TestParameter, Measurement.Monitor.Measurement, Compliance Side, Compliance Side, Compliance Side
TestParameter, Measurement.Monitor.RangingMode, LIMITED, LIMITED, LIMITED
TestParameter, Measurement.Monitor.RangeBoundary, 1nA, 1nA, 1nA
TestParameter, Measurement.Monitor.RangeRating, BY FULL RANGE, BY FULL RANGE, BY FULL RANGE
TestParameter, Measurement.Monitor.RangeRatingCoeff, 50, 50, 50
TestParameter, Measurement.Timing.Hold, 0
TestParameter, Measurement.Timing.Delay, 0
TestParameter, Measurement.Adc.HighSpeed.Mode, AUTO
TestParameter, Measurement.Adc.HighSpeed.Coeff, 1
TestParameter, Measurement.Adc.HighResolution.AutoZero, OFF
TestParameter, Measurement.Adc.HighResolution.Mode, AUTO
TestParameter, Measurement.Adc.HighResolution.Coeff, 6
TestParameter, Measurement.WaitTime.Source.Coeff, 1
TestParameter, Measurement.WaitTime.Source.Offset, 0
TestParameter, Measurement.WaitTime.Monitor.Coeff, 1
TestParameter, Measurement.WaitTime.Monitor.Offset, 0
TestParameter, Output.Graph.Enabled, true
TestParameter, Output.Graph.XAxis.Data, Vdrain
TestParameter, Output.Graph.XAxis.Scale, Linear
TestParameter, Output.Graph.XAxis.Left, 0
TestParameter, Output.Graph.XAxis.Right, 10
TestParameter, Output.Graph.YAxis.Data, Idrain
TestParameter, Output.Graph.YAxis.Scale, Linear
TestParameter, Output.Graph.YAxis.Bottom, 0
TestParameter, Output.Graph.YAxis.Top, 0.1
TestParameter, Output.Graph.YAxis.Group, 
TestParameter, Output.List.Data, Vgate, Vdrain, Vsource, Igate, Idrain, Isource
TestParameter, AutoAnalysis.Interpolation, false
TestParameter, AutoAnalysis.Line1.Enabled, false
TestParameter, AutoAnalysis.Line1.Type, 1
TestParameter, AutoAnalysis.Line1.Fix, True
TestParameter, AutoAnalysis.Line1.YAxis, 0
TestParameter, AutoAnalysis.Line1.Point1.Type, 0
TestParameter, AutoAnalysis.Line1.Point1.XY.X, 
TestParameter, AutoAnalysis.Line1.Point1.XY.Y, 
TestParameter, AutoAnalysis.Line1.Point1.Data.Var, 
TestParameter, AutoAnalysis.Line1.Point1.Data.Condition, 
TestParameter, AutoAnalysis.Line1.Point1.Data.Start, false
TestParameter, AutoAnalysis.Line1.Point1.Data.StartVar, 
TestParameter, AutoAnalysis.Line1.Point1.Data.StartCondition, 
TestParameter, AutoAnalysis.Line1.Point2.Type, 0
TestParameter, AutoAnalysis.Line1.Point2.XY.X, 
TestParameter, AutoAnalysis.Line1.Point2.XY.Y, 
TestParameter, AutoAnalysis.Line1.Point2.Data.Var, 
TestParameter, AutoAnalysis.Line1.Point2.Data.Condition, 
TestParameter, AutoAnalysis.Line1.Point2.Data.Start, false
TestParameter, AutoAnalysis.Line1.Point2.Data.StartVar, 
TestParameter, AutoAnalysis.Line1.Point2.Data.StartCondition, 
TestParameter, AutoAnalysis.Line1.GradientExpr, 0
TestParameter, AutoAnalysis.Line2.Enabled, false
TestParameter, AutoAnalysis.Line2.Type, 1
TestParameter, AutoAnalysis.Line2.Fix, True
TestParameter, AutoAnalysis.Line2.YAxis, 0
TestParameter, AutoAnalysis.Line2.Point1.Type, 0
TestParameter, AutoAnalysis.Line2.Point1.XY.X, 
TestParameter, AutoAnalysis.Line2.Point1.XY.Y, 
TestParameter, AutoAnalysis.Line2.Point1.Data.Var, 
TestParameter, AutoAnalysis.Line2.Point1.Data.Condition, 
TestParameter, AutoAnalysis.Line2.Point1.Data.Start, false
TestParameter, AutoAnalysis.Line2.Point1.Data.StartVar, 
TestParameter, AutoAnalysis.Line2.Point1.Data.StartCondition, 
TestParameter, AutoAnalysis.Line2.Point2.Type, 0
TestParameter, AutoAnalysis.Line2.Point2.XY.X, 
TestParameter, AutoAnalysis.Line2.Point2.XY.Y, 
TestParameter, AutoAnalysis.Line2.Point2.Data.Var, 
TestParameter, AutoAnalysis.Line2.Point2.Data.Condition, 
TestParameter, AutoAnalysis.Line2.Point2.Data.Start, false
TestParameter, AutoAnalysis.Line2.Point2.Data.StartVar, 
TestParameter, AutoAnalysis.Line2.Point2.Data.StartCondition, 
TestParameter, AutoAnalysis.Line2.GradientExpr, 0
TestParameter, AutoAnalysis.Marker.Enabled, false
TestParameter, AutoAnalysis.Marker.Data.Var, 
TestParameter, AutoAnalysis.Marker.Data.Condition, 
TestParameter, AutoAnalysis.Marker.Data.Start, false
TestParameter, AutoAnalysis.Marker.Data.StartVar, 
TestParameter, AutoAnalysis.Marker.Data.StartCondition, 
MetaData, TestRecord.EntryPoint, true
MetaData, TestRecord.RecordTime, 11/10/2017 11:11:50
MetaData, TestRecord.TestTarget, 50um_10um
MetaData, TestRecord.IterationIndex, 1
MetaData, TestRecord.Preservation, true
MetaData, TestRecord.Flag, 
MetaData, TestRecord.Remarks, 
MetaData, TestRecord.LinkKey, a8adf9ff-a200-4204-a324-f957d50a8208
Dimension1, 301, 301, 301, 301, 301, 301
Dimension2, 6, 6, 6, 6, 6, 6
DataName, Vdrain, Vgate, Vsource, Isource, Igate, Idrain
DataValue, 0, 0, 0, -1.7600000000000003E-11, -1.7E-13, 1.855E-11
DataValue, 0.05, 0, 0, -2.9526E-09, 1.07E-12, 2.9538E-09
DataValue, 0.1, 0, 0, -4.6328999999999996E-09, 6.1E-13, 4.6353E-09
DataValue, 0.15, 0, 0, -5.4497E-09, 1.8000000000000002E-12, 5.4455E-09
DataValue, 0.2, 0, 0, -5.8194E-09, 1.27E-12, 5.8212E-09
DataValue, 0.25, 0, 0, -5.9875E-09, 5.2E-13, 6.0016E-09
DataValue, 0.3, 0, 0, -6.0867E-09, 1.6000000000000003E-13, 6.0783E-09
DataValue, 0.35000000000000003, 0, 0, -6.1563E-09, 7E-14, 6.1398E-09
DataValue, 0.4, 0, 0, -6.1784E-09, 8.1000000000000008E-13, 6.1701E-09
DataValue, 0.45, 0, 0, -6.1953E-09, 1.4300000000000002E-12, 6.1863E-09
DataValue, 0.5, 0, 0, -6.2042E-09, 9.5E-13, 6.2151E-09
DataValue, 0.55, 0, 0, -6.211E-09, 1E-13, 6.2169E-09
DataValue, 0.6, 0, 0, -6.2541E-09, -1.8000000000000002E-13, 6.2472E-09
DataValue, 0.65, 0, 0, -6.2562999999999996E-09, 2.8E-13, 6.2463E-09
DataValue, 0.70000000000000007, 0, 0, -6.2586E-09, 7.6000000000000009E-13, 6.268E-09
DataValue, 0.75, 0, 0, -6.2914E-09, 1.3800000000000002E-12, 6.2868E-09
DataValue, 0.8, 0, 0, -6.2897E-09, 7.7000000000000005E-13, 6.284E-09
DataValue, 0.85, 0, 0, -6.2745E-09, 1.7E-13, 6.2748E-09
DataValue, 0.9, 0, 0, -6.2807E-09, -8.0000000000000013E-14, 6.2928E-09
DataValue, 0.95000000000000007, 0, 0, -6.2931E-09, -2.5E-13, 6.294E-09
DataValue, 1, 0, 0, -6.3004E-09, 2.8E-13, 6.2891E-09
DataValue, 1.05, 0, 0, -6.3049E-09, 6.9000000000000009E-13, 6.3134E-09
DataValue, 1.1, 0, 0, -6.3191E-09, 1.17E-12, 6.3134E-09
DataValue, 1.1500000000000001, 0, 0, -6.3146E-09, 5.6E-13, 6.3189E-09
DataValue, 1.2, 0, 0, -6.3193E-09, -7E-14, 6.3237E-09
DataValue, 1.25, 0, 0, -6.3295E-09, -1.0000000000000002E-14, 6.3269E-09
DataValue, 1.3, 0, 0, -6.3411E-09, 5E-13, 6.3322E-09
DataValue, 1.35, 0, 0, -6.337E-09, 1.18E-12, 6.3344E-09
DataValue, 1.4000000000000001, 0, 0, -6.3312E-09, 1.18E-12, 6.3368E-09
DataValue, 1.45, 0, 0, -6.3459E-09, 8.6000000000000007E-13, 6.3435E-09
DataValue, 1.5, 0, 0, -6.3268E-09, 1.6000000000000003E-13, 6.332E-09
DataValue, 1.55, 0, 0, -6.3427E-09, -1.8000000000000002E-13, 6.3386E-09
DataValue, 1.6, 0, 0, -6.3445E-09, 6.5000000000000006E-13, 6.3518E-09
DataValue, 1.6500000000000001, 0, 0, -6.3469E-09, 1.23E-12, 6.3472E-09
DataValue, 1.7, 0, 0, -6.3566E-09, 1.4E-12, 6.3565E-09
DataValue, 1.75, 0, 0, -6.3628E-09, 5.3000000000000006E-13, 6.3719E-09
DataValue, 1.8, 0, 0, -6.3692E-09, -9.0000000000000008E-14, 6.3666E-09
DataValue, 1.85, 0, 0, -6.3894E-09, 9.0000000000000008E-14, 6.3791E-09
DataValue, 1.9000000000000001, 0, 0, -6.3804E-09, 9.2000000000000012E-13, 6.3879E-09
DataValue, 1.95, 0, 0, -6.3919E-09, 1.27E-12, 6.3941E-09
DataValue, 2, 0, 0, -6.3986E-09, 1.41E-12, 6.3864E-09
DataValue, 2.05, 0, 0, -6.382E-09, 4.4000000000000004E-13, 6.3859E-09
DataValue, 2.1, 0, 0, -6.3923E-09, 0, 6.3928E-09
DataValue, 2.15, 0, 0, -6.3905E-09, -3.4E-13, 6.3822E-09
DataValue, 2.2, 0, 0, -6.3835E-09, 5.4E-13, 6.3789E-09
DataValue, 2.25, 0, 0, -6.3979E-09, 6.3E-13, 6.4151E-09
DataValue, 2.3000000000000003, 0, 0, -6.4013E-09, 1.0600000000000001E-12, 6.3966E-09
DataValue, 2.35, 0, 0, -6.4033E-09, 4.1E-13, 6.4079E-09
DataValue, 2.4, 0, 0, -6.4086E-09, 1.0000000000000002E-14, 6.4152E-09
DataValue, 2.45, 0, 0, -6.4196E-09, -1.9000000000000002E-13, 6.425E-09
DataValue, 2.5, 0, 0, -6.4133E-09, 2.5E-13, 6.406E-09
DataValue, 2.5500000000000003, 0, 0, -6.4123E-09, 8.5000000000000011E-13, 6.4091E-09
DataValue, 2.6, 0, 0, -6.4138E-09, 1.13E-12, 6.4058E-09
DataValue, 2.65, 0, 0, -6.4211E-09, 2.8E-13, 6.4153E-09
DataValue, 2.7, 0, 0, -6.4194E-09, -1.6000000000000003E-13, 6.4158E-09
DataValue, 2.75, 0, 0, -6.4095E-09, -4.0000000000000006E-14, 6.4135E-09
DataValue, 2.8000000000000003, 0, 0, -6.449E-09, 5E-13, 6.4405E-09
DataValue, 2.85, 0, 0, -6.4604E-09, 1.08E-12, 6.4474E-09
DataValue, 2.9, 0, 0, -6.4464E-09, 7.9000000000000007E-13, 6.4372E-09
DataValue, 2.95, 0, 0, -6.4518E-09, -9.0000000000000008E-14, 6.4553E-09
DataValue, 3, 0, 0, -6.4589E-09, 1E-13, 6.4499E-09
DataValue, 3.0500000000000003, 0, 0, -6.4616E-09, 1.8000000000000002E-13, 6.4737E-09
DataValue, 3.1, 0, 0, -6.4714E-09, 8.8000000000000009E-13, 6.4687E-09
DataValue, 3.15, 0, 0, -6.4721E-09, 1.21E-12, 6.4685E-09
DataValue, 3.2, 0, 0, -6.4694E-09, 8.8000000000000009E-13, 6.4876E-09
DataValue, 3.25, 0, 0, -6.4713E-09, 1E-13, 6.4707E-09
DataValue, 3.3000000000000003, 0, 0, -6.4748E-09, -3.0000000000000003E-13, 6.4774E-09
DataValue, 3.35, 0, 0, -6.4892E-09, 8.0000000000000013E-14, 6.4941E-09
DataValue, 3.4, 0, 0, -6.492E-09, 6.9000000000000009E-13, 6.4913E-09
DataValue, 3.45, 0, 0, -6.4934E-09, 1.37E-12, 6.4888E-09
DataValue, 3.5, 0, 0, -6.4862E-09, 1.04E-12, 6.4952E-09
DataValue, 3.5500000000000003, 0, 0, -6.5042E-09, 4.5000000000000005E-13, 6.4972E-09
DataValue, 3.6, 0, 0, -6.5015E-09, -4.0000000000000006E-14, 6.5043E-09
DataValue, 3.65, 0, 0, -6.513E-09, 1.8000000000000002E-13, 6.5114E-09
DataValue, 3.7, 0, 0, -6.515E-09, 1.21E-12, 6.517E-09
DataValue, 3.75, 0, 0, -6.5101E-09, 1.5300000000000001E-12, 6.5141E-09
DataValue, 3.8000000000000003, 0, 0, -6.5087E-09, 9.7000000000000011E-13, 6.5089E-09
DataValue, 3.85, 0, 0, -6.5196E-09, 1.9000000000000002E-13, 6.5216E-09
DataValue, 3.9, 0, 0, -6.5252E-09, -2.1000000000000001E-13, 6.532E-09
DataValue, 3.95, 0, 0, -6.5278E-09, 4.0000000000000006E-14, 6.5367E-09
DataValue, 4, 0, 0, -6.5177E-09, 7E-13, 6.5262E-09
DataValue, 4.05, 0, 0, -6.5206E-09, 9.6000000000000015E-13, 6.5145E-09
DataValue, 4.1, 0, 0, -6.5186E-09, 9.9E-13, 6.5248E-09
DataValue, 4.15, 0, 0, -6.5219E-09, 1.1000000000000001E-13, 6.538E-09
DataValue, 4.2, 0, 0, -6.5291E-09, -1.4E-13, 6.5352E-09
DataValue, 4.25, 0, 0, -6.532E-09, 3.0000000000000005E-14, 6.5399E-09
DataValue, 4.3, 0, 0, -6.5382E-09, 4E-13, 6.5409E-09
DataValue, 4.3500000000000005, 0, 0, -6.5545E-09, 9.9E-13, 6.5627E-09
DataValue, 4.4, 0, 0, -6.5716E-09, 1.1500000000000002E-12, 6.5751E-09
DataValue, 4.45, 0, 0, -6.5567E-09, 2.2000000000000002E-13, 6.5609E-09
DataValue, 4.5, 0, 0, -6.5606E-09, -3.3E-13, 6.558E-09
DataValue, 4.55, 0, 0, -6.5735E-09, -2.7E-13, 6.5724E-09
DataValue, 4.6000000000000005, 0, 0, -6.577E-09, 6.7000000000000007E-13, 6.5664E-09
DataValue, 4.65, 0, 0, -6.5906999999999996E-09, 9.3E-13, 6.5788E-09
DataValue, 4.7, 0, 0, -6.5858E-09, 1.2500000000000001E-12, 6.5818E-09
DataValue, 4.75, 0, 0, -6.5792E-09, 3.8000000000000005E-13, 6.5746E-09
DataValue, 4.8, 0, 0, -6.5825E-09, -1.5000000000000002E-13, 6.5691E-09
DataValue, 4.8500000000000005, 0, 0, -6.5885E-09, -6.0000000000000009E-14, 6.577E-09
DataValue, 4.9, 0, 0, -6.5843E-09, 8.1000000000000008E-13, 6.5928E-09
DataValue, 4.95, 0, 0, -6.5931E-09, 1.46E-12, 6.601E-09
DataValue, 5, 0, 0, -6.5935E-09, 1.1500000000000002E-12, 6.59E-09
DataValue, 5.05, 0, 0, -6.5934E-09, 4E-13, 6.605E-09
DataValue, 5.1000000000000005, 0, 0, -6.6066E-09, 2E-13, 6.6105E-09
DataValue, 5.15, 0, 0, -6.6214E-09, -1.5000000000000002E-13, 6.623E-09
DataValue, 5.2, 0, 0, -6.625E-09, 8E-13, 6.6338E-09
DataValue, 5.25, 0, 0, -6.6386E-09, 1.14E-12, 6.6405E-09
DataValue, 5.3, 0, 0, -6.6359E-09, 1.2000000000000001E-12, 6.6361E-09
DataValue, 5.3500000000000005, 0, 0, -6.6393E-09, 6.0000000000000007E-13, 6.6398E-09
DataValue, 5.4, 0, 0, -6.6344E-09, -3.0000000000000005E-14, 6.6403E-09
DataValue, 5.45, 0, 0, -6.64E-09, -1.6000000000000003E-13, 6.6418E-09
DataValue, 5.5, 0, 0, -6.6528E-09, 7.8000000000000011E-13, 6.6474E-09
DataValue, 5.55, 0, 0, -6.6514E-09, 8.8000000000000009E-13, 6.6523E-09
DataValue, 5.6000000000000005, 0, 0, -6.6647E-09, 1.12E-12, 6.6701E-09
DataValue, 5.65, 0, 0, -6.642E-09, 3.4E-13, 6.6596E-09
DataValue, 5.7, 0, 0, -6.6531E-09, -1.5000000000000002E-13, 6.6566E-09
DataValue, 5.75, 0, 0, -6.6636E-09, -1.1000000000000001E-13, 6.6622E-09
DataValue, 5.8, 0, 0, -6.6655E-09, 2.9000000000000003E-13, 6.6576E-09
DataValue, 5.8500000000000005, 0, 0, -6.6685E-09, 1.09E-12, 6.6659E-09
DataValue, 5.9, 0, 0, -6.6833E-09, 1.1100000000000001E-12, 6.6855E-09
DataValue, 5.95, 0, 0, -6.6913E-09, 2.5E-13, 6.6912E-09
DataValue, 6, 0, 0, -6.687E-09, -1.2000000000000002E-13, 6.6737E-09
DataValue, 6.05, 0, 0, -6.7004E-09, -2.0000000000000003E-14, 6.6936E-09
DataValue, 6.1000000000000005, 0, 0, -6.6996E-09, 6.6E-13, 6.7062E-09
DataValue, 6.15, 0, 0, -6.7083E-09, 1.32E-12, 6.7094E-09
DataValue, 6.2, 0, 0, -6.7171E-09, 1.22E-12, 6.7162E-09
DataValue, 6.25, 0, 0, -6.7095E-09, 6.7000000000000007E-13, 6.7215E-09
DataValue, 6.3, 0, 0, -6.7214E-09, -1.3E-13, 6.7125E-09
DataValue, 6.3500000000000005, 0, 0, -6.7138E-09, -2E-13, 6.7101E-09
DataValue, 6.4, 0, 0, -6.7264E-09, 2.7E-13, 6.7178E-09
DataValue, 6.45, 0, 0, -6.7099E-09, 1.36E-12, 6.7065E-09
DataValue, 6.5, 0, 0, -6.7215E-09, 1.36E-12, 6.727E-09
DataValue, 6.55, 0, 0, -6.7204E-09, 6.400000000000001E-13, 6.7208E-09
DataValue, 6.6000000000000005, 0, 0, -6.7283E-09, 2.0000000000000003E-14, 6.7279E-09
DataValue, 6.65, 0, 0, -6.7404E-09, -2.2000000000000002E-13, 6.7459E-09
DataValue, 6.7, 0, 0, -6.7355E-09, 4.5000000000000005E-13, 6.7249E-09
DataValue, 6.75, 0, 0, -6.7457E-09, 1.07E-12, 6.7475E-09
DataValue, 6.8, 0, 0, -6.7442E-09, 1.23E-12, 6.7446E-09
DataValue, 6.8500000000000005, 0, 0, -6.7524E-09, 7E-13, 6.7461E-09
DataValue, 6.9, 0, 0, -6.7502E-09, -3.5E-13, 6.7481E-09
DataValue, 6.95, 0, 0, -6.7742E-09, -1.8000000000000002E-13, 6.7642E-09
DataValue, 7, 0, 0, -6.7439E-09, 4E-13, 6.7474E-09
DataValue, 7.05, 0, 0, -6.761E-09, 6.1E-13, 6.7583E-09
DataValue, 7.1000000000000005, 0, 0, -6.7756E-09, 1.14E-12, 6.7701E-09
DataValue, 7.15, 0, 0, -6.7824E-09, 6.6E-13, 6.7861999999999996E-09
DataValue, 7.2, 0, 0, -6.7861999999999996E-09, -6.0000000000000009E-14, 6.7856E-09
DataValue, 7.25, 0, 0, -6.7928E-09, -2.2000000000000002E-13, 6.7868E-09
DataValue, 7.3, 0, 0, -6.7909E-09, 4.1E-13, 6.7771E-09
DataValue, 7.3500000000000005, 0, 0, -6.7941E-09, 8.9E-13, 6.7939E-09
DataValue, 7.4, 0, 0, -6.7973E-09, 1.64E-12, 6.8028E-09
DataValue, 7.45, 0, 0, -6.7992E-09, 5.1E-13, 6.7982E-09
DataValue, 7.5, 0, 0, -6.8005E-09, 7E-14, 6.7941E-09
DataValue, 7.55, 0, 0, -6.7986E-09, -9.0000000000000008E-14, 6.7937E-09
DataValue, 7.6000000000000005, 0, 0, -6.8001E-09, 5.9E-13, 6.7984E-09
DataValue, 7.65, 0, 0, -6.7929E-09, 1E-12, 6.7956E-09
DataValue, 7.7, 0, 0, -6.8042E-09, 1.79E-12, 6.8013E-09
DataValue, 7.75, 0, 0, -6.8165E-09, 7.2000000000000006E-13, 6.8267E-09
DataValue, 7.8, 0, 0, -6.8075E-09, 2.7E-13, 6.8198E-09
DataValue, 7.8500000000000005, 0, 0, -6.8221E-09, -4.0000000000000006E-14, 6.8146E-09
DataValue, 7.9, 0, 0, -6.8229E-09, 4.7E-13, 6.821E-09
DataValue, 7.95, 0, 0, -6.8095E-09, 1.04E-12, 6.8076E-09
DataValue, 8, 0, 0, -6.8257E-09, 1.02E-12, 6.8204E-09
DataValue, 8.05, 0, 0, -6.8294E-09, 6.3E-13, 6.8314E-09
DataValue, 8.1, 0, 0, -6.833E-09, 1.2000000000000002E-13, 6.8383E-09
DataValue, 8.15, 0, 0, -6.8366E-09, -4.5000000000000005E-13, 6.8318E-09
DataValue, 8.2, 0, 0, -6.836E-09, 2.0000000000000003E-14, 6.841E-09
DataValue, 8.25, 0, 0, -6.8488E-09, 6.9000000000000009E-13, 6.8499E-09
DataValue, 8.3, 0, 0, -6.8532E-09, 1.12E-12, 6.8546E-09
DataValue, 8.35, 0, 0, -6.8533E-09, 8.9E-13, 6.8455E-09
DataValue, 8.4, 0, 0, -6.8697E-09, -1.2000000000000002E-13, 6.8817E-09
DataValue, 8.45, 0, 0, -6.8814E-09, -2.2000000000000002E-13, 6.8871E-09
DataValue, 8.5, 0, 0, -6.8814E-09, 3.2000000000000005E-13, 6.8986E-09
DataValue, 8.55, 0, 0, -6.8888E-09, 6.3E-13, 6.8723E-09
DataValue, 8.6, 0, 0, -6.882E-09, 1.1100000000000001E-12, 6.8972E-09
DataValue, 8.65, 0, 0, -6.9024E-09, 7.7000000000000005E-13, 6.8974E-09
DataValue, 8.7000000000000011, 0, 0, -6.8991E-09, -3.0000000000000005E-14, 6.9154E-09
DataValue, 8.75, 0, 0, -6.9037E-09, -4.4000000000000004E-13, 6.8994E-09
DataValue, 8.8, 0, 0, -6.8986E-09, 3.1000000000000004E-13, 6.8937E-09
DataValue, 8.85, 0, 0, -6.9021E-09, 1.02E-12, 6.9002E-09
DataValue, 8.9, 0, 0, -6.9146E-09, 1.26E-12, 6.8879E-09
DataValue, 8.9500000000000011, 0, 0, -6.9167E-09, 8.9E-13, 6.9193E-09
DataValue, 9, 0, 0, -6.9092E-09, 1.2000000000000002E-13, 6.9031E-09
DataValue, 9.05, 0, 0, -6.9065E-09, -1.5000000000000002E-13, 6.904E-09
DataValue, 9.1, 0, 0, -6.9078E-09, 3.4E-13, 6.9063E-09
DataValue, 9.15, 0, 0, -6.906E-09, 1.1600000000000001E-12, 6.9034E-09
DataValue, 9.2000000000000011, 0, 0, -6.9252E-09, 1.26E-12, 6.9208E-09
DataValue, 9.25, 0, 0, -6.9157E-09, 7.9000000000000007E-13, 6.9307E-09
DataValue, 9.3, 0, 0, -6.9342E-09, 2.3000000000000003E-13, 6.9295E-09
DataValue, 9.35, 0, 0, -6.9271E-09, -3.6000000000000003E-13, 6.9246E-09
DataValue, 9.4, 0, 0, -6.9419E-09, -4.0000000000000006E-14, 6.9384E-09
DataValue, 9.4500000000000011, 0, 0, -6.9453E-09, 9.4E-13, 6.9434E-09
DataValue, 9.5, 0, 0, -6.9623E-09, 1.12E-12, 6.9494E-09
DataValue, 9.55, 0, 0, -6.9252E-09, 7.8000000000000011E-13, 6.9331E-09
DataValue, 9.6, 0, 0, -6.9423E-09, -9.0000000000000008E-14, 6.944E-09
DataValue, 9.65, 0, 0, -6.9523E-09, -2.6E-13, 6.9575E-09
DataValue, 9.7000000000000011, 0, 0, -6.947E-09, 5E-14, 6.9459E-09
DataValue, 9.75, 0, 0, -6.9698E-09, 5.2E-13, 6.9803E-09
DataValue, 9.8, 0, 0, -6.9634E-09, 1.0500000000000002E-12, 6.9674E-09
DataValue, 9.85, 0, 0, -6.9693E-09, 5.1E-13, 6.9721E-09
DataValue, 9.9, 0, 0, -6.9515E-09, 2.8E-13, 6.955E-09
DataValue, 9.9500000000000011, 0, 0, -6.9691E-09, -3.5E-13, 6.9705E-09
DataValue, 10, 0, 0, -6.9623E-09, 1.8000000000000002E-13, 6.9625E-09
DataValue, 10.05, 0, 0, -6.9641E-09, 6.8E-13, 6.9646E-09
DataValue, 10.1, 0, 0, -7.0006E-09, 1.2800000000000002E-12, 6.9931E-09
DataValue, 10.15, 0, 0, -6.9867E-09, 9.2000000000000012E-13, 6.9904E-09
DataValue, 10.200000000000001, 0, 0, -6.977E-09, 4.2000000000000003E-13, 6.9801E-09
DataValue, 10.25, 0, 0, -6.9854E-09, -2.5E-13, 6.9935E-09
DataValue, 10.3, 0, 0, -7.0094E-09, 1.5000000000000002E-13, 6.99E-09
DataValue, 10.35, 0, 0, -7.0135E-09, 6.6E-13, 7.0122E-09
DataValue, 10.4, 0, 0, -7.0207999999999996E-09, 1.5E-12, 7.0228E-09
