
SetupTitle, TFT Id-Vg-1
PrimitiveTest, I/V Sweep
TestParameter, Context.MainFrame, B1500A
TestParameter, Channel.UnitType, SMU, SMU, SMU
TestParameter, Channel.Unit, SMU4:HR, SMU1:HP, SMU3:HR
TestParameter, Channel.IName, Isource, Igate, Idrain
TestParameter, Channel.VName, Vsource, Vgate, Vdrain
TestParameter, Channel.Mode, V, V, V
TestParameter, Channel.Func, CONST, VAR1, VAR2
TestParameter, Channel.Index, 
TestParameter, Channel.Time, 
TestParameter, Measurement.Port.Unit, SMU4:HR, SMU1:HP, SMU3:HR
TestParameter, Measurement.Port.SeriesResistor, NONE, NONE, NONE
TestParameter, Measurement.Port.Filter, ON, ON, ON
TestParameter, Measurement.Port.OutputVoltageComparison, 0, 0, 0
TestParameter, Measurement.Primary.Locus, Single
TestParameter, Measurement.Primary.Scale, LINEAR
TestParameter, Measurement.Primary.Start, -5
TestParameter, Measurement.Primary.Stop, 10
TestParameter, Measurement.Primary.Step, 0.05
TestParameter, Measurement.Primary.Compliance, 0.01
TestParameter, Measurement.Primary.PowerCompliance, 0
TestParameter, Measurement.Aborting.Condition, CONTINUE AT ANY
TestParameter, Measurement.PostOutput.Value, START
TestParameter, Measurement.PostOutput.Retention, OFF
TestParameter, Measurement.Secondary.Start, 1
TestParameter, Measurement.Secondary.Count, 3
TestParameter, Measurement.Secondary.Step, 2
TestParameter, Measurement.Secondary.Compliance, 0.0001
TestParameter, Measurement.Secondary.PowerCompliance, 0
TestParameter, Measurement.Bias.Source, 0, -5, 1
TestParameter, Measurement.Bias.Compliance, 0.1, 0.01, 0.0001
TestParameter, Measurement.Monitor.Unit, SMU4:HR, SMU1:HP, SMU3:HR
TestParameter, Measurement.Monitor.Adc, HR ADC, HR ADC, HR ADC
TestParameter, Measurement.Monitor.Measurement, Compliance Side, Compliance Side, Compliance Side
TestParameter, Measurement.Monitor.RangingMode, LIMITED, LIMITED, LIMITED
TestParameter, Measurement.Monitor.RangeBoundary, 1nA, 1nA, 100pA
TestParameter, Measurement.Monitor.RangeRating, BY FULL RANGE, BY FULL RANGE, BY FULL RANGE
TestParameter, Measurement.Monitor.RangeRatingCoeff, 50, 50, 50
TestParameter, Measurement.Timing.Hold, 0
TestParameter, Measurement.Timing.Delay, 0
TestParameter, Measurement.Adc.HighSpeed.Mode, AUTO
TestParameter, Measurement.Adc.HighSpeed.Coeff, 1
TestParameter, Measurement.Adc.HighResolution.AutoZero, OFF
TestParameter, Measurement.Adc.HighResolution.Mode, AUTO
TestParameter, Measurement.Adc.HighResolution.Coeff, 6
TestParameter, Measurement.WaitTime.Source.Coeff, 1
TestParameter, Measurement.WaitTime.Source.Offset, 0
TestParameter, Measurement.WaitTime.Monitor.Coeff, 1
TestParameter, Measurement.WaitTime.Monitor.Offset, 0
TestParameter, Function.User.Name, gm
TestParameter, Function.User.Unit, S
TestParameter, Function.User.Definition, diff(Idrain, Vgate)
TestParameter, Output.Graph.Enabled, true
TestParameter, Output.Graph.XAxis.Data, Vgate
TestParameter, Output.Graph.XAxis.Scale, Linear
TestParameter, Output.Graph.XAxis.Left, -2
TestParameter, Output.Graph.XAxis.Right, 15
TestParameter, Output.Graph.YAxis.Data, Idrain, gm, Idrain
TestParameter, Output.Graph.YAxis.Scale, Log, Linear, Linear
TestParameter, Output.Graph.YAxis.Bottom, 0, 0, -0.0001
TestParameter, Output.Graph.YAxis.Top, 0.001, 1, 0.0001
TestParameter, Output.Graph.YAxis.Group, , , 
TestParameter, Output.List.Data, Vgate, Vdrain, Igate, Idrain, gm
TestParameter, AutoAnalysis.Interpolation, false
TestParameter, AutoAnalysis.Line1.Enabled, false
TestParameter, AutoAnalysis.Line1.Type, 1
TestParameter, AutoAnalysis.Line1.Fix, True
TestParameter, AutoAnalysis.Line1.YAxis, 0
TestParameter, AutoAnalysis.Line1.Point1.Type, 0
TestParameter, AutoAnalysis.Line1.Point1.XY.X, 
TestParameter, AutoAnalysis.Line1.Point1.XY.Y, 
TestParameter, AutoAnalysis.Line1.Point1.Data.Var, 
TestParameter, AutoAnalysis.Line1.Point1.Data.Condition, 
TestParameter, AutoAnalysis.Line1.Point1.Data.Start, false
TestParameter, AutoAnalysis.Line1.Point1.Data.StartVar, 
TestParameter, AutoAnalysis.Line1.Point1.Data.StartCondition, 
TestParameter, AutoAnalysis.Line1.Point2.Type, 0
TestParameter, AutoAnalysis.Line1.Point2.XY.X, 
TestParameter, AutoAnalysis.Line1.Point2.XY.Y, 
TestParameter, AutoAnalysis.Line1.Point2.Data.Var, 
TestParameter, AutoAnalysis.Line1.Point2.Data.Condition, 
TestParameter, AutoAnalysis.Line1.Point2.Data.Start, false
TestParameter, AutoAnalysis.Line1.Point2.Data.StartVar, 
TestParameter, AutoAnalysis.Line1.Point2.Data.StartCondition, 
TestParameter, AutoAnalysis.Line1.GradientExpr, 0
TestParameter, AutoAnalysis.Line2.Enabled, false
TestParameter, AutoAnalysis.Line2.Type, 1
TestParameter, AutoAnalysis.Line2.Fix, True
TestParameter, AutoAnalysis.Line2.YAxis, 0
TestParameter, AutoAnalysis.Line2.Point1.Type, 0
TestParameter, AutoAnalysis.Line2.Point1.XY.X, 
TestParameter, AutoAnalysis.Line2.Point1.XY.Y, 
TestParameter, AutoAnalysis.Line2.Point1.Data.Var, 
TestParameter, AutoAnalysis.Line2.Point1.Data.Condition, 
TestParameter, AutoAnalysis.Line2.Point1.Data.Start, false
TestParameter, AutoAnalysis.Line2.Point1.Data.StartVar, 
TestParameter, AutoAnalysis.Line2.Point1.Data.StartCondition, 
TestParameter, AutoAnalysis.Line2.Point2.Type, 0
TestParameter, AutoAnalysis.Line2.Point2.XY.X, 
TestParameter, AutoAnalysis.Line2.Point2.XY.Y, 
TestParameter, AutoAnalysis.Line2.Point2.Data.Var, 
TestParameter, AutoAnalysis.Line2.Point2.Data.Condition, 
TestParameter, AutoAnalysis.Line2.Point2.Data.Start, false
TestParameter, AutoAnalysis.Line2.Point2.Data.StartVar, 
TestParameter, AutoAnalysis.Line2.Point2.Data.StartCondition, 
TestParameter, AutoAnalysis.Line2.GradientExpr, 0
TestParameter, AutoAnalysis.Marker.Enabled, false
TestParameter, AutoAnalysis.Marker.Data.Var, 
TestParameter, AutoAnalysis.Marker.Data.Condition, 
TestParameter, AutoAnalysis.Marker.Data.Start, false
TestParameter, AutoAnalysis.Marker.Data.StartVar, 
TestParameter, AutoAnalysis.Marker.Data.StartCondition, 
MetaData, TestRecord.EntryPoint, true
MetaData, TestRecord.RecordTime, 11/10/2017 10:38:18
MetaData, TestRecord.TestTarget, 100um_25um
MetaData, TestRecord.IterationIndex, 2
MetaData, TestRecord.Preservation, true
MetaData, TestRecord.Flag, 
MetaData, TestRecord.Remarks, 
MetaData, TestRecord.LinkKey, 06cc5954-2d8f-48e5-9d93-014f4c416393
Dimension1, 301, 301, 301, 301, 301
Dimension2, 3, 3, 3, 3, 3
DataName, Vgate, Vdrain, Igate, Idrain, gm
DataValue, -5, 1, -1.7E-13, 2.474E-13, -1.0240000000000037E-12
DataValue, -4.95, 1, 7.3E-13, 1.9619999999999999E-13, -1.5900000000000053E-12
DataValue, -4.9, 1, 7E-13, 8.84E-14, -9.9000000000000346E-13
DataValue, -4.8500000000000005, 1, -7.2000000000000006E-13, 9.7199999999999992E-14, -8.179999999999955E-13
DataValue, -4.8, 1, -1.6000000000000003E-13, 6.6E-15, -1.1019999999999941E-12
DataValue, -4.75, 1, -3.5E-13, -1.3E-14, -3.0800000000000106E-13
DataValue, -4.7, 1, -4.3000000000000004E-13, -2.42E-14, -3.7200000000000129E-13
DataValue, -4.65, 1, 1.5000000000000002E-13, -5.02E-14, -3.940000000000014E-13
DataValue, -4.6000000000000005, 1, 3.8000000000000005E-13, -6.36E-14, -1.6999999999999907E-13
DataValue, -4.55, 1, -2.1000000000000001E-13, -6.72E-14, -2.7999999999999845E-13
DataValue, -4.5, 1, -2.7E-13, -9.16E-14, 4.9800000000000172E-13
DataValue, -4.45, 1, 6.5000000000000006E-13, -1.74E-14, -3.8400000000000144E-13
DataValue, -4.4, 1, 1.1000000000000002E-12, -1.3E-13, -7.0000000000000257E-13
DataValue, -4.3500000000000005, 1, -6.0000000000000009E-14, -8.74E-14, 3.1199999999999842E-13
DataValue, -4.3, 1, 3.9000000000000005E-13, -9.8799999999999993E-14, -6.0599999999999681E-13
DataValue, -4.25, 1, -3.1000000000000004E-13, -1.48E-13, 1.1600000000000036E-13
DataValue, -4.2, 1, -1.7E-13, -8.72E-14, 9.1600000000000337E-13
DataValue, -4.15, 1, -1.7E-13, -5.64E-14, -7.25999999999996E-13
DataValue, -4.1, 1, 3.8000000000000005E-13, -1.5979999999999999E-13, -4.6599999999999761E-13
DataValue, -4.05, 1, -5.3000000000000006E-13, -1.03E-13, 1.7600000000000059E-13
DataValue, -4, 1, -3.9000000000000005E-13, -1.422E-13, -4.8000000000000159E-13
DataValue, -3.95, 1, 4.8000000000000008E-13, -1.51E-13, -2.7199999999999975E-13
DataValue, -3.9, 1, -9.0000000000000008E-14, -1.694E-13, 6.3399999999999932E-13
DataValue, -3.85, 1, -3.2000000000000005E-13, -8.76E-14, 2.5000000000000085E-13
DataValue, -3.8000000000000003, 1, 6.0000000000000009E-14, -1.444E-13, -3.079999999999998E-13
DataValue, -3.75, 1, 3.6000000000000003E-13, -1.184E-13, -4.0000000000000295E-15
DataValue, -3.7, 1, 0, -1.448E-13, 4.6599999999999973E-13
DataValue, -3.65, 1, -4.6000000000000006E-13, -7.18E-14, -6.8E-14
DataValue, -3.6, 1, -4.0000000000000006E-14, -1.516E-13, -8.2800000000000293E-13
DataValue, -3.5500000000000003, 1, 1.5000000000000002E-13, -1.546E-13, 4.8399999999999965E-13
DataValue, -3.5, 1, -3.6000000000000003E-13, -1.0319999999999999E-13, 1.143999999999999E-12
DataValue, -3.45, 1, -8.0000000000000013E-14, -4.02E-14, -3.2399999999999978E-13
DataValue, -3.4, 1, 4.9E-13, -1.356E-13, -1.3199999999999984E-13
DataValue, -3.35, 1, -2.3000000000000003E-13, -5.34E-14, 1.6000000000000066E-13
DataValue, -3.3000000000000003, 1, 1.65E-12, -1.196E-13, -7.3799999999999938E-13
DataValue, -3.25, 1, 3.5E-13, -1.272E-13, -4.9799999999999959E-13
DataValue, -3.2, 1, 1.5000000000000002E-13, -1.694E-13, 2.9799999999999984E-13
DataValue, -3.15, 1, -3.3E-13, -9.74E-14, 1.1699999999999991E-12
DataValue, -3.1, 1, 1.1900000000000002E-12, -5.2399999999999996E-14, -4.3000000000000145E-13
DataValue, -3.0500000000000003, 1, 7E-13, -1.404E-13, -4.3599999999999961E-13
DataValue, -3, 1, -6.0000000000000007E-13, -9.6E-14, -1.6599999999999985E-13
DataValue, -2.95, 1, -5E-14, -1.5699999999999999E-13, -7.3599999999999949E-13
DataValue, -2.9, 1, 6.0000000000000009E-14, -1.696E-13, 4.9999999999999743E-14
DataValue, -2.85, 1, -5E-14, -1.52E-13, 3.3000000000000127E-13
DataValue, -2.8000000000000003, 1, 2.0000000000000003E-14, -1.366E-13, -3.0399999999999951E-13
DataValue, -2.75, 1, 6.400000000000001E-13, -1.8239999999999999E-13, -2.3999999999999979E-13
DataValue, -2.7, 1, 4.1E-13, -1.606E-13, 4.1799999999999948E-13
DataValue, -2.65, 1, -1.5000000000000002E-13, -1.406E-13, 8.9999999999999793E-14
DataValue, -2.6, 1, -2E-13, -1.516E-13, -2.6400000000000089E-13
DataValue, -2.5500000000000003, 1, -1.7E-13, -1.67E-13, -3.1799999999999971E-13
DataValue, -2.5, 1, -3.2000000000000005E-13, -1.834E-13, 3.1599999999999956E-13
DataValue, -2.45, 1, -1.5000000000000002E-13, -1.354E-13, -2.2399999999999965E-13
DataValue, -2.4, 1, 3.0000000000000005E-14, -2.058E-13, -3.1599999999999956E-13
DataValue, -2.35, 1, -1.6000000000000003E-13, -1.67E-13, -2.4000000000000033E-14
DataValue, -2.3000000000000003, 1, -2.8E-13, -2.0819999999999999E-13, 2.1799999999999973E-13
DataValue, -2.25, 1, -1.2000000000000002E-13, -1.452E-13, 5.7599999999999946E-13
DataValue, -2.2, 1, 2.7E-13, -1.5059999999999998E-13, 1.0800000000000005E-13
DataValue, -2.15, 1, -2.2000000000000002E-13, -1.344E-13, -6.600000000000011E-14
DataValue, -2.1, 1, 1.2000000000000002E-13, -1.572E-13, -2.3799999999999989E-13
DataValue, -2.05, 1, 7.7000000000000005E-13, -1.582E-13, -1.8799999999999988E-13
DataValue, -2, 1, -5E-14, -1.76E-13, 1.2000000000000015E-13
DataValue, -1.95, 1, -4.1E-13, -1.462E-13, 9.2400000000000131E-13
DataValue, -1.9000000000000001, 1, -1.4E-13, -8.3599999999999992E-14, -2.7800000000000028E-13
DataValue, -1.85, 1, 5.1E-13, -1.74E-13, -9.81999999999999E-13
DataValue, -1.8, 1, -1.1000000000000001E-13, -1.818E-13, 5.9799999999999927E-13
DataValue, -1.75, 1, -1E-13, -1.142E-13, 1.4839999999999987E-12
DataValue, -1.7, 1, 5.1E-13, -3.34E-14, -5.5200000000000058E-13
DataValue, -1.6500000000000001, 1, 1.02E-12, -1.694E-13, -6.0200000000000077E-13
DataValue, -1.6, 1, -3.3E-13, -9.36E-14, -3.1599999999999981E-13
DataValue, -1.55, 1, 1.04E-12, -2.01E-13, -3.5799999999999979E-13
DataValue, -1.5, 1, 5.8000000000000005E-13, -1.294E-13, 1.5599999999999992E-13
DataValue, -1.45, 1, -3.7000000000000004E-13, -1.854E-13, 2.0000000000000193E-14
DataValue, -1.4000000000000001, 1, -3.4E-13, -1.274E-13, -5.0000000000000109E-14
DataValue, -1.35, 1, -1.4E-13, -1.904E-13, -8.0599999999999929E-13
DataValue, -1.3, 1, 3.0000000000000005E-14, -2.08E-13, 7.3999999999999924E-14
DataValue, -1.25, 1, -3.3E-13, -1.83E-13, 3.1399999999999967E-13
DataValue, -1.2, 1, 2.1000000000000001E-13, -1.766E-13, 1.9600000000000038E-13
DataValue, -1.1500000000000001, 1, 3.0000000000000003E-13, -1.634E-13, 2.860000000000004E-13
DataValue, -1.1, 1, -2.7E-13, -1.48E-13, -3.8599999999999972E-13
DataValue, -1.05, 1, -2.4000000000000004E-13, -2.02E-13, -6.5999999999999941E-13
DataValue, -1, 1, 7.6000000000000009E-13, -2.14E-13, 6.2400000000000007E-13
DataValue, -0.95000000000000007, 1, -4.0000000000000006E-14, -1.396E-13, 1.0420000000000002E-12
DataValue, -0.9, 1, -2.7E-13, -1.098E-13, 1.3539999999999989E-12
DataValue, -0.85, 1, -2.4000000000000004E-13, -4.2E-15, 1.3800000000000002E-12
DataValue, -0.8, 1, 2.9000000000000003E-13, 2.82E-14, 8.9600000000000022E-12
DataValue, -0.75, 1, -4.5000000000000005E-13, 8.918E-13, 3.592000000000001E-11
DataValue, -0.70000000000000007, 1, 1.4400000000000001E-12, 3.6202E-12, 1.3329400000000002E-10
DataValue, -0.65, 1, 1.4900000000000001E-12, 1.42212E-11, 4.8566399999999958E-10
DataValue, -0.6, 1, 9.2000000000000012E-13, 5.21866E-11, 1.5854880000000005E-09
DataValue, -0.55, 1, 4.9E-13, 1.7277000000000001E-10, 4.5348340000000014E-09
DataValue, -0.5, 1, 3.6000000000000003E-13, 5.0567000000000007E-10, 1.0906299999999997E-08
DataValue, -0.45, 1, -1.5600000000000002E-12, 1.2634E-09, 2.2051300000000006E-08
DataValue, -0.4, 1, 3.6000000000000003E-13, 2.7108E-09, 3.769700000000001E-08
DataValue, -0.35000000000000003, 1, 7E-14, 5.0331E-09, 5.5876999999999978E-08
DataValue, -0.3, 1, -1.3E-13, 8.2985E-09, 7.4522999999999972E-08
DataValue, -0.25, 1, -3.0000000000000005E-14, 1.2485399999999999E-08, 9.2406999999999988E-08
DataValue, -0.2, 1, 2.5E-13, 1.7539199999999997E-08, 1.0888399999999997E-07
DataValue, -0.15, 1, 3.7000000000000004E-13, 2.3373799999999997E-08, 1.24372E-07
DataValue, -0.1, 1, 1.7E-13, 2.99764E-08, 1.3932000000000003E-07
DataValue, -0.05, 1, 1.5000000000000002E-13, 3.73058E-08, 1.5563799999999995E-07
DataValue, 0, 1, -1.0000000000000002E-14, 4.5540199999999994E-08, 1.7294599999999994E-07
DataValue, 0.05, 1, 5.8000000000000005E-13, 5.4600399999999994E-08, 1.9341199999999999E-07
DataValue, 0.1, 1, 7E-13, 6.4881399999999992E-08, 2.15802E-07
DataValue, 0.15, 1, 6.3E-13, 7.6180599999999991E-08, 2.4201999999999994E-07
DataValue, 0.2, 1, 7E-13, 8.9083399999999986E-08, 2.7032399999999995E-07
DataValue, 0.25, 1, 5.4E-13, 1.0321299999999999E-07, 2.9696600000000015E-07
DataValue, 0.3, 1, 6.1E-13, 1.1878E-07, 3.2546999999999996E-07
DataValue, 0.35000000000000003, 1, 8.0000000000000013E-14, 1.3576E-07, 3.5539999999999986E-07
DataValue, 0.4, 1, -1.0000000000000002E-14, 1.5432E-07, 3.9360000000000014E-07
DataValue, 0.45, 1, 7E-13, 1.7512E-07, 4.2900000000000004E-07
DataValue, 0.5, 1, 1.12E-12, 1.9722E-07, 4.623999999999998E-07
DataValue, 0.55, 1, 4.6000000000000006E-13, 2.2136E-07, 4.988000000000001E-07
DataValue, 0.6, 1, 7E-14, 2.471E-07, 5.3620000000000016E-07
DataValue, 0.65, 1, -1.2000000000000002E-13, 2.7498E-07, 5.7039999999999934E-07
DataValue, 0.70000000000000007, 1, 9.6000000000000015E-13, 3.0413999999999997E-07, 6.0620000000000033E-07
DataValue, 0.75, 1, 1.7000000000000002E-12, 3.356E-07, 6.3540000000000009E-07
DataValue, 0.8, 1, 9.5E-13, 3.6767999999999997E-07, 6.624E-07
DataValue, 0.85, 1, 5E-14, 4.0184E-07, 6.9340000000000021E-07
DataValue, 0.9, 1, 1.6000000000000003E-13, 4.3702E-07, 7.16799999999999E-07
DataValue, 0.95000000000000007, 1, 9.5E-13, 4.7351999999999997E-07, 7.4180000000000014E-07
DataValue, 1, 1, 1.14E-12, 5.112E-07, 7.5920000000000082E-07
DataValue, 1.05, 1, 4.9E-13, 5.4944E-07, 7.813999999999991E-07
DataValue, 1.1, 1, -1.5000000000000002E-13, 5.8934E-07, 8.0759999999999916E-07
DataValue, 1.1500000000000001, 1, 1.5000000000000002E-13, 6.302E-07, 8.19800000000001E-07
DataValue, 1.2, 1, 9.1000000000000016E-13, 6.7132E-07, 8.3580000000000128E-07
DataValue, 1.25, 1, 1.4200000000000002E-12, 7.1378E-07, 8.6379999999999936E-07
DataValue, 1.3, 1, 2.1000000000000001E-13, 7.577E-07, 8.7919999999999882E-07
DataValue, 1.35, 1, -1.3E-13, 8.017E-07, 8.9699999999999984E-07
DataValue, 1.4000000000000001, 1, 4.0000000000000006E-14, 8.474E-07, 9.2080000000000142E-07
DataValue, 1.45, 1, 9.2000000000000012E-13, 8.9378E-07, 9.284000000000005E-07
DataValue, 1.5, 1, 1.2800000000000002E-12, 9.4024E-07, 9.3319999999999959E-07
DataValue, 1.55, 1, 6.7000000000000007E-13, 9.871E-07, 9.5459999999999845E-07
DataValue, 1.6, 1, -1.2000000000000002E-13, 1.0356999999999999E-06, 9.6399999999999746E-07
DataValue, 1.6500000000000001, 1, 2.3000000000000003E-13, 1.0834999999999999E-06, 9.6780000000000283E-07
DataValue, 1.7, 1, 1.1900000000000002E-12, 1.13248E-06, 9.8700000000000342E-07
DataValue, 1.75, 1, 1.4700000000000002E-12, 1.1822E-06, 1.0051999999999997E-06
DataValue, 1.8, 1, 1.4700000000000002E-12, 1.233E-06, 1.0209999999999996E-06
DataValue, 1.85, 1, 1.14E-12, 1.2843000000000001E-06, 1.0300000000000003E-06
DataValue, 1.9000000000000001, 1, 3.8000000000000005E-13, 1.3360000000000002E-06, 1.0450000000000016E-06
DataValue, 1.95, 1, 3.0000000000000005E-14, 1.3888000000000002E-06, 1.0600000000000007E-06
DataValue, 2, 1, 6.8E-13, 1.4420000000000001E-06, 1.0690000000000013E-06
DataValue, 2.05, 1, 9.6000000000000015E-13, 1.4957000000000001E-06, 1.0729999999999991E-06
DataValue, 2.1, 1, 1.45E-12, 1.5493000000000001E-06, 1.0809999999999997E-06
DataValue, 2.15, 1, 7.100000000000001E-13, 1.6038000000000002E-06, 1.0909999999999983E-06
DataValue, 2.2, 1, -1E-13, 1.6584E-06, 1.1059999999999995E-06
DataValue, 2.25, 1, -7E-14, 1.7144000000000003E-06, 1.1190000000000004E-06
DataValue, 2.3000000000000003, 1, 5.6E-13, 1.7703000000000002E-06, 1.1289999999999991E-06
DataValue, 2.35, 1, 1.4200000000000002E-12, 1.8273000000000003E-06, 1.1280000000000041E-06
DataValue, 2.4, 1, 1.6100000000000002E-12, 1.8831000000000002E-06, 1.1369999999999975E-06
DataValue, 2.45, 1, 5.3000000000000006E-13, 1.941E-06, 1.156999999999999E-06
DataValue, 2.5, 1, -3.6000000000000003E-13, 1.9988000000000002E-06, 1.1629999999999995E-06
DataValue, 2.5500000000000003, 1, 1.5000000000000002E-13, 2.0573E-06, 1.1619999999999973E-06
DataValue, 2.6, 1, 7.3E-13, 2.115E-06, 1.1630000000000048E-06
DataValue, 2.65, 1, 1.4700000000000002E-12, 2.1736000000000002E-06, 1.1779999999999985E-06
DataValue, 2.7, 1, 8.5000000000000011E-13, 2.2328E-06, 1.1639999999999975E-06
DataValue, 2.75, 1, -1.7E-13, 2.29E-06, 1.1720000000000023E-06
DataValue, 2.8000000000000003, 1, -5E-14, 2.3500000000000004E-06, 1.1990000000000022E-06
DataValue, 2.85, 1, 4.5000000000000005E-13, 2.4099000000000004E-06, 1.2000000000000012E-06
DataValue, 2.9, 1, 1.3400000000000002E-12, 2.47E-06, 1.2009999999999981E-06
DataValue, 2.95, 1, 1.4900000000000001E-12, 2.5300000000000003E-06, 1.1970000000000021E-06
DataValue, 3, 1, 6.1E-13, 2.5897000000000004E-06, 1.2119999999999968E-06
DataValue, 3.0500000000000003, 1, 1.6000000000000003E-13, 2.6512E-06, 1.2269999999999958E-06
DataValue, 3.1, 1, -1.1000000000000001E-13, 2.7124E-06, 1.220000000000007E-06
DataValue, 3.15, 1, 7.8000000000000011E-13, 2.7732000000000004E-06, 1.225E-06
DataValue, 3.2, 1, 1.0600000000000001E-12, 2.8349E-06, 1.227999999999998E-06
DataValue, 3.25, 1, 1.26E-12, 2.8960000000000003E-06, 1.2169999999999993E-06
DataValue, 3.3000000000000003, 1, 2.2000000000000002E-13, 2.9566E-06, 1.227999999999998E-06
DataValue, 3.35, 1, -2.6E-13, 3.0188000000000002E-06, 1.2310000000000059E-06
DataValue, 3.4, 1, 2.0000000000000003E-14, 3.0797000000000003E-06, 1.2149999999999992E-06
DataValue, 3.45, 1, 1.27E-12, 3.1403000000000002E-06, 1.2359999999999986E-06
DataValue, 3.5, 1, 1.41E-12, 3.2033000000000003E-06, 1.2609999999999984E-06
DataValue, 3.5500000000000003, 1, 7.5E-13, 3.2664E-06, 1.2319999999999983E-06
DataValue, 3.6, 1, -1.2000000000000002E-13, 3.3265000000000003E-06, 1.2190000000000048E-06
