
SetupTitle, TFT Id-Vd
PrimitiveTest, I/V Sweep
TestParameter, Context.MainFrame, B1500A
TestParameter, Channel.UnitType, SMU, SMU, SMU
TestParameter, Channel.Unit, SMU4:HR, SMU1:HP, SMU3:HR
TestParameter, Channel.IName, Isource, Igate, Idrain
TestParameter, Channel.VName, Vsource, Vgate, Vdrain
TestParameter, Channel.Mode, V, V, V
TestParameter, Channel.Func, CONST, VAR2, VAR1
TestParameter, Channel.Index, 
TestParameter, Channel.Time, 
TestParameter, Measurement.Port.Unit, SMU4:HR, SMU1:HP, SMU3:HR
TestParameter, Measurement.Port.SeriesResistor, NONE, NONE, NONE
TestParameter, Measurement.Port.Filter, ON, ON, ON
TestParameter, Measurement.Port.OutputVoltageComparison, 0, 0, 0
TestParameter, Measurement.Primary.Locus, Single
TestParameter, Measurement.Primary.Scale, LINEAR
TestParameter, Measurement.Primary.Start, 0
TestParameter, Measurement.Primary.Stop, 15
TestParameter, Measurement.Primary.Step, 0.05
TestParameter, Measurement.Primary.Compliance, 0.01
TestParameter, Measurement.Primary.PowerCompliance, 0
TestParameter, Measurement.Aborting.Condition, CONTINUE AT ANY
TestParameter, Measurement.PostOutput.Value, START
TestParameter, Measurement.PostOutput.Retention, OFF
TestParameter, Measurement.Secondary.Start, 0
TestParameter, Measurement.Secondary.Count, 6
TestParameter, Measurement.Secondary.Step, 2
TestParameter, Measurement.Secondary.Compliance, 0.0001
TestParameter, Measurement.Secondary.PowerCompliance, 0
TestParameter, Measurement.Bias.Source, 0, 0, 0
TestParameter, Measurement.Bias.Compliance, 0.1, 0.0001, 0.01
TestParameter, Measurement.Monitor.Unit, SMU4:HR, SMU1:HP, SMU3:HR
TestParameter, Measurement.Monitor.Adc, HR ADC, HR ADC, HR ADC
TestParameter, Measurement.Monitor.Measurement, Compliance Side, Compliance Side, Compliance Side
TestParameter, Measurement.Monitor.RangingMode, LIMITED, LIMITED, LIMITED
TestParameter, Measurement.Monitor.RangeBoundary, 1nA, 1nA, 1nA
TestParameter, Measurement.Monitor.RangeRating, BY FULL RANGE, BY FULL RANGE, BY FULL RANGE
TestParameter, Measurement.Monitor.RangeRatingCoeff, 50, 50, 50
TestParameter, Measurement.Timing.Hold, 0
TestParameter, Measurement.Timing.Delay, 0
TestParameter, Measurement.Adc.HighSpeed.Mode, AUTO
TestParameter, Measurement.Adc.HighSpeed.Coeff, 1
TestParameter, Measurement.Adc.HighResolution.AutoZero, OFF
TestParameter, Measurement.Adc.HighResolution.Mode, AUTO
TestParameter, Measurement.Adc.HighResolution.Coeff, 6
TestParameter, Measurement.WaitTime.Source.Coeff, 1
TestParameter, Measurement.WaitTime.Source.Offset, 0
TestParameter, Measurement.WaitTime.Monitor.Coeff, 1
TestParameter, Measurement.WaitTime.Monitor.Offset, 0
TestParameter, Output.Graph.Enabled, true
TestParameter, Output.Graph.XAxis.Data, Vdrain
TestParameter, Output.Graph.XAxis.Scale, Linear
TestParameter, Output.Graph.XAxis.Left, 0
TestParameter, Output.Graph.XAxis.Right, 10
TestParameter, Output.Graph.YAxis.Data, Idrain
TestParameter, Output.Graph.YAxis.Scale, Linear
TestParameter, Output.Graph.YAxis.Bottom, 0
TestParameter, Output.Graph.YAxis.Top, 0.1
TestParameter, Output.Graph.YAxis.Group, 
TestParameter, Output.List.Data, Vgate, Vdrain, Vsource, Igate, Idrain, Isource
TestParameter, AutoAnalysis.Interpolation, false
TestParameter, AutoAnalysis.Line1.Enabled, false
TestParameter, AutoAnalysis.Line1.Type, 1
TestParameter, AutoAnalysis.Line1.Fix, True
TestParameter, AutoAnalysis.Line1.YAxis, 0
TestParameter, AutoAnalysis.Line1.Point1.Type, 0
TestParameter, AutoAnalysis.Line1.Point1.XY.X, 
TestParameter, AutoAnalysis.Line1.Point1.XY.Y, 
TestParameter, AutoAnalysis.Line1.Point1.Data.Var, 
TestParameter, AutoAnalysis.Line1.Point1.Data.Condition, 
TestParameter, AutoAnalysis.Line1.Point1.Data.Start, false
TestParameter, AutoAnalysis.Line1.Point1.Data.StartVar, 
TestParameter, AutoAnalysis.Line1.Point1.Data.StartCondition, 
TestParameter, AutoAnalysis.Line1.Point2.Type, 0
TestParameter, AutoAnalysis.Line1.Point2.XY.X, 
TestParameter, AutoAnalysis.Line1.Point2.XY.Y, 
TestParameter, AutoAnalysis.Line1.Point2.Data.Var, 
TestParameter, AutoAnalysis.Line1.Point2.Data.Condition, 
TestParameter, AutoAnalysis.Line1.Point2.Data.Start, false
TestParameter, AutoAnalysis.Line1.Point2.Data.StartVar, 
TestParameter, AutoAnalysis.Line1.Point2.Data.StartCondition, 
TestParameter, AutoAnalysis.Line1.GradientExpr, 0
TestParameter, AutoAnalysis.Line2.Enabled, false
TestParameter, AutoAnalysis.Line2.Type, 1
TestParameter, AutoAnalysis.Line2.Fix, True
TestParameter, AutoAnalysis.Line2.YAxis, 0
TestParameter, AutoAnalysis.Line2.Point1.Type, 0
TestParameter, AutoAnalysis.Line2.Point1.XY.X, 
TestParameter, AutoAnalysis.Line2.Point1.XY.Y, 
TestParameter, AutoAnalysis.Line2.Point1.Data.Var, 
TestParameter, AutoAnalysis.Line2.Point1.Data.Condition, 
TestParameter, AutoAnalysis.Line2.Point1.Data.Start, false
TestParameter, AutoAnalysis.Line2.Point1.Data.StartVar, 
TestParameter, AutoAnalysis.Line2.Point1.Data.StartCondition, 
TestParameter, AutoAnalysis.Line2.Point2.Type, 0
TestParameter, AutoAnalysis.Line2.Point2.XY.X, 
TestParameter, AutoAnalysis.Line2.Point2.XY.Y, 
TestParameter, AutoAnalysis.Line2.Point2.Data.Var, 
TestParameter, AutoAnalysis.Line2.Point2.Data.Condition, 
TestParameter, AutoAnalysis.Line2.Point2.Data.Start, false
TestParameter, AutoAnalysis.Line2.Point2.Data.StartVar, 
TestParameter, AutoAnalysis.Line2.Point2.Data.StartCondition, 
TestParameter, AutoAnalysis.Line2.GradientExpr, 0
TestParameter, AutoAnalysis.Marker.Enabled, false
TestParameter, AutoAnalysis.Marker.Data.Var, 
TestParameter, AutoAnalysis.Marker.Data.Condition, 
TestParameter, AutoAnalysis.Marker.Data.Start, false
TestParameter, AutoAnalysis.Marker.Data.StartVar, 
TestParameter, AutoAnalysis.Marker.Data.StartCondition, 
MetaData, TestRecord.EntryPoint, true
MetaData, TestRecord.RecordTime, 11/10/2017 09:54:35
MetaData, TestRecord.TestTarget, 100um_100um
MetaData, TestRecord.IterationIndex, 1
MetaData, TestRecord.Preservation, true
MetaData, TestRecord.Flag, 
MetaData, TestRecord.Remarks, 
MetaData, TestRecord.LinkKey, 7562346e-89d5-488b-b34e-a4026519d851
Dimension1, 301, 301, 301, 301, 301, 301
Dimension2, 6, 6, 6, 6, 6, 6
DataName, Vdrain, Vgate, Vsource, Isource, Igate, Idrain
DataValue, 0, 0, 0, -1.181E-10, -1.5000000000000002E-13, 1.1927000000000002E-10
DataValue, 0.05, 0, 0, -2.2190599999999998E-08, 4.1E-13, 2.2182999999999998E-08
DataValue, 0.1, 0, 0, -4.3328799999999993E-08, -1.5000000000000002E-13, 4.33218E-08
DataValue, 0.15, 0, 0, -6.34964E-08, -2E-13, 6.34876E-08
DataValue, 0.2, 0, 0, -8.2983799999999986E-08, 1.5000000000000002E-13, 8.29739E-08
DataValue, 0.25, 0, 0, -1.0122779999999999E-07, 9.4E-13, 1.012243E-07
DataValue, 0.3, 0, 0, -1.1854E-07, 1E-13, 1.1854E-07
DataValue, 0.35000000000000003, 0, 0, -1.3492E-07, 7E-13, 1.3494E-07
DataValue, 0.4, 0, 0, -1.5036E-07, 1.55E-12, 1.5031999999999999E-07
DataValue, 0.45, 0, 0, -1.6488E-07, 3.6000000000000003E-13, 1.6486E-07
DataValue, 0.5, 0, 0, -1.7848E-07, -1.0000000000000002E-14, 1.7846E-07
DataValue, 0.55, 0, 0, -1.9118E-07, -5.1E-13, 1.9114E-07
DataValue, 0.6, 0, 0, -2.0312E-07, -1.8000000000000002E-13, 2.0309999999999999E-07
DataValue, 0.65, 0, 0, -2.1399999999999998E-07, 1.5000000000000002E-13, 2.1399999999999998E-07
DataValue, 0.70000000000000007, 0, 0, -2.2402E-07, 9.7000000000000011E-13, 2.24E-07
DataValue, 0.75, 0, 0, -2.3316E-07, 7.4000000000000008E-13, 2.3314E-07
DataValue, 0.8, 0, 0, -2.4146E-07, 1.5600000000000002E-12, 2.4148E-07
DataValue, 0.85, 0, 0, -2.4894E-07, 1.12E-12, 2.4896E-07
DataValue, 0.9, 0, 0, -2.5566E-07, 6.2000000000000008E-13, 2.5564E-07
DataValue, 0.95000000000000007, 0, 0, -2.6158E-07, 1.4E-13, 2.6158E-07
DataValue, 1, 0, 0, -2.6686E-07, -4.2000000000000003E-13, 2.6686E-07
DataValue, 1.05, 0, 0, -2.7136E-07, -1.7E-13, 2.7131999999999997E-07
DataValue, 1.1, 0, 0, -2.7518E-07, -4.3000000000000004E-13, 2.7518E-07
DataValue, 1.1500000000000001, 0, 0, -2.7844E-07, 4.1E-13, 2.784E-07
DataValue, 1.2, 0, 0, -2.811E-07, 1.1500000000000002E-12, 2.811E-07
DataValue, 1.25, 0, 0, -2.833E-07, 1.36E-12, 2.8328E-07
DataValue, 1.3, 0, 0, -2.8504E-07, 9.000000000000001E-13, 2.8499999999999997E-07
DataValue, 1.35, 0, 0, -2.8638E-07, 4.7E-13, 2.8638E-07
DataValue, 1.4000000000000001, 0, 0, -2.8742E-07, -2.2000000000000002E-13, 2.8742E-07
DataValue, 1.45, 0, 0, -2.8821999999999997E-07, -4.0000000000000006E-14, 2.8821999999999997E-07
DataValue, 1.5, 0, 0, -2.888E-07, -3.0000000000000003E-13, 2.888E-07
DataValue, 1.55, 0, 0, -2.8919999999999997E-07, 5.3000000000000006E-13, 2.8916E-07
DataValue, 1.6, 0, 0, -2.895E-07, 6.2000000000000008E-13, 2.8947999999999997E-07
DataValue, 1.6500000000000001, 0, 0, -2.8974E-07, 1.08E-12, 2.897E-07
DataValue, 1.7, 0, 0, -2.8989999999999997E-07, 1.2400000000000002E-12, 2.8988E-07
DataValue, 1.75, 0, 0, -2.9E-07, 1.37E-12, 2.9E-07
DataValue, 1.8, 0, 0, -2.9008E-07, 6.5000000000000006E-13, 2.901E-07
DataValue, 1.85, 0, 0, -2.9016E-07, -5E-14, 2.9016E-07
DataValue, 1.9000000000000001, 0, 0, -2.9024E-07, -4.3000000000000004E-13, 2.9022E-07
DataValue, 1.95, 0, 0, -2.903E-07, -1.4E-13, 2.9026E-07
DataValue, 2, 0, 0, -2.9036E-07, 2.6E-13, 2.9034E-07
DataValue, 2.05, 0, 0, -2.9044E-07, 7.7000000000000005E-13, 2.904E-07
DataValue, 2.1, 0, 0, -2.9048E-07, 1.3400000000000002E-12, 2.9042E-07
DataValue, 2.15, 0, 0, -2.9048E-07, 1.07E-12, 2.9048E-07
DataValue, 2.2, 0, 0, -2.9054E-07, 4.1E-13, 2.9054E-07
DataValue, 2.25, 0, 0, -2.9058E-07, 1.0000000000000002E-14, 2.9058E-07
DataValue, 2.3000000000000003, 0, 0, -2.9062E-07, -2.9000000000000003E-13, 2.9062E-07
DataValue, 2.35, 0, 0, -2.9068E-07, -4.5000000000000005E-13, 2.9066E-07
DataValue, 2.4, 0, 0, -2.9068E-07, 2E-13, 2.907E-07
DataValue, 2.45, 0, 0, -2.9078E-07, 9.2000000000000012E-13, 2.9072E-07
DataValue, 2.5, 0, 0, -2.908E-07, 1.5200000000000002E-12, 2.9082E-07
DataValue, 2.5500000000000003, 0, 0, -2.9086E-07, 8.300000000000001E-13, 2.9082E-07
DataValue, 2.6, 0, 0, -2.9086E-07, 1.8000000000000002E-13, 2.9086E-07
DataValue, 2.65, 0, 0, -2.9092E-07, -2.3000000000000003E-13, 2.909E-07
DataValue, 2.7, 0, 0, -2.9096E-07, -1.9000000000000002E-13, 2.9096E-07
DataValue, 2.75, 0, 0, -2.9101999999999997E-07, 3.7000000000000004E-13, 2.91E-07
DataValue, 2.8000000000000003, 0, 0, -2.9104E-07, 1.22E-12, 2.9104E-07
DataValue, 2.85, 0, 0, -2.9106E-07, 1.1000000000000002E-12, 2.9106E-07
DataValue, 2.9, 0, 0, -2.9114E-07, 2.8E-13, 2.9112E-07
DataValue, 2.95, 0, 0, -2.9118E-07, -3.3E-13, 2.9115999999999997E-07
DataValue, 3, 0, 0, -2.9126E-07, -5.7E-13, 2.912E-07
DataValue, 3.0500000000000003, 0, 0, -2.9128E-07, 2.8E-13, 2.9124E-07
DataValue, 3.1, 0, 0, -2.9132E-07, 6.0000000000000007E-13, 2.9129999999999997E-07
DataValue, 3.15, 0, 0, -2.9138E-07, 1.3000000000000001E-12, 2.9132E-07
DataValue, 3.2, 0, 0, -2.9142E-07, 1.1600000000000001E-12, 2.9138E-07
DataValue, 3.25, 0, 0, -2.9146E-07, 9.4E-13, 2.9142E-07
DataValue, 3.3000000000000003, 0, 0, -2.915E-07, 3.5E-13, 2.9143999999999997E-07
DataValue, 3.35, 0, 0, -2.9152E-07, -2.3000000000000003E-13, 2.9148E-07
DataValue, 3.4, 0, 0, -2.9157999999999997E-07, -2.4000000000000004E-13, 2.9154E-07
DataValue, 3.45, 0, 0, -2.916E-07, -5.1E-13, 2.916E-07
DataValue, 3.5, 0, 0, -2.9164E-07, -4.0000000000000006E-14, 2.9168E-07
DataValue, 3.5500000000000003, 0, 0, -2.9168E-07, 7.3E-13, 2.9168E-07
DataValue, 3.6, 0, 0, -2.9176E-07, 1.1600000000000001E-12, 2.9174E-07
DataValue, 3.65, 0, 0, -2.9176E-07, 1.37E-12, 2.9178E-07
DataValue, 3.7, 0, 0, -2.9182E-07, 9.6000000000000015E-13, 2.9182E-07
DataValue, 3.75, 0, 0, -2.9185999999999997E-07, 3.4E-13, 2.9185999999999997E-07
DataValue, 3.8000000000000003, 0, 0, -2.9192E-07, 4.0000000000000006E-14, 2.919E-07
DataValue, 3.85, 0, 0, -2.9196E-07, 2.0000000000000003E-14, 2.9192E-07
DataValue, 3.9, 0, 0, -2.9199999999999997E-07, -5.1E-13, 2.9198E-07
DataValue, 3.95, 0, 0, -2.9202E-07, -1.1000000000000001E-13, 2.9202E-07
DataValue, 4, 0, 0, -2.9206E-07, 7.6000000000000009E-13, 2.9204E-07
DataValue, 4.05, 0, 0, -2.9212E-07, 8.2E-13, 2.921E-07
DataValue, 4.1, 0, 0, -2.9216E-07, 1.5200000000000002E-12, 2.9213999999999997E-07
DataValue, 4.15, 0, 0, -2.922E-07, 1.2500000000000001E-12, 2.9218E-07
DataValue, 4.2, 0, 0, -2.9226E-07, 1.21E-12, 2.9224E-07
DataValue, 4.25, 0, 0, -2.923E-07, 3.8000000000000005E-13, 2.9226E-07
DataValue, 4.3, 0, 0, -2.9232E-07, 2.4000000000000004E-13, 2.9232E-07
DataValue, 4.3500000000000005, 0, 0, -2.924E-07, -1.6000000000000003E-13, 2.9236E-07
DataValue, 4.4, 0, 0, -2.9242E-07, 1.1000000000000001E-13, 2.924E-07
DataValue, 4.45, 0, 0, -2.9246E-07, 5.6E-13, 2.9242E-07
DataValue, 4.5, 0, 0, -2.925E-07, 7E-13, 2.9246E-07
DataValue, 4.55, 0, 0, -2.9254E-07, 9.8E-13, 2.9254E-07
DataValue, 4.6000000000000005, 0, 0, -2.9258E-07, 1.21E-12, 2.9256E-07
DataValue, 4.65, 0, 0, -2.9264E-07, 7E-13, 2.926E-07
DataValue, 4.7, 0, 0, -2.9266E-07, 1.0000000000000002E-14, 2.9262E-07
DataValue, 4.75, 0, 0, -2.927E-07, -1.2000000000000002E-13, 2.927E-07
DataValue, 4.8, 0, 0, -2.9276E-07, -2.1000000000000001E-13, 2.927E-07
DataValue, 4.8500000000000005, 0, 0, -2.9278E-07, 1.3E-13, 2.9278E-07
DataValue, 4.9, 0, 0, -2.9282E-07, -3.0000000000000005E-14, 2.9282E-07
DataValue, 4.95, 0, 0, -2.9286E-07, 8.8000000000000009E-13, 2.9284E-07
DataValue, 5, 0, 0, -2.9292E-07, 8.2E-13, 2.9288E-07
DataValue, 5.05, 0, 0, -2.9294E-07, 1.5400000000000001E-12, 2.9294E-07
DataValue, 5.1000000000000005, 0, 0, -2.93E-07, 4.0000000000000006E-14, 2.9296E-07
DataValue, 5.15, 0, 0, -2.9304E-07, -6.0000000000000009E-14, 2.9302E-07
DataValue, 5.2, 0, 0, -2.9308E-07, -1.1000000000000001E-13, 2.9308E-07
DataValue, 5.25, 0, 0, -2.9312E-07, 3.3E-13, 2.931E-07
DataValue, 5.3, 0, 0, -2.9318E-07, 1.0600000000000001E-12, 2.9314E-07
DataValue, 5.3500000000000005, 0, 0, -2.932E-07, 1.1600000000000001E-12, 2.932E-07
DataValue, 5.4, 0, 0, -2.9324E-07, 4.8000000000000008E-13, 2.9324E-07
DataValue, 5.45, 0, 0, -2.933E-07, 2.2000000000000002E-13, 2.9326E-07
DataValue, 5.5, 0, 0, -2.9334E-07, -1.9000000000000002E-13, 2.9332E-07
DataValue, 5.55, 0, 0, -2.9338E-07, -2.1000000000000001E-13, 2.9336E-07
DataValue, 5.6000000000000005, 0, 0, -2.9346E-07, -5.7E-13, 2.9342E-07
DataValue, 5.65, 0, 0, -2.9346E-07, 4.8000000000000008E-13, 2.9344E-07
DataValue, 5.7, 0, 0, -2.935E-07, 1.03E-12, 2.935E-07
DataValue, 5.75, 0, 0, -2.9356E-07, 9.4E-13, 2.9354E-07
DataValue, 5.8, 0, 0, -2.936E-07, 1.41E-12, 2.936E-07
DataValue, 5.8500000000000005, 0, 0, -2.9362E-07, 9.6000000000000015E-13, 2.9362E-07
DataValue, 5.9, 0, 0, -2.9368E-07, 5.7E-13, 2.9368E-07
DataValue, 5.95, 0, 0, -2.9374E-07, 3.7000000000000004E-13, 2.9372E-07
DataValue, 6, 0, 0, -2.9376E-07, -7.100000000000001E-13, 2.9374E-07
DataValue, 6.05, 0, 0, -2.938E-07, -4.6000000000000006E-13, 2.9378E-07
DataValue, 6.1000000000000005, 0, 0, -2.9386E-07, -1.6000000000000003E-13, 2.938E-07
DataValue, 6.15, 0, 0, -2.9386E-07, 4.5000000000000005E-13, 2.9388E-07
DataValue, 6.2, 0, 0, -2.9392E-07, 7E-13, 2.939E-07
DataValue, 6.25, 0, 0, -2.9398E-07, 1.32E-12, 2.9396E-07
DataValue, 6.3, 0, 0, -2.9402E-07, 1.0100000000000001E-12, 2.9402E-07
DataValue, 6.3500000000000005, 0, 0, -2.9404E-07, 5.1E-13, 2.9406E-07
DataValue, 6.4, 0, 0, -2.9412E-07, 5E-13, 2.9408E-07
DataValue, 6.45, 0, 0, -2.9414E-07, -4.7E-13, 2.9412E-07
DataValue, 6.5, 0, 0, -2.942E-07, -2.2000000000000002E-13, 2.9416E-07
DataValue, 6.55, 0, 0, -2.9422E-07, -3.3E-13, 2.942E-07
DataValue, 6.6000000000000005, 0, 0, -2.9428E-07, 3.1000000000000004E-13, 2.9424E-07
DataValue, 6.65, 0, 0, -2.943E-07, 7.9000000000000007E-13, 2.9432E-07
DataValue, 6.7, 0, 0, -2.9438E-07, 1.26E-12, 2.9432E-07
DataValue, 6.75, 0, 0, -2.944E-07, 1.32E-12, 2.944E-07
DataValue, 6.8, 0, 0, -2.9442E-07, 8.300000000000001E-13, 2.9444E-07
DataValue, 6.8500000000000005, 0, 0, -2.9448E-07, 5.9E-13, 2.9446E-07
DataValue, 6.9, 0, 0, -2.9452E-07, -2.5E-13, 2.945E-07
DataValue, 6.95, 0, 0, -2.9458E-07, -1.1000000000000001E-13, 2.9452E-07
DataValue, 7, 0, 0, -2.9458E-07, -3.4E-13, 2.9458E-07
DataValue, 7.05, 0, 0, -2.9464E-07, 2.9000000000000003E-13, 2.946E-07
DataValue, 7.1000000000000005, 0, 0, -2.947E-07, 1.1500000000000002E-12, 2.947E-07
DataValue, 7.15, 0, 0, -2.9474E-07, 1.14E-12, 2.9472E-07
DataValue, 7.2, 0, 0, -2.948E-07, 1.1100000000000001E-12, 2.9478E-07
DataValue, 7.25, 0, 0, -2.948E-07, 6.1E-13, 2.948E-07
DataValue, 7.3, 0, 0, -2.9486E-07, 1E-13, 2.9482E-07
DataValue, 7.3500000000000005, 0, 0, -2.9488E-07, -8.0000000000000013E-14, 2.9488E-07
DataValue, 7.4, 0, 0, -2.9494E-07, -7.8000000000000011E-13, 2.9494E-07
DataValue, 7.45, 0, 0, -2.95E-07, 3.5E-13, 2.9498E-07
DataValue, 7.5, 0, 0, -2.9502E-07, 1.14E-12, 2.95E-07
DataValue, 7.55, 0, 0, -2.9506E-07, 1.0500000000000002E-12, 2.9502E-07
DataValue, 7.6000000000000005, 0, 0, -2.9508E-07, 5.4E-13, 2.9508E-07
DataValue, 7.65, 0, 0, -2.9514E-07, 1.5000000000000002E-13, 2.9516E-07
DataValue, 7.7, 0, 0, -2.9518E-07, -1.2000000000000002E-13, 2.9518E-07
DataValue, 7.75, 0, 0, -2.9524E-07, 7E-14, 2.9524E-07
DataValue, 7.8, 0, 0, -2.9528E-07, -4.7E-13, 2.9526E-07
DataValue, 7.8500000000000005, 0, 0, -2.9532E-07, 5E-14, 2.953E-07
DataValue, 7.9, 0, 0, -2.9536E-07, 9.6000000000000015E-13, 2.9534E-07
DataValue, 7.95, 0, 0, -2.954E-07, 1.31E-12, 2.954E-07
DataValue, 8, 0, 0, -2.9544E-07, 1.18E-12, 2.9544E-07
DataValue, 8.05, 0, 0, -2.9548E-07, 9.5E-13, 2.9546E-07
DataValue, 8.1, 0, 0, -2.955E-07, 3.2000000000000005E-13, 2.9548E-07
DataValue, 8.15, 0, 0, -2.9556E-07, 4.0000000000000006E-14, 2.9554E-07
DataValue, 8.2, 0, 0, -2.9562E-07, -2.6E-13, 2.9559999999999997E-07
DataValue, 8.25, 0, 0, -2.9562E-07, -4.0000000000000006E-14, 2.9562E-07
DataValue, 8.3, 0, 0, -2.957E-07, 8.4000000000000006E-13, 2.9568E-07
DataValue, 8.35, 0, 0, -2.9573999999999997E-07, 1.4800000000000002E-12, 2.9572E-07
DataValue, 8.4, 0, 0, -2.9578E-07, 1.1100000000000001E-12, 2.9576E-07
DataValue, 8.45, 0, 0, -2.9584E-07, 9.000000000000001E-13, 2.9578E-07
DataValue, 8.5, 0, 0, -2.9586E-07, 1.8000000000000002E-13, 2.9586E-07
DataValue, 8.55, 0, 0, -2.959E-07, 3.4E-13, 2.959E-07
DataValue, 8.6, 0, 0, -2.9596E-07, -4.2000000000000003E-13, 2.9594E-07
DataValue, 8.65, 0, 0, -2.96E-07, -6.2000000000000008E-13, 2.9596E-07
DataValue, 8.7000000000000011, 0, 0, -2.9604E-07, 3.9000000000000005E-13, 2.9601999999999997E-07
DataValue, 8.75, 0, 0, -2.9608E-07, 4.2000000000000003E-13, 2.9604E-07
DataValue, 8.8, 0, 0, -2.9608E-07, 8.4000000000000006E-13, 2.9614E-07
DataValue, 8.85, 0, 0, -2.9615999999999997E-07, 1.5300000000000001E-12, 2.9614E-07
DataValue, 8.9, 0, 0, -2.962E-07, 1.3000000000000001E-12, 2.9618E-07
DataValue, 8.9500000000000011, 0, 0, -2.9624E-07, 2.3000000000000003E-13, 2.962E-07
DataValue, 9, 0, 0, -2.9628E-07, -4.0000000000000006E-14, 2.9628E-07
DataValue, 9.05, 0, 0, -2.9632E-07, -2.9000000000000003E-13, 2.9629999999999997E-07
DataValue, 9.1, 0, 0, -2.9638E-07, -2.3000000000000003E-13, 2.9636E-07
DataValue, 9.15, 0, 0, -2.9642E-07, -2.6E-13, 2.9638E-07
DataValue, 9.2000000000000011, 0, 0, -2.9646E-07, 1.6000000000000003E-13, 2.9642E-07
DataValue, 9.25, 0, 0, -2.9648E-07, 8.9E-13, 2.9648E-07
DataValue, 9.3, 0, 0, -2.9652E-07, 1.13E-12, 2.9654E-07
DataValue, 9.35, 0, 0, -2.9657999999999997E-07, 1.02E-12, 2.9656E-07
DataValue, 9.4, 0, 0, -2.9662E-07, 3.4E-13, 2.966E-07
DataValue, 9.4500000000000011, 0, 0, -2.9666E-07, -2.9000000000000003E-13, 2.9664E-07
DataValue, 9.5, 0, 0, -2.9671999999999997E-07, -3.0000000000000005E-14, 2.967E-07
DataValue, 9.55, 0, 0, -2.9676E-07, -6.0000000000000007E-13, 2.9671999999999997E-07
DataValue, 9.6, 0, 0, -2.968E-07, 1E-13, 2.9674E-07
DataValue, 9.65, 0, 0, -2.9684E-07, 9.8E-13, 2.9682E-07
DataValue, 9.7000000000000011, 0, 0, -2.9688E-07, 1.18E-12, 2.9685999999999997E-07
DataValue, 9.75, 0, 0, -2.9692E-07, 1.1900000000000002E-12, 2.9692E-07
DataValue, 9.8, 0, 0, -2.9696E-07, 4.5000000000000005E-13, 2.9696E-07
DataValue, 9.85, 0, 0, -2.9698E-07, 5.4E-13, 2.9699999999999997E-07
DataValue, 9.9, 0, 0, -2.9704E-07, -1.4E-13, 2.9699999999999997E-07
DataValue, 9.9500000000000011, 0, 0, -2.971E-07, -1.6000000000000003E-13, 2.9708E-07
