
SetupTitle, TFT Id-Vg-1
PrimitiveTest, I/V Sweep
TestParameter, Context.MainFrame, B1500A
TestParameter, Channel.UnitType, SMU, SMU, SMU
TestParameter, Channel.Unit, SMU4:HR, SMU1:HP, SMU3:HR
TestParameter, Channel.IName, Isource, Igate, Idrain
TestParameter, Channel.VName, Vsource, Vgate, Vdrain
TestParameter, Channel.Mode, V, V, V
TestParameter, Channel.Func, CONST, VAR1, VAR2
TestParameter, Channel.Index, 
TestParameter, Channel.Time, 
TestParameter, Measurement.Port.Unit, SMU4:HR, SMU1:HP, SMU3:HR
TestParameter, Measurement.Port.SeriesResistor, NONE, NONE, NONE
TestParameter, Measurement.Port.Filter, ON, ON, ON
TestParameter, Measurement.Port.OutputVoltageComparison, 0, 0, 0
TestParameter, Measurement.Primary.Locus, Single
TestParameter, Measurement.Primary.Scale, LINEAR
TestParameter, Measurement.Primary.Start, -5
TestParameter, Measurement.Primary.Stop, 10
TestParameter, Measurement.Primary.Step, 0.05
TestParameter, Measurement.Primary.Compliance, 0.01
TestParameter, Measurement.Primary.PowerCompliance, 0
TestParameter, Measurement.Aborting.Condition, CONTINUE AT ANY
TestParameter, Measurement.PostOutput.Value, START
TestParameter, Measurement.PostOutput.Retention, OFF
TestParameter, Measurement.Secondary.Start, 1
TestParameter, Measurement.Secondary.Count, 3
TestParameter, Measurement.Secondary.Step, 2
TestParameter, Measurement.Secondary.Compliance, 0.0001
TestParameter, Measurement.Secondary.PowerCompliance, 0
TestParameter, Measurement.Bias.Source, 0, -5, 1
TestParameter, Measurement.Bias.Compliance, 0.1, 0.01, 0.0001
TestParameter, Measurement.Monitor.Unit, SMU4:HR, SMU1:HP, SMU3:HR
TestParameter, Measurement.Monitor.Adc, HR ADC, HR ADC, HR ADC
TestParameter, Measurement.Monitor.Measurement, Compliance Side, Compliance Side, Compliance Side
TestParameter, Measurement.Monitor.RangingMode, LIMITED, LIMITED, LIMITED
TestParameter, Measurement.Monitor.RangeBoundary, 1nA, 1nA, 100pA
TestParameter, Measurement.Monitor.RangeRating, BY FULL RANGE, BY FULL RANGE, BY FULL RANGE
TestParameter, Measurement.Monitor.RangeRatingCoeff, 50, 50, 50
TestParameter, Measurement.Timing.Hold, 0
TestParameter, Measurement.Timing.Delay, 0
TestParameter, Measurement.Adc.HighSpeed.Mode, AUTO
TestParameter, Measurement.Adc.HighSpeed.Coeff, 1
TestParameter, Measurement.Adc.HighResolution.AutoZero, OFF
TestParameter, Measurement.Adc.HighResolution.Mode, AUTO
TestParameter, Measurement.Adc.HighResolution.Coeff, 6
TestParameter, Measurement.WaitTime.Source.Coeff, 1
TestParameter, Measurement.WaitTime.Source.Offset, 0
TestParameter, Measurement.WaitTime.Monitor.Coeff, 1
TestParameter, Measurement.WaitTime.Monitor.Offset, 0
TestParameter, Function.User.Name, gm
TestParameter, Function.User.Unit, S
TestParameter, Function.User.Definition, diff(Idrain, Vgate)
TestParameter, Output.Graph.Enabled, true
TestParameter, Output.Graph.XAxis.Data, Vgate
TestParameter, Output.Graph.XAxis.Scale, Linear
TestParameter, Output.Graph.XAxis.Left, -2
TestParameter, Output.Graph.XAxis.Right, 15
TestParameter, Output.Graph.YAxis.Data, Idrain, gm, Idrain
TestParameter, Output.Graph.YAxis.Scale, Log, Linear, Linear
TestParameter, Output.Graph.YAxis.Bottom, 0, 0, -0.0001
TestParameter, Output.Graph.YAxis.Top, 0.001, 1, 0.0001
TestParameter, Output.Graph.YAxis.Group, , , 
TestParameter, Output.List.Data, Vgate, Vdrain, Igate, Idrain, gm
TestParameter, AutoAnalysis.Interpolation, false
TestParameter, AutoAnalysis.Line1.Enabled, false
TestParameter, AutoAnalysis.Line1.Type, 1
TestParameter, AutoAnalysis.Line1.Fix, True
TestParameter, AutoAnalysis.Line1.YAxis, 0
TestParameter, AutoAnalysis.Line1.Point1.Type, 0
TestParameter, AutoAnalysis.Line1.Point1.XY.X, 
TestParameter, AutoAnalysis.Line1.Point1.XY.Y, 
TestParameter, AutoAnalysis.Line1.Point1.Data.Var, 
TestParameter, AutoAnalysis.Line1.Point1.Data.Condition, 
TestParameter, AutoAnalysis.Line1.Point1.Data.Start, false
TestParameter, AutoAnalysis.Line1.Point1.Data.StartVar, 
TestParameter, AutoAnalysis.Line1.Point1.Data.StartCondition, 
TestParameter, AutoAnalysis.Line1.Point2.Type, 0
TestParameter, AutoAnalysis.Line1.Point2.XY.X, 
TestParameter, AutoAnalysis.Line1.Point2.XY.Y, 
TestParameter, AutoAnalysis.Line1.Point2.Data.Var, 
TestParameter, AutoAnalysis.Line1.Point2.Data.Condition, 
TestParameter, AutoAnalysis.Line1.Point2.Data.Start, false
TestParameter, AutoAnalysis.Line1.Point2.Data.StartVar, 
TestParameter, AutoAnalysis.Line1.Point2.Data.StartCondition, 
TestParameter, AutoAnalysis.Line1.GradientExpr, 0
TestParameter, AutoAnalysis.Line2.Enabled, false
TestParameter, AutoAnalysis.Line2.Type, 1
TestParameter, AutoAnalysis.Line2.Fix, True
TestParameter, AutoAnalysis.Line2.YAxis, 0
TestParameter, AutoAnalysis.Line2.Point1.Type, 0
TestParameter, AutoAnalysis.Line2.Point1.XY.X, 
TestParameter, AutoAnalysis.Line2.Point1.XY.Y, 
TestParameter, AutoAnalysis.Line2.Point1.Data.Var, 
TestParameter, AutoAnalysis.Line2.Point1.Data.Condition, 
TestParameter, AutoAnalysis.Line2.Point1.Data.Start, false
TestParameter, AutoAnalysis.Line2.Point1.Data.StartVar, 
TestParameter, AutoAnalysis.Line2.Point1.Data.StartCondition, 
TestParameter, AutoAnalysis.Line2.Point2.Type, 0
TestParameter, AutoAnalysis.Line2.Point2.XY.X, 
TestParameter, AutoAnalysis.Line2.Point2.XY.Y, 
TestParameter, AutoAnalysis.Line2.Point2.Data.Var, 
TestParameter, AutoAnalysis.Line2.Point2.Data.Condition, 
TestParameter, AutoAnalysis.Line2.Point2.Data.Start, false
TestParameter, AutoAnalysis.Line2.Point2.Data.StartVar, 
TestParameter, AutoAnalysis.Line2.Point2.Data.StartCondition, 
TestParameter, AutoAnalysis.Line2.GradientExpr, 0
TestParameter, AutoAnalysis.Marker.Enabled, false
TestParameter, AutoAnalysis.Marker.Data.Var, 
TestParameter, AutoAnalysis.Marker.Data.Condition, 
TestParameter, AutoAnalysis.Marker.Data.Start, false
TestParameter, AutoAnalysis.Marker.Data.StartVar, 
TestParameter, AutoAnalysis.Marker.Data.StartCondition, 
MetaData, TestRecord.EntryPoint, true
MetaData, TestRecord.RecordTime, 11/10/2017 10:18:30
MetaData, TestRecord.TestTarget, 25um_50um
MetaData, TestRecord.IterationIndex, 1
MetaData, TestRecord.Preservation, true
MetaData, TestRecord.Flag, 
MetaData, TestRecord.Remarks, 
MetaData, TestRecord.LinkKey, 149a5c00-a7f7-40cd-9ecf-b386d33dc387
Dimension1, 301, 301, 301, 301, 301
Dimension2, 3, 3, 3, 3, 3
DataName, Vgate, Vdrain, Igate, Idrain, gm
DataValue, -5, 1, 2.5E-13, 2.024E-13, -3.4400000000000124E-12
DataValue, -4.95, 1, 1E-13, 3.04E-14, -1.9280000000000067E-12
DataValue, -4.9, 1, -1.4E-13, 9.6E-15, -1.3600000000000051E-13
DataValue, -4.8500000000000005, 1, -3.0000000000000003E-13, 1.68E-14, -3.8799999999999789E-13
DataValue, -4.8, 1, 2.3000000000000003E-13, -2.92E-14, -6.1199999999999669E-13
DataValue, -4.75, 1, 0, -4.44E-14, -2.0600000000000074E-13
DataValue, -4.7, 1, -1.4E-13, -4.98E-14, -4.180000000000015E-13
DataValue, -4.65, 1, -9.0000000000000008E-14, -8.62E-14, -7.6000000000000272E-13
DataValue, -4.6000000000000005, 1, 5.9E-13, -1.258E-13, -5.6999999999999676E-13
DataValue, -4.55, 1, -3.4E-13, -1.4319999999999999E-13, 4.919999999999975E-13
DataValue, -4.5, 1, -5E-13, -7.66E-14, 9.1000000000000319E-13
DataValue, -4.45, 1, 8.4000000000000006E-13, -5.22E-14, 7.2600000000000256E-13
DataValue, -4.4, 1, 7.3E-13, -4E-15, -5.3400000000000186E-13
DataValue, -4.3500000000000005, 1, 1.1500000000000002E-12, -1.056E-13, -1.2039999999999935E-12
DataValue, -4.3, 1, 1.6000000000000003E-13, -1.244E-13, -6.5999999999999648E-13
DataValue, -4.25, 1, 3.4E-13, -1.716E-13, -2.6600000000000079E-13
DataValue, -4.2, 1, -1.6000000000000003E-13, -1.51E-13, 1.2800000000000052E-13
DataValue, -4.15, 1, -1.7E-13, -1.588E-13, -6.4199999999999676E-13
DataValue, -4.1, 1, -3.2000000000000005E-13, -2.152E-13, -3.9199999999999793E-13
DataValue, -4.05, 1, 0, -1.98E-13, 5.86000000000002E-13
DataValue, -4, 1, -5.7E-13, -1.566E-13, 1.9200000000000052E-13
DataValue, -3.95, 1, -5E-14, -1.788E-13, -2.9799999999999959E-13
DataValue, -3.9, 1, 7.6000000000000009E-13, -1.864E-13, -2.9199999999999966E-13
DataValue, -3.85, 1, 2.0000000000000003E-14, -2.08E-13, 5.1200000000000186E-13
DataValue, -3.8000000000000003, 1, -7.5E-13, -1.352E-13, 7.1399999999999938E-13
DataValue, -3.75, 1, 5.5000000000000008E-13, -1.366E-13, -3.7999999999999954E-13
DataValue, -3.7, 1, 4.5000000000000005E-13, -1.7319999999999998E-13, -1.8399999999999987E-13
DataValue, -3.65, 1, -5.3000000000000006E-13, -1.55E-13, 6.7599999999999924E-13
DataValue, -3.6, 1, -1.3E-13, -1.056E-13, -9.4400000000000325E-13
DataValue, -3.5500000000000003, 1, 3.6000000000000003E-13, -2.494E-13, -1.0539999999999989E-12
DataValue, -3.5, 1, -4.1E-13, -2.1099999999999998E-13, 9.219999999999989E-13
DataValue, -3.45, 1, -1E-13, -1.572E-13, 9.6599999999999912E-13
DataValue, -3.4, 1, -1.3E-13, -1.144E-13, 5.7999999999999955E-13
DataValue, -3.35, 1, 5.4E-13, -9.92E-14, -4.6600000000000165E-13
DataValue, -3.3000000000000003, 1, 1.1900000000000002E-12, -1.61E-13, -9.83999999999999E-13
DataValue, -3.25, 1, -1.0000000000000002E-14, -1.9759999999999999E-13, 7.099999999999994E-13
DataValue, -3.2, 1, 5.3000000000000006E-13, -9E-14, 9.61999999999999E-13
DataValue, -3.15, 1, 1.0600000000000001E-12, -1.014E-13, -7.6399999999999937E-13
DataValue, -3.1, 1, 1.26E-12, -1.664E-13, -1.3760000000000048E-12
DataValue, -3.0500000000000003, 1, 1.5000000000000002E-13, -2.39E-13, -6.1999999999999958E-13
DataValue, -3, 1, -2.5E-13, -2.284E-13, 8.6399999999999915E-13
DataValue, -2.95, 1, -2.1000000000000001E-13, -1.526E-13, 4.7199999999999971E-13
DataValue, -2.9, 1, 2.5E-13, -1.812E-13, -4.7799999999999938E-13
DataValue, -2.85, 1, 3.7000000000000004E-13, -2.0039999999999998E-13, -5.1600000000000164E-13
DataValue, -2.8000000000000003, 1, -2.4000000000000004E-13, -2.328E-13, 5.6999999999999929E-13
DataValue, -2.75, 1, -3.2000000000000005E-13, -1.434E-13, 2.6999999999999961E-13
DataValue, -2.7, 1, -1.3E-13, -2.058E-13, -6.0799999999999953E-13
DataValue, -2.65, 1, -1.3E-13, -2.042E-13, 8.3599999999999916E-13
DataValue, -2.6, 1, -4.6000000000000006E-13, -1.222E-13, 6.3200000000000225E-13
DataValue, -2.5500000000000003, 1, 8E-13, -1.41E-13, 2.4199999999999978E-13
DataValue, -2.5, 1, 6.7000000000000007E-13, -9.8E-14, 5.0999999999999964E-13
DataValue, -2.45, 1, 1.2500000000000001E-12, -9E-14, -4.5799999999999966E-13
DataValue, -2.4, 1, 9.9E-13, -1.438E-13, -5.4599999999999939E-13
DataValue, -2.35, 1, 1.1000000000000001E-13, -1.4459999999999999E-13, -1.9000000000000063E-13
DataValue, -2.3000000000000003, 1, 7.4000000000000008E-13, -1.628E-13, -3.7599999999999976E-13
DataValue, -2.25, 1, -7E-14, -1.822E-13, -4.7999999999999957E-13
DataValue, -2.2, 1, -8.0000000000000013E-14, -2.108E-13, -1.1199999999999983E-13
DataValue, -2.15, 1, 2.8E-13, -1.934E-13, 4.1599999999999959E-13
DataValue, -2.1, 1, -1.1000000000000001E-13, -1.692E-13, 5.439999999999995E-13
DataValue, -2.05, 1, 1E-13, -1.39E-13, -5.899999999999992E-13
DataValue, -2, 1, 5.2E-13, -2.282E-13, -8.5200000000000122E-13
DataValue, -1.95, 1, 3.8000000000000005E-13, -2.242E-13, 2.5400000000000008E-13
DataValue, -1.9000000000000001, 1, -3.1000000000000004E-13, -2.028E-13, 3.6600000000000041E-13
DataValue, -1.85, 1, 2.0000000000000003E-14, -1.876E-13, -1.9999999999998885E-15
DataValue, -1.8, 1, 2.7E-13, -2.03E-13, -1.7999999999999984E-13
DataValue, -1.75, 1, -6.0000000000000009E-14, -2.056E-13, 3.8399999999999958E-13
DataValue, -1.7, 1, -2E-13, -1.646E-13, 3.60000000000001E-14
DataValue, -1.6500000000000001, 1, -2.5E-13, -2.02E-13, -1.0660000000000013E-12
DataValue, -1.6, 1, 2.0000000000000003E-14, -2.712E-13, -5.4199999999999961E-13
DataValue, -1.55, 1, -4E-13, -2.562E-13, 4.8799999999999964E-13
DataValue, -1.5, 1, -2.6E-13, -2.224E-13, 4.8199999999999966E-13
DataValue, -1.45, 1, 3.6000000000000003E-13, -2.08E-13, -1.6000000000000156E-14
DataValue, -1.4000000000000001, 1, -5.2E-13, -2.24E-13, 3.3200000000000045E-13
DataValue, -1.35, 1, 2.0000000000000003E-14, -1.748E-13, 1.0439999999999992E-12
DataValue, -1.3, 1, 7.8000000000000011E-13, -1.196E-13, 4.4399999999999952E-13
DataValue, -1.25, 1, 7.2000000000000006E-13, -1.304E-13, -5.0599999999999966E-13
DataValue, -1.2, 1, 1.09E-12, -1.702E-13, -5.2400000000000049E-13
DataValue, -1.1500000000000001, 1, 1.17E-12, -1.828E-13, -5.9000000000000052E-13
DataValue, -1.1, 1, 4.4000000000000004E-13, -2.2919999999999997E-13, -1.5999999999999992E-13
DataValue, -1.05, 1, -6.400000000000001E-13, -1.988E-13, 1.1199999999999957E-13
DataValue, -1, 1, -2.4000000000000004E-13, -2.18E-13, 2.1399999999999995E-13
DataValue, -0.95000000000000007, 1, 6.2000000000000008E-13, -1.774E-13, 3.7600000000000022E-13
DataValue, -0.9, 1, -2.0000000000000003E-14, -1.804E-13, 1.6599999999999985E-13
DataValue, -0.85, 1, 7E-14, -1.608E-13, 2.5400000000000003E-13
DataValue, -0.8, 1, 1.07E-12, -1.55E-13, -6.0400000000000015E-13
DataValue, -0.75, 1, 5.2E-13, -2.212E-13, -3.6000000000000008E-13
DataValue, -0.70000000000000007, 1, -3.6000000000000003E-13, -1.91E-13, -2.719999999999998E-13
DataValue, -0.65, 1, -2.7E-13, -2.484E-13, -5.5599999999999935E-13
DataValue, -0.6, 1, 2.3000000000000003E-13, -2.466E-13, 6.2E-13
DataValue, -0.55, 1, 7E-14, -1.864E-13, 5.56E-13
DataValue, -0.5, 1, 8.5000000000000011E-13, -1.91E-13, 5.1799999999999971E-13
DataValue, -0.45, 1, 3.1000000000000004E-13, -1.346E-13, 1.1020000000000002E-12
DataValue, -0.4, 1, 7.6000000000000009E-13, -8.08E-14, 1.3200000000000002E-12
DataValue, -0.35000000000000003, 1, 9.6000000000000015E-13, -2.6E-15, 5.0339999999999981E-12
DataValue, -0.3, 1, -1.7E-13, 4.226E-13, 2.4995999999999992E-11
DataValue, -0.25, 1, 5E-14, 2.497E-12, 9.5810000000000016E-11
DataValue, -0.2, 1, 1.31E-12, 1.00036E-11, 3.40808E-10
DataValue, -0.15, 1, 1.13E-12, 3.65778E-11, 1.046682E-09
DataValue, -0.1, 1, -2.7E-13, 1.146718E-10, 2.5662220000000005E-09
DataValue, -0.05, 1, 9.2000000000000012E-13, 2.9320000000000003E-10, 5.040682E-09
DataValue, 0, 1, 6.5000000000000006E-13, 6.1874000000000008E-10, 8.2413E-09
DataValue, 0.05, 1, 6.8E-13, 1.1173300000000001E-09, 1.1845599999999999E-08
DataValue, 0.1, 1, -2.5300000000000003E-12, 1.8033E-09, 1.56747E-08
DataValue, 0.15, 1, 1.21E-12, 2.6848E-09, 1.9747999999999993E-08
DataValue, 0.2, 1, 1.1900000000000002E-12, 3.7781E-09, 2.3582999999999994E-08
DataValue, 0.25, 1, 6.2000000000000008E-13, 5.0431E-09, 2.7240000000000008E-08
DataValue, 0.3, 1, 4.4000000000000004E-13, 6.5021E-09, 3.0992999999999985E-08
DataValue, 0.35000000000000003, 1, -1.2000000000000002E-13, 8.1424E-09, 3.4648999999999982E-08
DataValue, 0.4, 1, 8.0000000000000013E-14, 9.967E-09, 3.8180000000000008E-08
DataValue, 0.45, 1, 5E-13, 1.19604E-08, 4.1710000000000008E-08
DataValue, 0.5, 1, 8.0000000000000013E-14, 1.4137999999999999E-08, 4.5523999999999985E-08
DataValue, 0.55, 1, 9.0000000000000008E-14, 1.65128E-08, 4.8951999999999987E-08
DataValue, 0.6, 1, 2.8E-13, 1.9033199999999997E-08, 5.2176000000000003E-08
DataValue, 0.65, 1, 2.4000000000000004E-13, 2.17304E-08, 5.5883999999999966E-08
DataValue, 0.70000000000000007, 1, 1E-13, 2.46216E-08, 6.0806E-08
DataValue, 0.75, 1, 3.8000000000000005E-13, 2.7810999999999997E-08, 6.4814E-08
DataValue, 0.8, 1, 3.1000000000000004E-13, 3.1103E-08, 6.8024E-08
DataValue, 0.85, 1, 0, 3.4613399999999995E-08, 7.2638000000000018E-08
DataValue, 0.9, 1, 5.9E-13, 3.83668E-08, 7.8083999999999947E-08
DataValue, 0.95000000000000007, 1, 9.2000000000000012E-13, 4.24218E-08, 8.172599999999996E-08
DataValue, 1, 1, 4.1E-13, 4.6539399999999993E-08, 8.5525999999999968E-08
DataValue, 1.05, 1, 4.9E-13, 5.0974399999999992E-08, 8.9365999999999928E-08
DataValue, 1.1, 1, 9.6000000000000015E-13, 5.5475999999999993E-08, 9.3307999999999938E-08
DataValue, 1.1500000000000001, 1, 7.3E-13, 6.03052E-08, 9.7458000000000091E-08
DataValue, 1.2, 1, 7.4000000000000008E-13, 6.5221799999999989E-08, 9.8924000000000152E-08
DataValue, 1.25, 1, 7.3E-13, 7.01976E-08, 1.0199999999999989E-07
DataValue, 1.3, 1, 6.5000000000000006E-13, 7.5421799999999988E-08, 1.069979999999999E-07
DataValue, 1.35, 1, 8E-13, 8.08974E-08, 1.0756999999999999E-07
DataValue, 1.4000000000000001, 1, 7.7000000000000005E-13, 8.61788E-08, 1.0889800000000017E-07
DataValue, 1.45, 1, 1.02E-12, 9.17872E-08, 1.124480000000001E-07
DataValue, 1.5, 1, 1.1100000000000001E-12, 9.7423599999999991E-08, 1.1400799999999976E-07
DataValue, 1.55, 1, 1.23E-12, 1.0318799999999998E-07, 1.1525999999999983E-07
DataValue, 1.6, 1, 9.7000000000000011E-13, 1.0894959999999998E-07, 1.16832E-07
DataValue, 1.6500000000000001, 1, 1.0500000000000002E-12, 1.148712E-07, 1.2070400000000039E-07
DataValue, 1.7, 1, 1E-12, 1.2102E-07, 1.2228800000000015E-07
DataValue, 1.75, 1, 2.3000000000000003E-13, 1.271E-07, 1.2359999999999976E-07
DataValue, 1.8, 1, -2.7E-13, 1.3338E-07, 1.2459999999999983E-07
DataValue, 1.85, 1, 4.1E-13, 1.3956E-07, 1.2920000000000002E-07
DataValue, 1.9000000000000001, 1, 1.0500000000000002E-12, 1.463E-07, 1.3020000000000039E-07
DataValue, 1.95, 1, 8.2E-13, 1.5258E-07, 1.2900000000000006E-07
DataValue, 2, 1, 4.2000000000000003E-13, 1.592E-07, 1.3300000000000012E-07
DataValue, 2.05, 1, -2E-13, 1.6588E-07, 1.339999999999999E-07
DataValue, 2.1, 1, 5.8000000000000005E-13, 1.726E-07, 1.3539999999999988E-07
DataValue, 2.15, 1, 1.07E-12, 1.7942E-07, 1.3539999999999988E-07
DataValue, 2.2, 1, 1.08E-12, 1.8614E-07, 1.371999999999998E-07
DataValue, 2.25, 1, -2E-13, 1.9314E-07, 1.3899999999999972E-07
DataValue, 2.3000000000000003, 1, -2E-13, 2.0003999999999998E-07, 1.4019999999999976E-07
DataValue, 2.35, 1, 6.5000000000000006E-13, 2.0715999999999998E-07, 1.4240000000000051E-07
DataValue, 2.4, 1, 1.13E-12, 2.1427999999999998E-07, 1.440000000000001E-07
DataValue, 2.45, 1, 8E-13, 2.2156E-07, 1.454000000000001E-07
DataValue, 2.5, 1, -1.5000000000000002E-13, 2.2882E-07, 1.4399999999999983E-07
DataValue, 2.5500000000000003, 1, 1E-13, 2.3596E-07, 1.455999999999998E-07
DataValue, 2.6, 1, 8.2E-13, 2.4338E-07, 1.4800000000000053E-07
DataValue, 2.65, 1, 1.36E-12, 2.5076E-07, 1.4580000000000002E-07
DataValue, 2.7, 1, 4.6000000000000006E-13, 2.5796E-07, 1.4699999999999979E-07
DataValue, 2.75, 1, -9.0000000000000008E-14, 2.6546E-07, 1.4839999999999979E-07
DataValue, 2.8000000000000003, 1, -3.0000000000000005E-14, 2.728E-07, 1.4219999999999965E-07
DataValue, 2.85, 1, 8.9E-13, 2.7968E-07, 1.4760000000000061E-07
DataValue, 2.9, 1, 1.4200000000000002E-12, 2.8756E-07, 1.5400000000000032E-07
DataValue, 2.95, 1, 3.0000000000000003E-13, 2.9508E-07, 1.5039999999999941E-07
DataValue, 3, 1, 1E-13, 3.0259999999999997E-07, 1.5059999999999964E-07
DataValue, 3.0500000000000003, 1, 1.6000000000000003E-13, 3.1014E-07, 1.5140000000000002E-07
DataValue, 3.1, 1, 9.7000000000000011E-13, 3.1774E-07, 1.5080000000000053E-07
DataValue, 3.15, 1, 1.5800000000000001E-12, 3.2522E-07, 1.5119999999999979E-07
DataValue, 3.2, 1, 5.4E-13, 3.3286E-07, 1.5140000000000002E-07
DataValue, 3.25, 1, 1.0000000000000002E-14, 3.4036E-07, 1.5020000000000025E-07
DataValue, 3.3000000000000003, 1, -2.0000000000000003E-14, 3.4788E-07, 1.5059999999999964E-07
DataValue, 3.35, 1, 1.03E-12, 3.5542E-07, 1.4840000000000046E-07
DataValue, 3.4, 1, 1.36E-12, 3.6272E-07, 1.4979999999999979E-07
DataValue, 3.45, 1, 2.1000000000000001E-13, 3.704E-07, 1.5019999999999972E-07
DataValue, 3.5, 1, -2.8E-13, 3.7774E-07, 1.5019999999999972E-07
DataValue, 3.5500000000000003, 1, 6.5000000000000006E-13, 3.8541999999999997E-07, 1.5479999999999964E-07
DataValue, 3.6, 1, 1.13E-12, 3.9321999999999997E-07, 1.5060000000000083E-07
DataValue, 3.65, 1, 1.27E-12, 4.0048E-07, 1.4580000000000002E-07
DataValue, 3.7, 1, 2.8E-13, 4.078E-07, 1.5479999999999964E-07
DataValue, 3.75, 1, -1.4E-13, 4.1596E-07, 1.5480000000000017E-07
DataValue, 3.8000000000000003, 1, 2.8E-13, 4.2328E-07, 1.5020000000000025E-07
DataValue, 3.85, 1, 1.08E-12, 4.3098E-07, 1.5420000000000018E-07
DataValue, 3.9, 1, 9.6000000000000015E-13, 4.387E-07, 1.5399999999999979E-07
DataValue, 3.95, 1, 5E-14, 4.4638E-07, 1.5300000000000025E-07
DataValue, 4, 1, -3.1000000000000004E-13, 4.54E-07, 1.492000000000003E-07
