
SetupTitle, TFT Id-Vd
PrimitiveTest, I/V Sweep
TestParameter, Context.MainFrame, B1500A
TestParameter, Channel.UnitType, SMU, SMU, SMU
TestParameter, Channel.Unit, SMU4:HR, SMU1:HP, SMU3:HR
TestParameter, Channel.IName, Isource, Igate, Idrain
TestParameter, Channel.VName, Vsource, Vgate, Vdrain
TestParameter, Channel.Mode, V, V, V
TestParameter, Channel.Func, CONST, VAR2, VAR1
TestParameter, Channel.Index, 
TestParameter, Channel.Time, 
TestParameter, Measurement.Port.Unit, SMU4:HR, SMU1:HP, SMU3:HR
TestParameter, Measurement.Port.SeriesResistor, NONE, NONE, NONE
TestParameter, Measurement.Port.Filter, ON, ON, ON
TestParameter, Measurement.Port.OutputVoltageComparison, 0, 0, 0
TestParameter, Measurement.Primary.Locus, Single
TestParameter, Measurement.Primary.Scale, LINEAR
TestParameter, Measurement.Primary.Start, 0
TestParameter, Measurement.Primary.Stop, 15
TestParameter, Measurement.Primary.Step, 0.05
TestParameter, Measurement.Primary.Compliance, 0.01
TestParameter, Measurement.Primary.PowerCompliance, 0
TestParameter, Measurement.Aborting.Condition, CONTINUE AT ANY
TestParameter, Measurement.PostOutput.Value, START
TestParameter, Measurement.PostOutput.Retention, OFF
TestParameter, Measurement.Secondary.Start, 0
TestParameter, Measurement.Secondary.Count, 6
TestParameter, Measurement.Secondary.Step, 2
TestParameter, Measurement.Secondary.Compliance, 0.0001
TestParameter, Measurement.Secondary.PowerCompliance, 0
TestParameter, Measurement.Bias.Source, 0, 0, 0
TestParameter, Measurement.Bias.Compliance, 0.1, 0.0001, 0.01
TestParameter, Measurement.Monitor.Unit, SMU4:HR, SMU1:HP, SMU3:HR
TestParameter, Measurement.Monitor.Adc, HR ADC, HR ADC, HR ADC
TestParameter, Measurement.Monitor.Measurement, Compliance Side, Compliance Side, Compliance Side
TestParameter, Measurement.Monitor.RangingMode, LIMITED, LIMITED, LIMITED
TestParameter, Measurement.Monitor.RangeBoundary, 1nA, 1nA, 1nA
TestParameter, Measurement.Monitor.RangeRating, BY FULL RANGE, BY FULL RANGE, BY FULL RANGE
TestParameter, Measurement.Monitor.RangeRatingCoeff, 50, 50, 50
TestParameter, Measurement.Timing.Hold, 0
TestParameter, Measurement.Timing.Delay, 0
TestParameter, Measurement.Adc.HighSpeed.Mode, AUTO
TestParameter, Measurement.Adc.HighSpeed.Coeff, 1
TestParameter, Measurement.Adc.HighResolution.AutoZero, OFF
TestParameter, Measurement.Adc.HighResolution.Mode, AUTO
TestParameter, Measurement.Adc.HighResolution.Coeff, 6
TestParameter, Measurement.WaitTime.Source.Coeff, 1
TestParameter, Measurement.WaitTime.Source.Offset, 0
TestParameter, Measurement.WaitTime.Monitor.Coeff, 1
TestParameter, Measurement.WaitTime.Monitor.Offset, 0
TestParameter, Output.Graph.Enabled, true
TestParameter, Output.Graph.XAxis.Data, Vdrain
TestParameter, Output.Graph.XAxis.Scale, Linear
TestParameter, Output.Graph.XAxis.Left, 0
TestParameter, Output.Graph.XAxis.Right, 10
TestParameter, Output.Graph.YAxis.Data, Idrain
TestParameter, Output.Graph.YAxis.Scale, Linear
TestParameter, Output.Graph.YAxis.Bottom, 0
TestParameter, Output.Graph.YAxis.Top, 0.1
TestParameter, Output.Graph.YAxis.Group, 
TestParameter, Output.List.Data, Vgate, Vdrain, Vsource, Igate, Idrain, Isource
TestParameter, AutoAnalysis.Interpolation, false
TestParameter, AutoAnalysis.Line1.Enabled, false
TestParameter, AutoAnalysis.Line1.Type, 1
TestParameter, AutoAnalysis.Line1.Fix, True
TestParameter, AutoAnalysis.Line1.YAxis, 0
TestParameter, AutoAnalysis.Line1.Point1.Type, 0
TestParameter, AutoAnalysis.Line1.Point1.XY.X, 
TestParameter, AutoAnalysis.Line1.Point1.XY.Y, 
TestParameter, AutoAnalysis.Line1.Point1.Data.Var, 
TestParameter, AutoAnalysis.Line1.Point1.Data.Condition, 
TestParameter, AutoAnalysis.Line1.Point1.Data.Start, false
TestParameter, AutoAnalysis.Line1.Point1.Data.StartVar, 
TestParameter, AutoAnalysis.Line1.Point1.Data.StartCondition, 
TestParameter, AutoAnalysis.Line1.Point2.Type, 0
TestParameter, AutoAnalysis.Line1.Point2.XY.X, 
TestParameter, AutoAnalysis.Line1.Point2.XY.Y, 
TestParameter, AutoAnalysis.Line1.Point2.Data.Var, 
TestParameter, AutoAnalysis.Line1.Point2.Data.Condition, 
TestParameter, AutoAnalysis.Line1.Point2.Data.Start, false
TestParameter, AutoAnalysis.Line1.Point2.Data.StartVar, 
TestParameter, AutoAnalysis.Line1.Point2.Data.StartCondition, 
TestParameter, AutoAnalysis.Line1.GradientExpr, 0
TestParameter, AutoAnalysis.Line2.Enabled, false
TestParameter, AutoAnalysis.Line2.Type, 1
TestParameter, AutoAnalysis.Line2.Fix, True
TestParameter, AutoAnalysis.Line2.YAxis, 0
TestParameter, AutoAnalysis.Line2.Point1.Type, 0
TestParameter, AutoAnalysis.Line2.Point1.XY.X, 
TestParameter, AutoAnalysis.Line2.Point1.XY.Y, 
TestParameter, AutoAnalysis.Line2.Point1.Data.Var, 
TestParameter, AutoAnalysis.Line2.Point1.Data.Condition, 
TestParameter, AutoAnalysis.Line2.Point1.Data.Start, false
TestParameter, AutoAnalysis.Line2.Point1.Data.StartVar, 
TestParameter, AutoAnalysis.Line2.Point1.Data.StartCondition, 
TestParameter, AutoAnalysis.Line2.Point2.Type, 0
TestParameter, AutoAnalysis.Line2.Point2.XY.X, 
TestParameter, AutoAnalysis.Line2.Point2.XY.Y, 
TestParameter, AutoAnalysis.Line2.Point2.Data.Var, 
TestParameter, AutoAnalysis.Line2.Point2.Data.Condition, 
TestParameter, AutoAnalysis.Line2.Point2.Data.Start, false
TestParameter, AutoAnalysis.Line2.Point2.Data.StartVar, 
TestParameter, AutoAnalysis.Line2.Point2.Data.StartCondition, 
TestParameter, AutoAnalysis.Line2.GradientExpr, 0
TestParameter, AutoAnalysis.Marker.Enabled, false
TestParameter, AutoAnalysis.Marker.Data.Var, 
TestParameter, AutoAnalysis.Marker.Data.Condition, 
TestParameter, AutoAnalysis.Marker.Data.Start, false
TestParameter, AutoAnalysis.Marker.Data.StartVar, 
TestParameter, AutoAnalysis.Marker.Data.StartCondition, 
MetaData, TestRecord.EntryPoint, true
MetaData, TestRecord.RecordTime, 11/10/2017 10:29:04
MetaData, TestRecord.TestTarget, 50um_50um
MetaData, TestRecord.IterationIndex, 1
MetaData, TestRecord.Preservation, true
MetaData, TestRecord.Flag, 
MetaData, TestRecord.Remarks, 
MetaData, TestRecord.LinkKey, 0e60e675-aea9-4a62-a334-6bc00a59d842
Dimension1, 301, 301, 301, 301, 301, 301
Dimension2, 6, 6, 6, 6, 6, 6
DataName, Vdrain, Vgate, Vsource, Isource, Igate, Idrain
DataValue, 0, 0, 0, -4.74E-12, 1.9000000000000002E-13, 5.8200000000000006E-12
DataValue, 0.05, 0, 0, -8.6494000000000012E-10, 9.9E-13, 8.6476E-10
DataValue, 0.1, 0, 0, -1.3233E-09, 1.3800000000000002E-12, 1.3248E-09
DataValue, 0.15, 0, 0, -1.5272E-09, -9.0000000000000008E-14, 1.5274E-09
DataValue, 0.2, 0, 0, -1.6046E-09, 6.5000000000000006E-13, 1.6045E-09
DataValue, 0.25, 0, 0, -1.6326E-09, 8.300000000000001E-13, 1.633E-09
DataValue, 0.3, 0, 0, -1.6451E-09, 1.0100000000000001E-12, 1.6456E-09
DataValue, 0.35000000000000003, 0, 0, -1.6533E-09, 2.8E-13, 1.6536E-09
DataValue, 0.4, 0, 0, -1.6587999999999999E-09, -4.1E-13, 1.6578E-09
DataValue, 0.45, 0, 0, -1.6629E-09, -5.4E-13, 1.6622E-09
DataValue, 0.5, 0, 0, -1.6663E-09, 2.1000000000000001E-13, 1.6661E-09
DataValue, 0.55, 0, 0, -1.669E-09, 8.8000000000000009E-13, 1.6696E-09
DataValue, 0.6, 0, 0, -1.6729E-09, 7.5E-13, 1.6727E-09
DataValue, 0.65, 0, 0, -1.6758E-09, 4.6000000000000006E-13, 1.6754E-09
DataValue, 0.70000000000000007, 0, 0, -1.6775E-09, 1.0000000000000002E-14, 1.6776E-09
DataValue, 0.75, 0, 0, -1.681E-09, -7E-14, 1.68E-09
DataValue, 0.8, 0, 0, -1.6826E-09, 6.5000000000000006E-13, 1.6825E-09
DataValue, 0.85, 0, 0, -1.6855E-09, 1.3500000000000001E-12, 1.685E-09
DataValue, 0.9, 0, 0, -1.6874E-09, 1.51E-12, 1.6875E-09
DataValue, 0.95000000000000007, 0, 0, -1.6892E-09, 9.6000000000000015E-13, 1.6896E-09
DataValue, 1, 0, 0, -1.692E-09, -8.0000000000000013E-14, 1.6922E-09
DataValue, 1.05, 0, 0, -1.6942E-09, -4.6000000000000006E-13, 1.6936E-09
DataValue, 1.1, 0, 0, -1.6973E-09, 2.1000000000000001E-13, 1.6956E-09
DataValue, 1.1500000000000001, 0, 0, -1.698E-09, 5.8000000000000005E-13, 1.6984E-09
DataValue, 1.2, 0, 0, -1.7006E-09, 1.04E-12, 1.7007E-09
DataValue, 1.25, 0, 0, -1.7016E-09, 6.8E-13, 1.7029E-09
DataValue, 1.3, 0, 0, -1.705E-09, -8.0000000000000013E-14, 1.7052E-09
DataValue, 1.35, 0, 0, -1.7077E-09, -3.2000000000000005E-13, 1.7071E-09
DataValue, 1.4000000000000001, 0, 0, -1.71E-09, -3.5E-13, 1.7086E-09
DataValue, 1.45, 0, 0, -1.7109E-09, 9.3E-13, 1.7111E-09
DataValue, 1.5, 0, 0, -1.7135E-09, 1.5E-12, 1.7133E-09
DataValue, 1.55, 0, 0, -1.7151E-09, 1.1000000000000002E-12, 1.7163E-09
DataValue, 1.6, 0, 0, -1.7187E-09, 2.4000000000000004E-13, 1.7182E-09
DataValue, 1.6500000000000001, 0, 0, -1.7209E-09, -1E-13, 1.7216E-09
DataValue, 1.7, 0, 0, -1.7229E-09, -2E-13, 1.7227E-09
DataValue, 1.75, 0, 0, -1.7255E-09, 1.9000000000000002E-13, 1.7245E-09
DataValue, 1.8, 0, 0, -1.7272E-09, 7.7000000000000005E-13, 1.7278E-09
DataValue, 1.85, 0, 0, -1.7305E-09, 1.23E-12, 1.7303E-09
DataValue, 1.9000000000000001, 0, 0, -1.7315E-09, 6.2000000000000008E-13, 1.7324E-09
DataValue, 1.95, 0, 0, -1.7344E-09, -8.0000000000000013E-14, 1.7336E-09
DataValue, 2, 0, 0, -1.7354E-09, -2.6E-13, 1.7352E-09
DataValue, 2.05, 0, 0, -1.7377E-09, 9.0000000000000008E-14, 1.7369E-09
DataValue, 2.1, 0, 0, -1.739E-09, 6.5000000000000006E-13, 1.7399E-09
DataValue, 2.15, 0, 0, -1.742E-09, 1.2900000000000002E-12, 1.7421E-09
DataValue, 2.2, 0, 0, -1.7445E-09, 8.9E-13, 1.7447E-09
DataValue, 2.25, 0, 0, -1.7457E-09, 2.1000000000000001E-13, 1.7463E-09
DataValue, 2.3000000000000003, 0, 0, -1.7494E-09, -2.0000000000000003E-14, 1.7481E-09
DataValue, 2.35, 0, 0, -1.7509E-09, 3.3E-13, 1.7508E-09
DataValue, 2.4, 0, 0, -1.7535E-09, 8.6000000000000007E-13, 1.7536E-09
DataValue, 2.45, 0, 0, -1.7551E-09, 1.4700000000000002E-12, 1.7547E-09
DataValue, 2.5, 0, 0, -1.757E-09, 9.5E-13, 1.7583E-09
DataValue, 2.5500000000000003, 0, 0, -1.7593E-09, 6.0000000000000009E-14, 1.7601E-09
DataValue, 2.6, 0, 0, -1.7624E-09, -2.5E-13, 1.7617E-09
DataValue, 2.65, 0, 0, -1.7634E-09, -4.4000000000000004E-13, 1.7631E-09
DataValue, 2.7, 0, 0, -1.7663E-09, -1.2000000000000002E-13, 1.7659E-09
DataValue, 2.75, 0, 0, -1.7686E-09, 5E-13, 1.7691E-09
DataValue, 2.8000000000000003, 0, 0, -1.7701E-09, 1.26E-12, 1.7703E-09
DataValue, 2.85, 0, 0, -1.7725E-09, 9.6000000000000015E-13, 1.7729E-09
DataValue, 2.9, 0, 0, -1.7753E-09, 3.9000000000000005E-13, 1.7752E-09
DataValue, 2.95, 0, 0, -1.7785E-09, -1.2000000000000002E-13, 1.7776E-09
DataValue, 3, 0, 0, -1.7802E-09, -4.0000000000000006E-14, 1.779E-09
DataValue, 3.0500000000000003, 0, 0, -1.7822E-09, 5.9E-13, 1.7818E-09
DataValue, 3.1, 0, 0, -1.7835E-09, 1.13E-12, 1.7847E-09
DataValue, 3.15, 0, 0, -1.7867E-09, 7.9000000000000007E-13, 1.7862E-09
DataValue, 3.2, 0, 0, -1.7879E-09, 5E-14, 1.7876E-09
DataValue, 3.25, 0, 0, -1.7906E-09, -4.4000000000000004E-13, 1.7904E-09
DataValue, 3.3000000000000003, 0, 0, -1.7926E-09, -1.8000000000000002E-13, 1.7924E-09
DataValue, 3.35, 0, 0, -1.7945E-09, 5.6E-13, 1.7954E-09
DataValue, 3.4, 0, 0, -1.7966E-09, 1E-12, 1.7973E-09
DataValue, 3.45, 0, 0, -1.7996999999999999E-09, 8.1000000000000008E-13, 1.7996E-09
DataValue, 3.5, 0, 0, -1.8009E-09, 6.9000000000000009E-13, 1.8014E-09
DataValue, 3.5500000000000003, 0, 0, -1.8035E-09, 3.0000000000000003E-13, 1.8031E-09
DataValue, 3.6, 0, 0, -1.8056E-09, -1.5000000000000002E-13, 1.8051E-09
DataValue, 3.65, 0, 0, -1.8068E-09, 1.9000000000000002E-13, 1.8073E-09
DataValue, 3.7, 0, 0, -1.8101E-09, 5.6E-13, 1.8097E-09
DataValue, 3.75, 0, 0, -1.812E-09, 1.1100000000000001E-12, 1.812E-09
DataValue, 3.8000000000000003, 0, 0, -1.8149E-09, 5E-13, 1.8157E-09
DataValue, 3.85, 0, 0, -1.8167E-09, -2.9000000000000003E-13, 1.817E-09
DataValue, 3.9, 0, 0, -1.8192E-09, -4.8000000000000008E-13, 1.8193E-09
DataValue, 3.95, 0, 0, -1.8214E-09, 1.0000000000000002E-14, 1.8208E-09
DataValue, 4, 0, 0, -1.8226E-09, 9.4E-13, 1.823E-09
DataValue, 4.05, 0, 0, -1.8253E-09, 1.2500000000000001E-12, 1.826E-09
DataValue, 4.1, 0, 0, -1.828E-09, 8.4000000000000006E-13, 1.8283E-09
DataValue, 4.15, 0, 0, -1.8297E-09, 5E-14, 1.8302E-09
DataValue, 4.2, 0, 0, -1.8322E-09, -1.8000000000000002E-13, 1.8324E-09
DataValue, 4.25, 0, 0, -1.8344E-09, 2.4000000000000004E-13, 1.8348E-09
DataValue, 4.3, 0, 0, -1.8368E-09, 7.5E-13, 1.8363E-09
DataValue, 4.3500000000000005, 0, 0, -1.8378E-09, 1.4700000000000002E-12, 1.8392E-09
DataValue, 4.4, 0, 0, -1.84E-09, 1.1600000000000001E-12, 1.8416E-09
DataValue, 4.45, 0, 0, -1.8437E-09, 1.0000000000000002E-14, 1.8437E-09
DataValue, 4.5, 0, 0, -1.8456E-09, 7E-14, 1.8455E-09
DataValue, 4.55, 0, 0, -1.8481E-09, 3.0000000000000005E-14, 1.8476E-09
DataValue, 4.6000000000000005, 0, 0, -1.8497E-09, 8.1000000000000008E-13, 1.8498E-09
DataValue, 4.65, 0, 0, -1.8518E-09, 1.4200000000000002E-12, 1.8528E-09
DataValue, 4.7, 0, 0, -1.8548E-09, 9.8E-13, 1.8544E-09
DataValue, 4.75, 0, 0, -1.8562E-09, 2.4000000000000004E-13, 1.8562E-09
DataValue, 4.8, 0, 0, -1.8588E-09, -5.7E-13, 1.8586E-09
DataValue, 4.8500000000000005, 0, 0, -1.8614E-09, -3.6000000000000003E-13, 1.8606E-09
DataValue, 4.9, 0, 0, -1.8623E-09, 7.3E-13, 1.8638E-09
DataValue, 4.95, 0, 0, -1.8658E-09, 1.07E-12, 1.8664E-09
DataValue, 5, 0, 0, -1.8671E-09, 8.2E-13, 1.868E-09
DataValue, 5.05, 0, 0, -1.869E-09, -4.0000000000000006E-14, 1.8695E-09
DataValue, 5.1000000000000005, 0, 0, -1.8721E-09, 8.0000000000000013E-14, 1.8711E-09
DataValue, 5.15, 0, 0, -1.8743E-09, -3.6000000000000003E-13, 1.8733E-09
DataValue, 5.2, 0, 0, -1.8768E-09, 3.1000000000000004E-13, 1.8765E-09
DataValue, 5.25, 0, 0, -1.8786E-09, 1.07E-12, 1.878E-09
DataValue, 5.3, 0, 0, -1.8797E-09, 1.2500000000000001E-12, 1.8804E-09
DataValue, 5.3500000000000005, 0, 0, -1.8823E-09, 4.4000000000000004E-13, 1.8823E-09
DataValue, 5.4, 0, 0, -1.885E-09, 2.5E-13, 1.8848E-09
DataValue, 5.45, 0, 0, -1.8878E-09, -3.5E-13, 1.8873E-09
DataValue, 5.5, 0, 0, -1.8893E-09, 4E-13, 1.8894E-09
DataValue, 5.55, 0, 0, -1.8921E-09, 9.4E-13, 1.8923999999999998E-09
DataValue, 5.6000000000000005, 0, 0, -1.8936E-09, 1.3300000000000002E-12, 1.8938E-09
DataValue, 5.65, 0, 0, -1.8959E-09, 6.5000000000000006E-13, 1.897E-09
DataValue, 5.7, 0, 0, -1.8988E-09, 2.0000000000000003E-14, 1.8983E-09
DataValue, 5.75, 0, 0, -1.8998E-09, -4.4000000000000004E-13, 1.9002E-09
DataValue, 5.8, 0, 0, -1.9036E-09, 1.1000000000000001E-13, 1.903E-09
DataValue, 5.8500000000000005, 0, 0, -1.9052E-09, 7.8000000000000011E-13, 1.9059E-09
DataValue, 5.9, 0, 0, -1.9088E-09, 1.32E-12, 1.9075E-09
DataValue, 5.95, 0, 0, -1.9098E-09, 5.7E-13, 1.9111E-09
DataValue, 6, 0, 0, -1.9125E-09, -1.4E-13, 1.912E-09
DataValue, 6.05, 0, 0, -1.9144E-09, -2E-13, 1.9143E-09
DataValue, 6.1000000000000005, 0, 0, -1.9173E-09, 3.8000000000000005E-13, 1.9157E-09
DataValue, 6.15, 0, 0, -1.9187E-09, 1.1600000000000001E-12, 1.9193E-09
DataValue, 6.2, 0, 0, -1.9209E-09, 1.1900000000000002E-12, 1.9209E-09
DataValue, 6.25, 0, 0, -1.9233E-09, 1.1000000000000002E-12, 1.9246E-09
DataValue, 6.3, 0, 0, -1.9256E-09, 6.0000000000000007E-13, 1.9255E-09
DataValue, 6.3500000000000005, 0, 0, -1.9281E-09, -1E-13, 1.9275E-09
DataValue, 6.4, 0, 0, -1.9302E-09, -4.5000000000000005E-13, 1.9295E-09
DataValue, 6.45, 0, 0, -1.9328E-09, 3.1000000000000004E-13, 1.932E-09
DataValue, 6.5, 0, 0, -1.9343E-09, 9.1000000000000016E-13, 1.9348E-09
DataValue, 6.55, 0, 0, -1.9358E-09, 1.12E-12, 1.9369E-09
DataValue, 6.6000000000000005, 0, 0, -1.9392E-09, 5.4E-13, 1.9401E-09
DataValue, 6.65, 0, 0, -1.9423E-09, 0, 1.9414E-09
DataValue, 6.7, 0, 0, -1.9435E-09, -3.5E-13, 1.9438E-09
DataValue, 6.75, 0, 0, -1.946E-09, 3.4E-13, 1.9464E-09
DataValue, 6.8, 0, 0, -1.9477E-09, 1.04E-12, 1.9474E-09
DataValue, 6.8500000000000005, 0, 0, -1.9514E-09, 1.5400000000000001E-12, 1.9512E-09
DataValue, 6.9, 0, 0, -1.9531E-09, 3.9000000000000005E-13, 1.9534E-09
DataValue, 6.95, 0, 0, -1.9549E-09, 1.1000000000000001E-13, 1.9544E-09
DataValue, 7, 0, 0, -1.9578E-09, -2.2000000000000002E-13, 1.9567E-09
DataValue, 7.05, 0, 0, -1.9602E-09, 2.5E-13, 1.9601E-09
DataValue, 7.1000000000000005, 0, 0, -1.9621E-09, 8.2E-13, 1.9625E-09
DataValue, 7.15, 0, 0, -1.9635E-09, 1.23E-12, 1.9641E-09
DataValue, 7.2, 0, 0, -1.9676E-09, 6.5000000000000006E-13, 1.9671E-09
DataValue, 7.25, 0, 0, -1.9688E-09, 0, 1.9682E-09
DataValue, 7.3, 0, 0, -1.9725E-09, -4.3000000000000004E-13, 1.9716E-09
DataValue, 7.3500000000000005, 0, 0, -1.9751E-09, -2.1000000000000001E-13, 1.9744E-09
DataValue, 7.4, 0, 0, -1.9759E-09, 6.400000000000001E-13, 1.9758E-09
DataValue, 7.45, 0, 0, -1.9777E-09, 1.03E-12, 1.9791E-09
DataValue, 7.5, 0, 0, -1.9814E-09, 1.32E-12, 1.9821E-09
DataValue, 7.55, 0, 0, -1.984E-09, 7.3E-13, 1.985E-09
DataValue, 7.6000000000000005, 0, 0, -1.9863E-09, 2E-13, 1.9862E-09
DataValue, 7.65, 0, 0, -1.9886E-09, -2.5E-13, 1.9887E-09
DataValue, 7.7, 0, 0, -1.9901E-09, 7E-13, 1.9907E-09
DataValue, 7.75, 0, 0, -1.9922E-09, 8.9E-13, 1.9928E-09
DataValue, 7.8, 0, 0, -1.9948E-09, 1.4200000000000002E-12, 1.9955E-09
DataValue, 7.8500000000000005, 0, 0, -1.9966E-09, 1.5000000000000002E-13, 1.9983E-09
DataValue, 7.9, 0, 0, -2.0005E-09, 0, 2.0006E-09
DataValue, 7.95, 0, 0, -2.0025E-09, -5.4E-13, 2.0021E-09
DataValue, 8, 0, 0, -2.0048E-09, 1.0000000000000002E-14, 2.0045E-09
DataValue, 8.05, 0, 0, -2.0068E-09, 7.3E-13, 2.0062E-09
DataValue, 8.1, 0, 0, -2.0088E-09, 1.1500000000000002E-12, 2.0089E-09
DataValue, 8.15, 0, 0, -2.0111E-09, 4.7E-13, 2.0107E-09
DataValue, 8.2, 0, 0, -2.0131E-09, 2.0000000000000003E-14, 2.0134E-09
DataValue, 8.25, 0, 0, -2.0159E-09, -2.1000000000000001E-13, 2.0161E-09
DataValue, 8.3, 0, 0, -2.0175E-09, 3.6000000000000003E-13, 2.0183E-09
DataValue, 8.35, 0, 0, -2.0209E-09, 7E-13, 2.021E-09
DataValue, 8.4, 0, 0, -2.0224E-09, 1.21E-12, 2.0234E-09
DataValue, 8.45, 0, 0, -2.0246E-09, 7.2000000000000006E-13, 2.0255E-09
DataValue, 8.5, 0, 0, -2.0275E-09, -2.0000000000000003E-14, 2.0273E-09
DataValue, 8.55, 0, 0, -2.0296E-09, -1.6000000000000003E-13, 2.0289E-09
DataValue, 8.6, 0, 0, -2.0321E-09, 3.1000000000000004E-13, 2.032E-09
DataValue, 8.65, 0, 0, -2.0341E-09, 6.5000000000000006E-13, 2.0343E-09
DataValue, 8.7000000000000011, 0, 0, -2.0367E-09, 1.21E-12, 2.0374E-09
DataValue, 8.75, 0, 0, -2.0392E-09, 6.7000000000000007E-13, 2.0396E-09
DataValue, 8.8, 0, 0, -2.0424E-09, 1.7E-13, 2.0424E-09
DataValue, 8.85, 0, 0, -2.0444E-09, -2.9000000000000003E-13, 2.0441E-09
DataValue, 8.9, 0, 0, -2.0473E-09, 2.1000000000000001E-13, 2.0473E-09
DataValue, 8.9500000000000011, 0, 0, -2.049E-09, 7.6000000000000009E-13, 2.0488E-09
DataValue, 9, 0, 0, -2.0509E-09, 1.0500000000000002E-12, 2.0512E-09
DataValue, 9.05, 0, 0, -2.0531E-09, 4.5000000000000005E-13, 2.0538E-09
DataValue, 9.1, 0, 0, -2.0567E-09, 1.2000000000000002E-13, 2.0561E-09
DataValue, 9.15, 0, 0, -2.0584E-09, -5.2E-13, 2.0583E-09
DataValue, 9.2000000000000011, 0, 0, -2.0613E-09, -1.0000000000000002E-14, 2.0609E-09
DataValue, 9.25, 0, 0, -2.0629E-09, 9.000000000000001E-13, 2.0637E-09
DataValue, 9.3, 0, 0, -2.0664E-09, 1.1500000000000002E-12, 2.0656E-09
DataValue, 9.35, 0, 0, -2.0684E-09, 1.22E-12, 2.0683E-09
DataValue, 9.4, 0, 0, -2.0708E-09, 2.2000000000000002E-13, 2.0711E-09
DataValue, 9.4500000000000011, 0, 0, -2.0728E-09, -2.8E-13, 2.0733E-09
DataValue, 9.5, 0, 0, -2.075E-09, 3.0000000000000005E-14, 2.0747E-09
DataValue, 9.55, 0, 0, -2.0769E-09, 8.7E-13, 2.0769E-09
DataValue, 9.6, 0, 0, -2.0793E-09, 1.12E-12, 2.0794E-09
DataValue, 9.65, 0, 0, -2.0826E-09, 9.5E-13, 2.0833E-09
DataValue, 9.7000000000000011, 0, 0, -2.0852E-09, 5.8000000000000005E-13, 2.0842E-09
DataValue, 9.75, 0, 0, -2.0882E-09, -3.9000000000000005E-13, 2.0874E-09
DataValue, 9.8, 0, 0, -2.0901E-09, -4E-13, 2.0893E-09
DataValue, 9.85, 0, 0, -2.0932E-09, 6.2000000000000008E-13, 2.0924E-09
DataValue, 9.9, 0, 0, -2.0954E-09, 9.1000000000000016E-13, 2.0955E-09
DataValue, 9.9500000000000011, 0, 0, -2.0982E-09, 9.7000000000000011E-13, 2.0976E-09
DataValue, 10, 0, 0, -2.099E-09, 2.8E-13, 2.0998E-09
DataValue, 10.05, 0, 0, -2.1028E-09, -3.7000000000000004E-13, 2.1024E-09
DataValue, 10.1, 0, 0, -2.1044E-09, -3.2000000000000005E-13, 2.104E-09
DataValue, 10.15, 0, 0, -2.106E-09, 7.2000000000000006E-13, 2.1054E-09
DataValue, 10.200000000000001, 0, 0, -2.108E-09, 8E-13, 2.1087E-09
