
SetupTitle, TFT Id-Vg-1
PrimitiveTest, I/V Sweep
TestParameter, Context.MainFrame, B1500A
TestParameter, Channel.UnitType, SMU, SMU, SMU
TestParameter, Channel.Unit, SMU4:HR, SMU1:HP, SMU3:HR
TestParameter, Channel.IName, Isource, Igate, Idrain
TestParameter, Channel.VName, Vsource, Vgate, Vdrain
TestParameter, Channel.Mode, V, V, V
TestParameter, Channel.Func, CONST, VAR1, VAR2
TestParameter, Channel.Index, 
TestParameter, Channel.Time, 
TestParameter, Measurement.Port.Unit, SMU4:HR, SMU1:HP, SMU3:HR
TestParameter, Measurement.Port.SeriesResistor, NONE, NONE, NONE
TestParameter, Measurement.Port.Filter, ON, ON, ON
TestParameter, Measurement.Port.OutputVoltageComparison, 0, 0, 0
TestParameter, Measurement.Primary.Locus, Single
TestParameter, Measurement.Primary.Scale, LINEAR
TestParameter, Measurement.Primary.Start, -5
TestParameter, Measurement.Primary.Stop, 10
TestParameter, Measurement.Primary.Step, 0.05
TestParameter, Measurement.Primary.Compliance, 0.01
TestParameter, Measurement.Primary.PowerCompliance, 0
TestParameter, Measurement.Aborting.Condition, CONTINUE AT ANY
TestParameter, Measurement.PostOutput.Value, START
TestParameter, Measurement.PostOutput.Retention, OFF
TestParameter, Measurement.Secondary.Start, 1
TestParameter, Measurement.Secondary.Count, 3
TestParameter, Measurement.Secondary.Step, 2
TestParameter, Measurement.Secondary.Compliance, 0.0001
TestParameter, Measurement.Secondary.PowerCompliance, 0
TestParameter, Measurement.Bias.Source, 0, -5, 1
TestParameter, Measurement.Bias.Compliance, 0.1, 0.01, 0.0001
TestParameter, Measurement.Monitor.Unit, SMU4:HR, SMU1:HP, SMU3:HR
TestParameter, Measurement.Monitor.Adc, HR ADC, HR ADC, HR ADC
TestParameter, Measurement.Monitor.Measurement, Compliance Side, Compliance Side, Compliance Side
TestParameter, Measurement.Monitor.RangingMode, LIMITED, LIMITED, LIMITED
TestParameter, Measurement.Monitor.RangeBoundary, 1nA, 1nA, 100pA
TestParameter, Measurement.Monitor.RangeRating, BY FULL RANGE, BY FULL RANGE, BY FULL RANGE
TestParameter, Measurement.Monitor.RangeRatingCoeff, 50, 50, 50
TestParameter, Measurement.Timing.Hold, 0
TestParameter, Measurement.Timing.Delay, 0
TestParameter, Measurement.Adc.HighSpeed.Mode, AUTO
TestParameter, Measurement.Adc.HighSpeed.Coeff, 1
TestParameter, Measurement.Adc.HighResolution.AutoZero, OFF
TestParameter, Measurement.Adc.HighResolution.Mode, AUTO
TestParameter, Measurement.Adc.HighResolution.Coeff, 6
TestParameter, Measurement.WaitTime.Source.Coeff, 1
TestParameter, Measurement.WaitTime.Source.Offset, 0
TestParameter, Measurement.WaitTime.Monitor.Coeff, 1
TestParameter, Measurement.WaitTime.Monitor.Offset, 0
TestParameter, Function.User.Name, gm
TestParameter, Function.User.Unit, S
TestParameter, Function.User.Definition, diff(Idrain, Vgate)
TestParameter, Output.Graph.Enabled, true
TestParameter, Output.Graph.XAxis.Data, Vgate
TestParameter, Output.Graph.XAxis.Scale, Linear
TestParameter, Output.Graph.XAxis.Left, -2
TestParameter, Output.Graph.XAxis.Right, 15
TestParameter, Output.Graph.YAxis.Data, Idrain, gm, Idrain
TestParameter, Output.Graph.YAxis.Scale, Log, Linear, Linear
TestParameter, Output.Graph.YAxis.Bottom, 0, 0, -0.0001
TestParameter, Output.Graph.YAxis.Top, 0.001, 1, 0.0001
TestParameter, Output.Graph.YAxis.Group, , , 
TestParameter, Output.List.Data, Vgate, Vdrain, Igate, Idrain, gm
TestParameter, AutoAnalysis.Interpolation, false
TestParameter, AutoAnalysis.Line1.Enabled, false
TestParameter, AutoAnalysis.Line1.Type, 1
TestParameter, AutoAnalysis.Line1.Fix, True
TestParameter, AutoAnalysis.Line1.YAxis, 0
TestParameter, AutoAnalysis.Line1.Point1.Type, 0
TestParameter, AutoAnalysis.Line1.Point1.XY.X, 
TestParameter, AutoAnalysis.Line1.Point1.XY.Y, 
TestParameter, AutoAnalysis.Line1.Point1.Data.Var, 
TestParameter, AutoAnalysis.Line1.Point1.Data.Condition, 
TestParameter, AutoAnalysis.Line1.Point1.Data.Start, false
TestParameter, AutoAnalysis.Line1.Point1.Data.StartVar, 
TestParameter, AutoAnalysis.Line1.Point1.Data.StartCondition, 
TestParameter, AutoAnalysis.Line1.Point2.Type, 0
TestParameter, AutoAnalysis.Line1.Point2.XY.X, 
TestParameter, AutoAnalysis.Line1.Point2.XY.Y, 
TestParameter, AutoAnalysis.Line1.Point2.Data.Var, 
TestParameter, AutoAnalysis.Line1.Point2.Data.Condition, 
TestParameter, AutoAnalysis.Line1.Point2.Data.Start, false
TestParameter, AutoAnalysis.Line1.Point2.Data.StartVar, 
TestParameter, AutoAnalysis.Line1.Point2.Data.StartCondition, 
TestParameter, AutoAnalysis.Line1.GradientExpr, 0
TestParameter, AutoAnalysis.Line2.Enabled, false
TestParameter, AutoAnalysis.Line2.Type, 1
TestParameter, AutoAnalysis.Line2.Fix, True
TestParameter, AutoAnalysis.Line2.YAxis, 0
TestParameter, AutoAnalysis.Line2.Point1.Type, 0
TestParameter, AutoAnalysis.Line2.Point1.XY.X, 
TestParameter, AutoAnalysis.Line2.Point1.XY.Y, 
TestParameter, AutoAnalysis.Line2.Point1.Data.Var, 
TestParameter, AutoAnalysis.Line2.Point1.Data.Condition, 
TestParameter, AutoAnalysis.Line2.Point1.Data.Start, false
TestParameter, AutoAnalysis.Line2.Point1.Data.StartVar, 
TestParameter, AutoAnalysis.Line2.Point1.Data.StartCondition, 
TestParameter, AutoAnalysis.Line2.Point2.Type, 0
TestParameter, AutoAnalysis.Line2.Point2.XY.X, 
TestParameter, AutoAnalysis.Line2.Point2.XY.Y, 
TestParameter, AutoAnalysis.Line2.Point2.Data.Var, 
TestParameter, AutoAnalysis.Line2.Point2.Data.Condition, 
TestParameter, AutoAnalysis.Line2.Point2.Data.Start, false
TestParameter, AutoAnalysis.Line2.Point2.Data.StartVar, 
TestParameter, AutoAnalysis.Line2.Point2.Data.StartCondition, 
TestParameter, AutoAnalysis.Line2.GradientExpr, 0
TestParameter, AutoAnalysis.Marker.Enabled, false
TestParameter, AutoAnalysis.Marker.Data.Var, 
TestParameter, AutoAnalysis.Marker.Data.Condition, 
TestParameter, AutoAnalysis.Marker.Data.Start, false
TestParameter, AutoAnalysis.Marker.Data.StartVar, 
TestParameter, AutoAnalysis.Marker.Data.StartCondition, 
MetaData, TestRecord.EntryPoint, true
MetaData, TestRecord.RecordTime, 11/10/2017 11:04:36
MetaData, TestRecord.TestTarget, 10um_50um
MetaData, TestRecord.IterationIndex, 1
MetaData, TestRecord.Preservation, true
MetaData, TestRecord.Flag, 
MetaData, TestRecord.Remarks, 
MetaData, TestRecord.LinkKey, 644a2cdd-de72-4bf7-be8a-fdb8903480ac
Dimension1, 301, 301, 301, 301, 301
Dimension2, 3, 3, 3, 3, 3
DataName, Vgate, Vdrain, Igate, Idrain, gm
DataValue, -5, 1, -4.5000000000000005E-13, 1.752E-13, -5.5600000000000187E-13
DataValue, -4.95, 1, -5.1E-13, 1.474E-13, -5.1600000000000184E-13
DataValue, -4.9, 1, -4.6000000000000006E-13, 1.236E-13, -7.3400000000000273E-13
DataValue, -4.8500000000000005, 1, 2.3000000000000003E-13, 7.4E-14, -7.019999999999962E-13
DataValue, -4.8, 1, -1.6000000000000003E-13, 5.34E-14, -2.3599999999999874E-13
DataValue, -4.75, 1, -5.8000000000000005E-13, 5.04E-14, -9.2600000000000332E-13
DataValue, -4.7, 1, -2.2000000000000002E-13, -3.92E-14, -3.8800000000000133E-13
DataValue, -4.65, 1, 1.4E-13, 1.1599999999999999E-14, 1.7200000000000061E-13
DataValue, -4.6000000000000005, 1, -6.0000000000000009E-14, -2.2E-14, -1.119999999999994E-13
DataValue, -4.55, 1, -1.0000000000000002E-14, 4E-16, -2.1199999999999887E-13
DataValue, -4.5, 1, 7.9000000000000007E-13, -4.32E-14, -8.1000000000000281E-13
DataValue, -4.45, 1, 6.2000000000000008E-13, -8.0599999999999992E-14, 4.7400000000000172E-13
DataValue, -4.4, 1, -5E-14, 4.2E-15, 8.8600000000000309E-13
DataValue, -4.3500000000000005, 1, 8.8000000000000009E-13, 8E-15, -9.29999999999995E-13
DataValue, -4.3, 1, 1.2000000000000001E-12, -8.88E-14, -1.0299999999999946E-12
DataValue, -4.25, 1, -1.7E-13, -9.5E-14, 2.4000000000000085E-13
DataValue, -4.2, 1, -1.0000000000000002E-14, -6.48E-14, 2.2800000000000085E-13
DataValue, -4.15, 1, 4.3000000000000004E-13, -7.22E-14, 2.9999999999999841E-14
DataValue, -4.1, 1, 2.0000000000000003E-14, -6.18E-14, 3.73999999999998E-13
DataValue, -4.05, 1, -2.9000000000000003E-13, -3.48E-14, -4.5800000000000168E-13
DataValue, -4, 1, 2.0000000000000003E-14, -1.076E-13, -5.3200000000000187E-13
DataValue, -3.95, 1, 1.5000000000000002E-13, -8.8E-14, 8.9999999999999919E-14
DataValue, -3.9, 1, -5E-14, -9.86E-14, -4.7999999999999852E-14
DataValue, -3.85, 1, -4E-13, -9.2799999999999993E-14, -7.0800000000000233E-13
DataValue, -3.8000000000000003, 1, 5.3000000000000006E-13, -1.694E-13, -4.0599999999999963E-13
DataValue, -3.75, 1, -3.0000000000000005E-14, -1.334E-13, 1.1039999999999989E-12
DataValue, -3.7, 1, -6.0000000000000007E-13, -5.9E-14, 7.099999999999993E-13
DataValue, -3.65, 1, 6.3E-13, -6.24E-14, -1.039999999999999E-13
DataValue, -3.6, 1, 6.9000000000000009E-13, -6.94E-14, -2.3000000000000074E-13
DataValue, -3.5500000000000003, 1, -1.3E-13, -8.54E-14, -4.379999999999996E-13
DataValue, -3.5, 1, 1.5000000000000002E-13, -1.132E-13, 7.9199999999999925E-13
DataValue, -3.45, 1, 2.9000000000000003E-13, -6.2E-15, 7.5199999999999932E-13
DataValue, -3.4, 1, 1.0500000000000002E-12, -3.8E-14, -3.0199999999999972E-13
DataValue, -3.35, 1, 1.1500000000000002E-12, -3.64E-14, -8.56000000000003E-13
DataValue, -3.3000000000000003, 1, 5E-13, -1.236E-13, -7.1799999999999926E-13
DataValue, -3.25, 1, -5E-14, -1.082E-13, 3.0999999999999969E-13
DataValue, -3.2, 1, 7E-14, -9.26E-14, 1.6199999999999982E-13
DataValue, -3.15, 1, 1.6000000000000003E-13, -9.2E-14, -5.7399999999999937E-13
DataValue, -3.1, 1, 3.8000000000000005E-13, -1.5E-13, -2.860000000000009E-13
DataValue, -3.0500000000000003, 1, -5E-14, -1.2059999999999999E-13, 6.1999999999999938E-13
DataValue, -3, 1, -4.1E-13, -8.8E-14, -1.9799999999999984E-13
DataValue, -2.95, 1, 6.2000000000000008E-13, -1.404E-13, -9.9999999999999479E-15
DataValue, -2.9, 1, -4.5000000000000005E-13, -8.9E-14, 1.033999999999999E-12
DataValue, -2.85, 1, 1.02E-12, -3.7E-14, -7.0400000000000255E-13
DataValue, -2.8000000000000003, 1, 2.5E-13, -1.594E-13, -7.6599999999999926E-13
DataValue, -2.75, 1, -6.0000000000000009E-14, -1.136E-13, 4.4599999999999966E-13
DataValue, -2.7, 1, -3.6000000000000003E-13, -1.148E-13, 7.7999999999999958E-14
DataValue, -2.65, 1, 2.0000000000000003E-14, -1.058E-13, -2.839999999999996E-13
DataValue, -2.6, 1, 2.7E-13, -1.4319999999999999E-13, -7.2000000000000223E-14
DataValue, -2.5500000000000003, 1, -3.3E-13, -1.13E-13, 3.6999999999999958E-13
DataValue, -2.5, 1, -3.3E-13, -1.0619999999999999E-13, -5.3799999999999963E-13
DataValue, -2.45, 1, 6.9000000000000009E-13, -1.668E-13, 4.2999999999999953E-13
DataValue, -2.4, 1, 2.3000000000000003E-13, -6.32E-14, 7.0799999999999951E-13
DataValue, -2.35, 1, 8.7E-13, -9.6E-14, -1.0220000000000037E-12
DataValue, -2.3000000000000003, 1, -1.3E-13, -1.654E-13, 3.319999999999997E-13
DataValue, -2.25, 1, -4.0000000000000006E-14, -6.28E-14, 7.8599999999999948E-13
DataValue, -2.2, 1, 1.3300000000000002E-12, -8.6799999999999994E-14, -8.6399999999999915E-13
DataValue, -2.15, 1, 4.4000000000000004E-13, -1.4919999999999999E-13, -4.5199999999999959E-13
DataValue, -2.1, 1, 2.1000000000000001E-13, -1.32E-13, 6.5999999999999921E-13
DataValue, -2.05, 1, 6.0000000000000009E-14, -8.32E-14, 1.2119999999999989E-12
DataValue, -2, 1, 2.5E-13, -1.08E-14, -6.3400000000000083E-13
DataValue, -1.95, 1, 4.1E-13, -1.466E-13, -5.1200000000000065E-13
DataValue, -1.9000000000000001, 1, -4.0000000000000006E-14, -6.2E-14, 2.860000000000004E-13
DataValue, -1.85, 1, 8.8000000000000009E-13, -1.18E-13, -5.799999999999993E-14
DataValue, -1.8, 1, 8.5000000000000011E-13, -6.78E-14, 7.579999999999994E-13
DataValue, -1.75, 1, 1.02E-12, -4.22E-14, -3.4399999999999964E-13
DataValue, -1.7, 1, 1.09E-12, -1.022E-13, -7.9600000000000105E-13
DataValue, -1.6500000000000001, 1, 7.5E-13, -1.218E-13, -8.9600000000000123E-13
DataValue, -1.6, 1, 5.8000000000000005E-13, -1.918E-13, 6.4399999999999938E-13
DataValue, -1.55, 1, 1.9000000000000002E-13, -5.74E-14, 1.279999999999999E-12
DataValue, -1.5, 1, 9.9E-13, -6.38E-14, 1.539999999999999E-13
DataValue, -1.45, 1, 1.0100000000000001E-12, -4.2E-14, -8.8800000000000116E-13
DataValue, -1.4000000000000001, 1, 1.12E-12, -1.526E-13, -8.9400000000000124E-13
DataValue, -1.35, 1, -5.8000000000000005E-13, -1.314E-13, -2.4199999999999968E-13
DataValue, -1.3, 1, -1.6000000000000003E-13, -1.768E-13, -3.2399999999999963E-13
DataValue, -1.25, 1, 3.6000000000000003E-13, -1.638E-13, 1.1759999999999986E-12
DataValue, -1.2, 1, 3.0000000000000005E-14, -5.92E-14, 1.0260000000000013E-12
DataValue, -1.1500000000000001, 1, 1.14E-12, -6.12E-14, 8.2800000000000112E-13
DataValue, -1.1, 1, 5.2E-13, 2.36E-14, 2.8199999999999971E-13
DataValue, -1.05, 1, 1.02E-12, -3.3E-14, -5.4599999999999949E-13
DataValue, -1, 1, 1.18E-12, -3.1E-14, -3.2400000000000013E-13
DataValue, -0.95000000000000007, 1, 1.1600000000000001E-12, -6.54E-14, -1.122E-12
DataValue, -0.9, 1, 7.4000000000000008E-13, -1.4319999999999999E-13, -1.7399999999999979E-13
DataValue, -0.85, 1, -3.9000000000000005E-13, -8.28E-14, 8.08E-13
DataValue, -0.8, 1, 1.0500000000000002E-12, -6.24E-14, -4.0800000000000008E-13
DataValue, -0.75, 1, 7.9000000000000007E-13, -1.236E-13, -2.5E-13
DataValue, -0.70000000000000007, 1, -1.3E-13, -8.74E-14, 2.020000000000001E-13
DataValue, -0.65, 1, -1.8000000000000002E-13, -1.0339999999999999E-13, -5.7999999999999945E-13
DataValue, -0.6, 1, -1.0000000000000002E-14, -1.454E-13, 2.94E-13
DataValue, -0.55, 1, -3.2000000000000005E-13, -7.4E-14, 3.2860000000000007E-12
DataValue, -0.5, 1, -1.6000000000000003E-13, 1.832E-13, 9.0959999999999976E-12
DataValue, -0.45, 1, 3.0000000000000003E-13, 8.356E-13, 3.3510000000000009E-11
DataValue, -0.4, 1, 4.6000000000000006E-13, 3.5342E-12, 1.0819400000000001E-10
DataValue, -0.35000000000000003, 1, 1.1000000000000002E-12, 1.1654999999999999E-11, 3.1739199999999984E-10
DataValue, -0.3, 1, 1.03E-12, 3.5273399999999996E-11, 8.5004399999999972E-10
DataValue, -0.25, 1, 1.6000000000000003E-13, 9.66594E-11, 1.9665660000000005E-09
DataValue, -0.2, 1, 3.1000000000000004E-13, 2.3193000000000002E-10, 3.8544060000000005E-09
DataValue, -0.15, 1, 6.8E-13, 4.821E-10, 6.3679E-09
DataValue, -0.1, 1, 1.2000000000000002E-13, 8.6872000000000008E-10, 9.124999999999999E-09
DataValue, -0.05, 1, -2.09E-12, 1.3946E-09, 1.1848799999999998E-08
DataValue, 0, 1, 1.3900000000000001E-12, 2.0536E-09, 1.4282999999999998E-08
DataValue, 0.05, 1, 1.07E-12, 2.8229E-09, 1.6563999999999995E-08
DataValue, 0.1, 1, 5.4E-13, 3.71E-09, 1.9208E-08
DataValue, 0.15, 1, 8.0000000000000013E-14, 4.7437E-09, 2.2692000000000002E-08
DataValue, 0.2, 1, -4.8000000000000008E-13, 5.9792E-09, 2.6325000000000006E-08
DataValue, 0.25, 1, 1E-13, 7.3762E-09, 2.9706E-08
DataValue, 0.3, 1, 6.6E-13, 8.9498E-09, 3.4163999999999981E-08
DataValue, 0.35000000000000003, 1, 1.4300000000000002E-12, 1.07926E-08, 4.0009999999999972E-08
DataValue, 0.4, 1, 1.1000000000000002E-12, 1.2950799999999999E-08, 4.6982000000000003E-08
DataValue, 0.45, 1, 1.6000000000000003E-13, 1.54908E-08, 5.3842000000000007E-08
DataValue, 0.5, 1, 1.8000000000000002E-13, 1.8335E-08, 6.2391999999999954E-08
DataValue, 0.55, 1, 1.3E-13, 2.1729999999999997E-08, 7.2126E-08
DataValue, 0.6, 1, -4.0000000000000006E-14, 2.5547599999999996E-08, 8.2370000000000042E-08
DataValue, 0.65, 1, 2.0000000000000003E-14, 2.9967E-08, 9.4215999999999935E-08
DataValue, 0.70000000000000007, 1, 1.9000000000000002E-13, 3.49692E-08, 1.0509399999999996E-07
DataValue, 0.75, 1, 2.0000000000000003E-14, 4.0476399999999993E-08, 1.2045000000000002E-07
DataValue, 0.8, 1, -2.3000000000000003E-13, 4.70142E-08, 1.3915600000000006E-07
DataValue, 0.85, 1, -3.1000000000000004E-13, 5.4391999999999995E-08, 1.5636199999999995E-07
DataValue, 0.9, 1, -4.1E-13, 6.265039999999999E-08, 1.698079999999998E-07
DataValue, 0.95000000000000007, 1, -2.1000000000000001E-13, 7.1372799999999989E-08, 1.8716800000000003E-07
DataValue, 1, 1, -1.7E-13, 8.1367199999999988E-08, 2.112340000000001E-07
DataValue, 1.05, 1, -1.6000000000000003E-13, 9.24962E-08, 2.2792799999999979E-07
DataValue, 1.1, 1, 4.0000000000000006E-14, 1.0415999999999999E-07, 2.5003799999999982E-07
DataValue, 1.1500000000000001, 1, -2.7E-13, 1.175E-07, 2.6640000000000053E-07
DataValue, 1.2, 1, 3.5E-13, 1.308E-07, 2.7240000000000019E-07
DataValue, 1.25, 1, 9.2000000000000012E-13, 1.4473999999999998E-07, 2.8979999999999959E-07
DataValue, 1.3, 1, 8.2E-13, 1.5978E-07, 3.151999999999998E-07
DataValue, 1.35, 1, 1.1000000000000001E-13, 1.7626E-07, 3.3239999999999967E-07
DataValue, 1.4000000000000001, 1, 2.3000000000000003E-13, 1.9302E-07, 3.1640000000000053E-07
DataValue, 1.45, 1, 5.2E-13, 2.079E-07, 3.4540000000000064E-07
DataValue, 1.5, 1, 8.9E-13, 2.2756E-07, 3.5919999999999935E-07
DataValue, 1.55, 1, 8.300000000000001E-13, 2.4381999999999997E-07, 3.6759999999999935E-07
DataValue, 1.6, 1, 3.2000000000000005E-13, 2.6432E-07, 3.85E-07
DataValue, 1.6500000000000001, 1, -3.8000000000000005E-13, 2.8232E-07, 3.8840000000000049E-07
DataValue, 1.7, 1, 3.1000000000000004E-13, 3.0315999999999997E-07, 4.188000000000006E-07
DataValue, 1.75, 1, 1.13E-12, 3.242E-07, 4.1759999999999987E-07
DataValue, 1.8, 1, 5.9E-13, 3.4492E-07, 4.2919999999999926E-07
DataValue, 1.85, 1, 2.3000000000000003E-13, 3.6711999999999997E-07, 4.4139999999999986E-07
DataValue, 1.9000000000000001, 1, 1.0000000000000002E-14, 3.8906E-07, 4.2040000000000083E-07
DataValue, 1.95, 1, 9.8E-13, 4.0916E-07, 4.6080000000000063E-07
DataValue, 2, 1, 1.4700000000000002E-12, 4.3514E-07, 4.8520000000000077E-07
DataValue, 2.05, 1, 9.000000000000001E-13, 4.5768E-07, 4.2899999999999904E-07
DataValue, 2.1, 1, -7E-14, 4.7804E-07, 4.0699999999999897E-07
DataValue, 2.15, 1, -2.6E-13, 4.9837999999999994E-07, 4.7120000000000025E-07
DataValue, 2.2, 1, 8.6000000000000007E-13, 5.2516E-07, 5.2520000000000007E-07
DataValue, 2.25, 1, 1.07E-12, 5.509E-07, 4.5079999999999935E-07
DataValue, 2.3000000000000003, 1, 5.8000000000000005E-13, 5.7024E-07, 4.1039999999999912E-07
DataValue, 2.35, 1, -2.4000000000000004E-13, 5.9193999999999994E-07, 4.7320000000000146E-07
DataValue, 2.4, 1, 1.1000000000000001E-13, 6.1756E-07, 4.8320000000000009E-07
DataValue, 2.45, 1, 8.4000000000000006E-13, 6.4026E-07, 4.9699999999999986E-07
DataValue, 2.5, 1, 1.4300000000000002E-12, 6.6726E-07, 4.1759999999999987E-07
DataValue, 2.5500000000000003, 1, 5.3000000000000006E-13, 6.8202E-07, 4.1339999999999935E-07
DataValue, 2.6, 1, -1.7E-13, 7.086E-07, 5.18400000000002E-07
DataValue, 2.65, 1, -1.1000000000000001E-13, 7.3386E-07, 3.6280000000000026E-07
DataValue, 2.7, 1, 1.08E-12, 7.4488E-07, 2.313999999999996E-07
DataValue, 2.75, 1, 1.1600000000000001E-12, 7.57E-07, 5.0239999999999857E-07
DataValue, 2.8000000000000003, 1, -1.3E-13, 7.9511999999999994E-07, 4.5299999999999973E-07
DataValue, 2.85, 1, 8.0000000000000013E-14, 8.023E-07, 3.4620000000000203E-07
DataValue, 2.9, 1, 4.3000000000000004E-13, 8.2974E-07, 5.7539999999999865E-07
DataValue, 2.95, 1, 1.5400000000000001E-12, 8.5984E-07, 4.0159999999999973E-07
DataValue, 3, 1, 1.1100000000000001E-12, 8.699E-07, 5.626E-07
DataValue, 3.0500000000000003, 1, 4.1E-13, 9.161E-07, 6.3039999999999855E-07
DataValue, 3.1, 1, 2.8E-13, 9.3293999999999994E-07, 8.2780000000000248E-07
DataValue, 3.15, 1, 6.400000000000001E-13, 9.9888E-07, 9.6879999999999973E-07
DataValue, 3.2, 1, 8.9E-13, 1.02982E-06, 3.2460000000000041E-07
DataValue, 3.25, 1, 6.2000000000000008E-13, 1.03134E-06, 3.96000000000004E-08
DataValue, 3.3000000000000003, 1, 2.2000000000000002E-13, 1.03378E-06, 1.6039999999999964E-07
DataValue, 3.35, 1, -1.0100000000000001E-12, 1.04738E-06, 6.5740000000000132E-07
DataValue, 3.4, 1, 5.2E-13, 1.09952E-06, 8.9499999999999863E-07
DataValue, 3.45, 1, 2.67E-12, 1.13688E-06, -3.4199999999997454E-08
DataValue, 3.5, 1, 1.45E-12, 1.0961000000000002E-06, 3.1200000000001471E-08
DataValue, 3.5500000000000003, 1, 9.7000000000000011E-13, 1.14E-06, 7.6499999999999966E-07
DataValue, 3.6, 1, 7E-13, 1.1726000000000002E-06, 7.2900000000000225E-07
DataValue, 3.65, 1, 4.1E-13, 1.2129E-06, 3.4999999999998361E-08
DataValue, 3.7, 1, -2.2000000000000002E-13, 1.1761E-06, 5.43E-07
DataValue, 3.75, 1, 9.5E-13, 1.2672000000000001E-06, 1.6329999999999984E-06
