
SetupTitle, TFT Id-Vg
PrimitiveTest, I/V Sweep
TestParameter, Context.MainFrame, B1500A
TestParameter, Channel.UnitType, SMU, SMU, SMU
TestParameter, Channel.Unit, SMU4:HR, SMU1:HP, SMU3:HR
TestParameter, Channel.IName, Isource, Igate, Idrain
TestParameter, Channel.VName, Vsource, Vgate, Vdrain
TestParameter, Channel.Mode, V, V, V
TestParameter, Channel.Func, CONST, VAR1, VAR2
TestParameter, Channel.Index, 
TestParameter, Channel.Time, 
TestParameter, Measurement.Port.Unit, SMU4:HR, SMU1:HP, SMU3:HR
TestParameter, Measurement.Port.SeriesResistor, NONE, NONE, NONE
TestParameter, Measurement.Port.Filter, ON, ON, ON
TestParameter, Measurement.Port.OutputVoltageComparison, 0, 0, 0
TestParameter, Measurement.Primary.Locus, Single
TestParameter, Measurement.Primary.Scale, LINEAR
TestParameter, Measurement.Primary.Start, -5
TestParameter, Measurement.Primary.Stop, 10
TestParameter, Measurement.Primary.Step, 0.05
TestParameter, Measurement.Primary.Compliance, 0.01
TestParameter, Measurement.Primary.PowerCompliance, 0
TestParameter, Measurement.Aborting.Condition, CONTINUE AT ANY
TestParameter, Measurement.PostOutput.Value, START
TestParameter, Measurement.PostOutput.Retention, OFF
TestParameter, Measurement.Secondary.Start, 0.1
TestParameter, Measurement.Secondary.Count, 3
TestParameter, Measurement.Secondary.Step, 0.4
TestParameter, Measurement.Secondary.Compliance, 0.0001
TestParameter, Measurement.Secondary.PowerCompliance, 0
TestParameter, Measurement.Bias.Source, 0, -5, 0.1
TestParameter, Measurement.Bias.Compliance, 0.1, 0.01, 0.0001
TestParameter, Measurement.Monitor.Unit, SMU4:HR, SMU1:HP, SMU3:HR
TestParameter, Measurement.Monitor.Adc, HR ADC, HR ADC, HR ADC
TestParameter, Measurement.Monitor.Measurement, Compliance Side, Compliance Side, Compliance Side
TestParameter, Measurement.Monitor.RangingMode, LIMITED, LIMITED, LIMITED
TestParameter, Measurement.Monitor.RangeBoundary, 1nA, 1nA, 100pA
TestParameter, Measurement.Monitor.RangeRating, BY FULL RANGE, BY FULL RANGE, BY FULL RANGE
TestParameter, Measurement.Monitor.RangeRatingCoeff, 50, 50, 50
TestParameter, Measurement.Timing.Hold, 0
TestParameter, Measurement.Timing.Delay, 0
TestParameter, Measurement.Adc.HighSpeed.Mode, AUTO
TestParameter, Measurement.Adc.HighSpeed.Coeff, 1
TestParameter, Measurement.Adc.HighResolution.AutoZero, OFF
TestParameter, Measurement.Adc.HighResolution.Mode, AUTO
TestParameter, Measurement.Adc.HighResolution.Coeff, 6
TestParameter, Measurement.WaitTime.Source.Coeff, 1
TestParameter, Measurement.WaitTime.Source.Offset, 0
TestParameter, Measurement.WaitTime.Monitor.Coeff, 1
TestParameter, Measurement.WaitTime.Monitor.Offset, 0
TestParameter, Function.User.Name, gm
TestParameter, Function.User.Unit, S
TestParameter, Function.User.Definition, diff(Idrain, Vgate)
TestParameter, Output.Graph.Enabled, true
TestParameter, Output.Graph.XAxis.Data, Vgate
TestParameter, Output.Graph.XAxis.Scale, Linear
TestParameter, Output.Graph.XAxis.Left, -2
TestParameter, Output.Graph.XAxis.Right, 15
TestParameter, Output.Graph.YAxis.Data, Idrain, gm, Idrain
TestParameter, Output.Graph.YAxis.Scale, Log, Linear, Linear
TestParameter, Output.Graph.YAxis.Bottom, 0, 0, -0.0001
TestParameter, Output.Graph.YAxis.Top, 0.001, 1, 0.0001
TestParameter, Output.Graph.YAxis.Group, , , 
TestParameter, Output.List.Data, Vgate, Vdrain, Igate, Idrain, gm
TestParameter, AutoAnalysis.Interpolation, false
TestParameter, AutoAnalysis.Line1.Enabled, false
TestParameter, AutoAnalysis.Line1.Type, 1
TestParameter, AutoAnalysis.Line1.Fix, True
TestParameter, AutoAnalysis.Line1.YAxis, 0
TestParameter, AutoAnalysis.Line1.Point1.Type, 0
TestParameter, AutoAnalysis.Line1.Point1.XY.X, 
TestParameter, AutoAnalysis.Line1.Point1.XY.Y, 
TestParameter, AutoAnalysis.Line1.Point1.Data.Var, 
TestParameter, AutoAnalysis.Line1.Point1.Data.Condition, 
TestParameter, AutoAnalysis.Line1.Point1.Data.Start, false
TestParameter, AutoAnalysis.Line1.Point1.Data.StartVar, 
TestParameter, AutoAnalysis.Line1.Point1.Data.StartCondition, 
TestParameter, AutoAnalysis.Line1.Point2.Type, 0
TestParameter, AutoAnalysis.Line1.Point2.XY.X, 
TestParameter, AutoAnalysis.Line1.Point2.XY.Y, 
TestParameter, AutoAnalysis.Line1.Point2.Data.Var, 
TestParameter, AutoAnalysis.Line1.Point2.Data.Condition, 
TestParameter, AutoAnalysis.Line1.Point2.Data.Start, false
TestParameter, AutoAnalysis.Line1.Point2.Data.StartVar, 
TestParameter, AutoAnalysis.Line1.Point2.Data.StartCondition, 
TestParameter, AutoAnalysis.Line1.GradientExpr, 0
TestParameter, AutoAnalysis.Line2.Enabled, false
TestParameter, AutoAnalysis.Line2.Type, 1
TestParameter, AutoAnalysis.Line2.Fix, True
TestParameter, AutoAnalysis.Line2.YAxis, 0
TestParameter, AutoAnalysis.Line2.Point1.Type, 0
TestParameter, AutoAnalysis.Line2.Point1.XY.X, 
TestParameter, AutoAnalysis.Line2.Point1.XY.Y, 
TestParameter, AutoAnalysis.Line2.Point1.Data.Var, 
TestParameter, AutoAnalysis.Line2.Point1.Data.Condition, 
TestParameter, AutoAnalysis.Line2.Point1.Data.Start, false
TestParameter, AutoAnalysis.Line2.Point1.Data.StartVar, 
TestParameter, AutoAnalysis.Line2.Point1.Data.StartCondition, 
TestParameter, AutoAnalysis.Line2.Point2.Type, 0
TestParameter, AutoAnalysis.Line2.Point2.XY.X, 
TestParameter, AutoAnalysis.Line2.Point2.XY.Y, 
TestParameter, AutoAnalysis.Line2.Point2.Data.Var, 
TestParameter, AutoAnalysis.Line2.Point2.Data.Condition, 
TestParameter, AutoAnalysis.Line2.Point2.Data.Start, false
TestParameter, AutoAnalysis.Line2.Point2.Data.StartVar, 
TestParameter, AutoAnalysis.Line2.Point2.Data.StartCondition, 
TestParameter, AutoAnalysis.Line2.GradientExpr, 0
TestParameter, AutoAnalysis.Marker.Enabled, false
TestParameter, AutoAnalysis.Marker.Data.Var, 
TestParameter, AutoAnalysis.Marker.Data.Condition, 
TestParameter, AutoAnalysis.Marker.Data.Start, false
TestParameter, AutoAnalysis.Marker.Data.StartVar, 
TestParameter, AutoAnalysis.Marker.Data.StartCondition, 
MetaData, TestRecord.EntryPoint, true
MetaData, TestRecord.RecordTime, 11/10/2017 10:17:30
MetaData, TestRecord.TestTarget, 25um_50um
MetaData, TestRecord.IterationIndex, 1
MetaData, TestRecord.Preservation, true
MetaData, TestRecord.Flag, 
MetaData, TestRecord.Remarks, 
MetaData, TestRecord.LinkKey, 53025914-b20d-4718-ad55-9a502b05391a
Dimension1, 301, 301, 301, 301, 301
Dimension2, 3, 3, 3, 3, 3
DataName, Vgate, Vdrain, Igate, Idrain, gm
DataValue, -5, 0.1, -4.3000000000000004E-13, -9E-14, -1.8880000000000069E-12
DataValue, -4.95, 0.1, 1.2000000000000002E-13, -1.844E-13, -7.0000000000000257E-13
DataValue, -4.9, 0.1, 1.6000000000000003E-13, -1.6E-13, 8.4000000000000248E-14
DataValue, -4.8500000000000005, 0.1, 1.4E-13, -1.76E-13, 3.8399999999999786E-13
DataValue, -4.8, 0.1, -4.3000000000000004E-13, -1.216E-13, 5.3599999999999731E-13
DataValue, -4.75, 0.1, 2.3000000000000003E-13, -1.224E-13, -7.7000000000000278E-13
DataValue, -4.7, 0.1, 4.5000000000000005E-13, -1.986E-13, -5.980000000000022E-13
DataValue, -4.65, 0.1, -5.1E-13, -1.822E-13, 6.6200000000000243E-13
DataValue, -4.6000000000000005, 0.1, -1.8000000000000002E-13, -1.324E-13, 1.5999999999999796E-14
DataValue, -4.55, 0.1, -2.0000000000000003E-14, -1.806E-13, -3.9999999999999794E-13
DataValue, -4.5, 0.1, -4.0000000000000006E-14, -1.724E-13, 4.6400000000000176E-13
DataValue, -4.45, 0.1, -5.4E-13, -1.342E-13, 9.3400000000000329E-13
DataValue, -4.4, 0.1, -2E-13, -7.9E-14, -7.8400000000000282E-13
DataValue, -4.3500000000000005, 0.1, 3.6000000000000003E-13, -2.126E-13, -1.3459999999999929E-12
DataValue, -4.3, 0.1, -3.5E-13, -2.136E-13, 6.7199999999999653E-13
DataValue, -4.25, 0.1, -9.0000000000000008E-14, -1.454E-13, 1.500000000000004E-13
DataValue, -4.2, 0.1, 1E-13, -1.986E-13, -5.260000000000019E-13
DataValue, -4.15, 0.1, 3.9000000000000005E-13, -1.98E-13, 1.939999999999992E-13
DataValue, -4.1, 0.1, -2.1000000000000001E-13, -1.7919999999999998E-13, 4.1999999999999776E-13
DataValue, -4.05, 0.1, 0, -1.56E-13, -2.4800000000000091E-13
DataValue, -4, 0.1, 6.0000000000000009E-14, -2.04E-13, -4.4600000000000163E-13
DataValue, -3.95, 0.1, 1.5000000000000002E-13, -2.006E-13, -2.8799999999999963E-13
DataValue, -3.9, 0.1, -1.3E-13, -2.328E-13, -2.5999999999999965E-13
DataValue, -3.85, 0.1, -1.6000000000000003E-13, -2.266E-13, 4.2000000000000124E-13
DataValue, -3.8000000000000003, 0.1, 2.2000000000000002E-13, -1.908E-13, 5.0199999999999958E-13
DataValue, -3.75, 0.1, -4.7E-13, -1.7639999999999999E-13, 2.0199999999999987E-13
DataValue, -3.7, 0.1, -4.6000000000000006E-13, -1.706E-13, 7.1999999999999915E-13
DataValue, -3.65, 0.1, 6.3E-13, -1.044E-13, -1.8599999999999974E-13
DataValue, -3.6, 0.1, 8.9E-13, -1.892E-13, -7.2000000000000238E-13
DataValue, -3.5500000000000003, 0.1, -3.2000000000000005E-13, -1.7639999999999999E-13, -3.9999999999999946E-13
DataValue, -3.5, 0.1, 5.6E-13, -2.2919999999999997E-13, -3.9799999999999982E-13
DataValue, -3.45, 0.1, -4.0000000000000006E-14, -2.162E-13, 3.9399999999999953E-13
DataValue, -3.4, 0.1, -5.4E-13, -1.8979999999999998E-13, 2.6999999999999986E-13
DataValue, -3.35, 0.1, -1.3E-13, -1.892E-13, 8.6000000000000138E-14
DataValue, -3.3000000000000003, 0.1, 4E-13, -1.812E-13, 7.559999999999992E-13
DataValue, -3.25, 0.1, -4.0000000000000006E-14, -1.136E-13, 1.2799999999999993E-13
DataValue, -3.2, 0.1, 1E-12, -1.684E-13, -1.3599999999999988E-13
DataValue, -3.15, 0.1, 6.1E-13, -1.272E-13, -7.3999999999999924E-14
DataValue, -3.1, 0.1, 8.5000000000000011E-13, -1.758E-13, -2.5200000000000074E-13
DataValue, -3.0500000000000003, 0.1, -2.9000000000000003E-13, -1.5239999999999999E-13, 5.2199999999999949E-13
DataValue, -3, 0.1, -9.0000000000000008E-14, -1.236E-13, 6.139999999999993E-13
DataValue, -2.95, 0.1, 8.6000000000000007E-13, -9.1E-14, 2.1399999999999982E-13
DataValue, -2.9, 0.1, 1.18E-12, -1.022E-13, -5.0399999999999957E-13
DataValue, -2.85, 0.1, 1.17E-12, -1.414E-13, -1.2480000000000042E-12
DataValue, -2.8000000000000003, 0.1, 8.0000000000000013E-14, -2.27E-13, -8.0999999999999907E-13
DataValue, -2.75, 0.1, -1.1000000000000001E-13, -2.224E-13, 2.7199999999999975E-13
DataValue, -2.7, 0.1, -4.7E-13, -1.998E-13, 1.2059999999999991E-12
DataValue, -2.65, 0.1, 7.2000000000000006E-13, -1.0179999999999999E-13, -1.8399999999999987E-13
DataValue, -2.6, 0.1, 8.1000000000000008E-13, -2.182E-13, -8.22000000000003E-13
DataValue, -2.5500000000000003, 0.1, -2.5E-13, -1.84E-13, -2.8999999999999977E-13
DataValue, -2.5, 0.1, -1.1000000000000001E-13, -2.472E-13, -4.5399999999999973E-13
DataValue, -2.45, 0.1, 2.3000000000000003E-13, -2.294E-13, 9.0999999999999915E-13
DataValue, -2.4, 0.1, -2.9000000000000003E-13, -1.562E-13, 1.0699999999999993E-12
DataValue, -2.35, 0.1, -6.0000000000000009E-14, -1.224E-13, -5.72000000000002E-13
DataValue, -2.3000000000000003, 0.1, -1.6000000000000003E-13, -2.134E-13, -6.6399999999999939E-13
DataValue, -2.25, 0.1, 2E-13, -1.888E-13, 5.0799999999999955E-13
DataValue, -2.2, 0.1, -1.6000000000000003E-13, -1.626E-13, 7.7799999999999921E-13
DataValue, -2.15, 0.1, -1.9000000000000002E-13, -1.11E-13, -3.9599999999999942E-13
DataValue, -2.1, 0.1, 5.4E-13, -2.0219999999999999E-13, -4.7999999999999967E-13
DataValue, -2.05, 0.1, -4.0000000000000006E-14, -1.59E-13, 4.3999999999999949E-13
DataValue, -2, 0.1, -5.7E-13, -1.582E-13, 7.4600000000000106E-13
DataValue, -1.95, 0.1, 6.5000000000000006E-13, -8.44E-14, 3.200000000000003E-13
DataValue, -1.9000000000000001, 0.1, 9.8E-13, -1.262E-13, -5.8000000000000056E-14
DataValue, -1.85, 0.1, 1.31E-12, -9.02E-14, -1.1919999999999988E-12
DataValue, -1.8, 0.1, 1E-13, -2.454E-13, -1.089999999999999E-12
DataValue, -1.75, 0.1, 1.1000000000000001E-13, -1.992E-13, 8.9399999999999922E-13
DataValue, -1.7, 0.1, -3.5E-13, -1.56E-13, 9.0000000000000235E-14
DataValue, -1.6500000000000001, 0.1, -3.1000000000000004E-13, -1.9019999999999999E-13, -4.0400000000000065E-13
DataValue, -1.6, 0.1, 3.7000000000000004E-13, -1.964E-13, 7.9999999999999836E-14
DataValue, -1.55, 0.1, -2.1000000000000001E-13, -1.822E-13, 7.8199999999999939E-13
DataValue, -1.5, 0.1, -3.2000000000000005E-13, -1.182E-13, -2.4999999999999974E-13
DataValue, -1.45, 0.1, 6.8E-13, -2.072E-13, 1.1999999999999864E-14
DataValue, -1.4000000000000001, 0.1, 2E-13, -1.17E-13, 9.5400000000000119E-13
DataValue, -1.35, 0.1, 1.04E-12, -1.118E-13, 2.4000000000000179E-14
DataValue, -1.3, 0.1, 1.2000000000000002E-13, -1.1459999999999999E-13, -8.39999999999999E-13
DataValue, -1.25, 0.1, 4.4000000000000004E-13, -1.9579999999999998E-13, -4.3599999999999971E-13
DataValue, -1.2, 0.1, -4.2000000000000003E-13, -1.582E-13, 5.000000000000006E-13
DataValue, -1.1500000000000001, 0.1, 1E-13, -1.458E-13, 4.5800000000000067E-13
DataValue, -1.1, 0.1, 4E-13, -1.1239999999999999E-13, -4.019999999999996E-13
DataValue, -1.05, 0.1, 1.45E-12, -1.86E-13, -1.233999999999999E-12
DataValue, -1, 0.1, -9.0000000000000008E-14, -2.358E-13, -3.5200000000000027E-13
DataValue, -0.95000000000000007, 0.1, 2E-13, -2.212E-13, 3.6400000000000037E-13
DataValue, -0.9, 0.1, -3.3E-13, -1.994E-13, 9.5599999999999936E-13
DataValue, -0.85, 0.1, -2E-13, -1.256E-13, 2.3799999999999989E-13
DataValue, -0.8, 0.1, 7.6000000000000009E-13, -1.756E-13, -7.9400000000000015E-13
DataValue, -0.75, 0.1, -2.2000000000000002E-13, -2.0499999999999999E-13, -1.4599999999999986E-13
DataValue, -0.70000000000000007, 0.1, -1.6000000000000003E-13, -1.9019999999999999E-13, 7.7600000000000013E-13
DataValue, -0.65, 0.1, 1.8000000000000002E-13, -1.274E-13, -4.7799999999999968E-13
DataValue, -0.6, 0.1, 3.8000000000000005E-13, -2.38E-13, -7.3200000000000021E-13
DataValue, -0.55, 0.1, 3.7000000000000004E-13, -2.006E-13, 5.0600000000000017E-13
DataValue, -0.5, 0.1, -4.0000000000000006E-14, -1.874E-13, 1.2739999999999994E-12
DataValue, -0.45, 0.1, 1.02E-12, -7.3199999999999994E-14, 1.1860000000000002E-12
DataValue, -0.4, 0.1, 1.0100000000000001E-12, -6.88E-14, 6.6800000000000008E-13
DataValue, -0.35000000000000003, 0.1, 1.3900000000000001E-12, -6.4E-15, 4.3759999999999983E-12
DataValue, -0.3, 0.1, 1.1100000000000001E-12, 3.688E-13, 2.1863999999999992E-11
DataValue, -0.25, 0.1, 7.6000000000000009E-13, 2.18E-12, 8.6550000000000014E-11
DataValue, -0.2, 0.1, 5.4E-13, 9.0238E-12, 3.06224E-10
DataValue, -0.15, 0.1, 8.8000000000000009E-13, 3.28024E-11, 9.2678799999999994E-10
DataValue, -0.1, 0.1, 4E-13, 1.017026E-10, 2.1891760000000005E-09
DataValue, -0.05, 0.1, 2.2000000000000002E-13, 2.5172000000000004E-10, 3.955274E-09
DataValue, 0, 0.1, 7.100000000000001E-13, 4.9723E-10, 5.6821000000000005E-09
DataValue, 0.05, 0.1, 0, 8.1993000000000008E-10, 6.984699999999998E-09
DataValue, 0.1, 0.1, -2.4000000000000004E-13, 1.1957E-09, 7.8787E-09
DataValue, 0.15, 0.1, 1.14E-12, 1.6078E-09, 8.5520000000000011E-09
DataValue, 0.2, 0.1, 1.0100000000000001E-12, 2.0509E-09, 8.9910000000000009E-09
DataValue, 0.25, 0.1, 5.9E-13, 2.5069E-09, 9.256E-09
DataValue, 0.3, 0.1, 7E-14, 2.9765E-09, 9.5359999999999985E-09
DataValue, 0.35000000000000003, 0.1, -4.1E-13, 3.4605E-09, 9.7380000000000026E-09
DataValue, 0.4, 0.1, 1E-13, 3.9503E-09, 9.962999999999998E-09
DataValue, 0.45, 0.1, 5.4E-13, 4.4568E-09, 1.0194999999999998E-08
DataValue, 0.5, 0.1, 1.5400000000000001E-12, 4.9698E-09, 1.0353E-08
DataValue, 0.55, 0.1, 1.3400000000000002E-12, 5.4921E-09, 1.0512E-08
DataValue, 0.6, 0.1, 9.000000000000001E-13, 6.021E-09, 1.0672E-08
DataValue, 0.65, 0.1, 1.8000000000000002E-13, 6.5593E-09, 1.0849999999999993E-08
DataValue, 0.70000000000000007, 0.1, -1.3E-13, 7.106E-09, 1.1112999999999998E-08
DataValue, 0.75, 0.1, -1.0000000000000002E-14, 7.6706E-09, 1.1288E-08
DataValue, 0.8, 0.1, 5E-13, 8.2348E-09, 1.1384000000000005E-08
DataValue, 0.85, 0.1, 1.0600000000000001E-12, 8.809E-09, 1.1505000000000013E-08
DataValue, 0.9, 0.1, 1.45E-12, 9.3853E-09, 1.1632000000000001E-08
DataValue, 0.95000000000000007, 0.1, 8.2E-13, 9.9722E-09, 1.1806999999999998E-08
DataValue, 1, 0.1, 3.1000000000000004E-13, 1.0566E-08, 1.1996999999999998E-08
DataValue, 1.05, 0.1, 7E-14, 1.11719E-08, 1.2223999999999983E-08
DataValue, 1.1, 0.1, -2.7E-13, 1.17884E-08, 1.2290999999999966E-08
DataValue, 1.1500000000000001, 0.1, 9.6000000000000015E-13, 1.2400999999999998E-08, 1.238400000000001E-08
DataValue, 1.2, 0.1, 1.1500000000000002E-12, 1.3026799999999999E-08, 1.263200000000002E-08
DataValue, 1.25, 0.1, 1.0600000000000001E-12, 1.3664199999999998E-08, 1.2909999999999986E-08
DataValue, 1.3, 0.1, 1.03E-12, 1.4317799999999999E-08, 1.3175999999999977E-08
DataValue, 1.35, 0.1, 1.21E-12, 1.4981799999999997E-08, 1.3209999999999979E-08
DataValue, 1.4000000000000001, 0.1, 1.41E-12, 1.5638799999999998E-08, 1.3264000000000017E-08
DataValue, 1.45, 0.1, 1.1600000000000001E-12, 1.6308199999999997E-08, 1.3484000000000035E-08
DataValue, 1.5, 0.1, 1.0500000000000002E-12, 1.69872E-08, 1.3591999999999989E-08
DataValue, 1.55, 0.1, 1.3300000000000002E-12, 1.7667399999999997E-08, 1.3665999999999987E-08
DataValue, 1.6, 0.1, 1.5300000000000001E-12, 1.83538E-08, 1.3806000000000013E-08
DataValue, 1.6500000000000001, 0.1, 1.12E-12, 1.9048E-08, 1.3964000000000017E-08
DataValue, 1.7, 0.1, 1.4200000000000002E-12, 1.97502E-08, 1.4120000000000015E-08
DataValue, 1.75, 0.1, 1.45E-12, 2.046E-08, 1.4189999999999964E-08
DataValue, 1.8, 0.1, 1.27E-12, 2.1169199999999997E-08, 1.4259999999999977E-08
DataValue, 1.85, 0.1, 1.1100000000000001E-12, 2.1885999999999998E-08, 1.4477999999999986E-08
DataValue, 1.9000000000000001, 0.1, 1.1900000000000002E-12, 2.2616999999999997E-08, 1.4618000000000012E-08
DataValue, 1.95, 0.1, 1.1000000000000002E-12, 2.3347799999999997E-08, 1.4636000000000026E-08
DataValue, 2, 0.1, 1.17E-12, 2.4080599999999997E-08, 1.469200000000001E-08
DataValue, 2.05, 0.1, 1.26E-12, 2.4816999999999997E-08, 1.4731999999999989E-08
DataValue, 2.1, 0.1, 1.02E-12, 2.5553799999999998E-08, 1.4834000000000012E-08
DataValue, 2.15, 0.1, 1.2800000000000002E-12, 2.63004E-08, 1.4849999999999984E-08
DataValue, 2.2, 0.1, 8E-13, 2.7038799999999997E-08, 1.4867999999999965E-08
DataValue, 2.25, 0.1, 6.5000000000000006E-13, 2.7787199999999997E-08, 1.4365999999999985E-08
DataValue, 2.3000000000000003, 0.1, 9.4E-13, 2.8475399999999997E-08, 1.4487999999999997E-08
DataValue, 2.35, 0.1, 9.9E-13, 2.9235999999999998E-08, 1.5108000000000071E-08
DataValue, 2.4, 0.1, 7.5E-13, 2.99862E-08, 1.5070000000000002E-08
DataValue, 2.45, 0.1, 8.9E-13, 3.0743E-08, 1.513199999999998E-08
DataValue, 2.5, 0.1, 9.000000000000001E-13, 3.14994E-08, 1.5009999999999934E-08
DataValue, 2.5500000000000003, 0.1, 8.1000000000000008E-13, 3.2243999999999994E-08, 1.5135999999999997E-08
DataValue, 2.6, 0.1, 5.7E-13, 3.3013E-08, 1.5236000000000111E-08
DataValue, 2.65, 0.1, 4.8000000000000008E-13, 3.37676E-08, 1.5145999999999943E-08
DataValue, 2.7, 0.1, 5.9E-13, 3.4527599999999995E-08, 1.5143999999999967E-08
DataValue, 2.75, 0.1, 2.7E-13, 3.5282E-08, 1.5147999999999984E-08
DataValue, 2.8000000000000003, 0.1, 6.7000000000000007E-13, 3.6042399999999995E-08, 1.5243999999999948E-08
DataValue, 2.85, 0.1, 4.5000000000000005E-13, 3.6806399999999994E-08, 1.5206000000000077E-08
DataValue, 2.9, 0.1, 3.5E-13, 3.7563E-08, 1.5182000000000036E-08
DataValue, 2.95, 0.1, 5E-13, 3.83246E-08, 1.5125999999999986E-08
DataValue, 3, 0.1, 4.7E-13, 3.90756E-08, 1.5235999999999978E-08
DataValue, 3.0500000000000003, 0.1, 4.3000000000000004E-13, 3.98482E-08, 1.5399999999999979E-08
DataValue, 3.1, 0.1, 2.6E-13, 4.0615599999999996E-08, 1.5316000000000003E-08
DataValue, 3.15, 0.1, 3.3E-13, 4.1379799999999993E-08, 1.5333999999999984E-08
DataValue, 3.2, 0.1, 5.1E-13, 4.2148999999999996E-08, 1.5371999999999987E-08
DataValue, 3.25, 0.1, 3.5E-13, 4.2916999999999993E-08, 1.5367999999999969E-08
DataValue, 3.3000000000000003, 0.1, 1.5000000000000002E-13, 4.3685799999999994E-08, 1.5400000000000045E-08
DataValue, 3.35, 0.1, 1.3E-13, 4.4457E-08, 1.5390000000000103E-08
DataValue, 3.4, 0.1, -1.3E-13, 4.52248E-08, 1.5407999999999948E-08
DataValue, 3.45, 0.1, -1.8000000000000002E-13, 4.5997799999999995E-08, 1.5415999999999984E-08
DataValue, 3.5, 0.1, -4.3000000000000004E-13, 4.67664E-08, 1.5468000000000016E-08
