
SetupTitle, TFT Id-Vd
PrimitiveTest, I/V Sweep
TestParameter, Context.MainFrame, B1500A
TestParameter, Channel.UnitType, SMU, SMU, SMU
TestParameter, Channel.Unit, SMU4:HR, SMU1:HP, SMU3:HR
TestParameter, Channel.IName, Isource, Igate, Idrain
TestParameter, Channel.VName, Vsource, Vgate, Vdrain
TestParameter, Channel.Mode, V, V, V
TestParameter, Channel.Func, CONST, VAR2, VAR1
TestParameter, Channel.Index, 
TestParameter, Channel.Time, 
TestParameter, Measurement.Port.Unit, SMU4:HR, SMU1:HP, SMU3:HR
TestParameter, Measurement.Port.SeriesResistor, NONE, NONE, NONE
TestParameter, Measurement.Port.Filter, ON, ON, ON
TestParameter, Measurement.Port.OutputVoltageComparison, 0, 0, 0
TestParameter, Measurement.Primary.Locus, Single
TestParameter, Measurement.Primary.Scale, LINEAR
TestParameter, Measurement.Primary.Start, 0
TestParameter, Measurement.Primary.Stop, 15
TestParameter, Measurement.Primary.Step, 0.05
TestParameter, Measurement.Primary.Compliance, 0.01
TestParameter, Measurement.Primary.PowerCompliance, 0
TestParameter, Measurement.Aborting.Condition, CONTINUE AT ANY
TestParameter, Measurement.PostOutput.Value, START
TestParameter, Measurement.PostOutput.Retention, OFF
TestParameter, Measurement.Secondary.Start, 0
TestParameter, Measurement.Secondary.Count, 6
TestParameter, Measurement.Secondary.Step, 2
TestParameter, Measurement.Secondary.Compliance, 0.0001
TestParameter, Measurement.Secondary.PowerCompliance, 0
TestParameter, Measurement.Bias.Source, 0, 0, 0
TestParameter, Measurement.Bias.Compliance, 0.1, 0.0001, 0.01
TestParameter, Measurement.Monitor.Unit, SMU4:HR, SMU1:HP, SMU3:HR
TestParameter, Measurement.Monitor.Adc, HR ADC, HR ADC, HR ADC
TestParameter, Measurement.Monitor.Measurement, Compliance Side, Compliance Side, Compliance Side
TestParameter, Measurement.Monitor.RangingMode, LIMITED, LIMITED, LIMITED
TestParameter, Measurement.Monitor.RangeBoundary, 1nA, 1nA, 1nA
TestParameter, Measurement.Monitor.RangeRating, BY FULL RANGE, BY FULL RANGE, BY FULL RANGE
TestParameter, Measurement.Monitor.RangeRatingCoeff, 50, 50, 50
TestParameter, Measurement.Timing.Hold, 0
TestParameter, Measurement.Timing.Delay, 0
TestParameter, Measurement.Adc.HighSpeed.Mode, AUTO
TestParameter, Measurement.Adc.HighSpeed.Coeff, 1
TestParameter, Measurement.Adc.HighResolution.AutoZero, OFF
TestParameter, Measurement.Adc.HighResolution.Mode, AUTO
TestParameter, Measurement.Adc.HighResolution.Coeff, 6
TestParameter, Measurement.WaitTime.Source.Coeff, 1
TestParameter, Measurement.WaitTime.Source.Offset, 0
TestParameter, Measurement.WaitTime.Monitor.Coeff, 1
TestParameter, Measurement.WaitTime.Monitor.Offset, 0
TestParameter, Output.Graph.Enabled, true
TestParameter, Output.Graph.XAxis.Data, Vdrain
TestParameter, Output.Graph.XAxis.Scale, Linear
TestParameter, Output.Graph.XAxis.Left, 0
TestParameter, Output.Graph.XAxis.Right, 10
TestParameter, Output.Graph.YAxis.Data, Idrain
TestParameter, Output.Graph.YAxis.Scale, Linear
TestParameter, Output.Graph.YAxis.Bottom, 0
TestParameter, Output.Graph.YAxis.Top, 0.1
TestParameter, Output.Graph.YAxis.Group, 
TestParameter, Output.List.Data, Vgate, Vdrain, Vsource, Igate, Idrain, Isource
TestParameter, AutoAnalysis.Interpolation, false
TestParameter, AutoAnalysis.Line1.Enabled, false
TestParameter, AutoAnalysis.Line1.Type, 1
TestParameter, AutoAnalysis.Line1.Fix, True
TestParameter, AutoAnalysis.Line1.YAxis, 0
TestParameter, AutoAnalysis.Line1.Point1.Type, 0
TestParameter, AutoAnalysis.Line1.Point1.XY.X, 
TestParameter, AutoAnalysis.Line1.Point1.XY.Y, 
TestParameter, AutoAnalysis.Line1.Point1.Data.Var, 
TestParameter, AutoAnalysis.Line1.Point1.Data.Condition, 
TestParameter, AutoAnalysis.Line1.Point1.Data.Start, false
TestParameter, AutoAnalysis.Line1.Point1.Data.StartVar, 
TestParameter, AutoAnalysis.Line1.Point1.Data.StartCondition, 
TestParameter, AutoAnalysis.Line1.Point2.Type, 0
TestParameter, AutoAnalysis.Line1.Point2.XY.X, 
TestParameter, AutoAnalysis.Line1.Point2.XY.Y, 
TestParameter, AutoAnalysis.Line1.Point2.Data.Var, 
TestParameter, AutoAnalysis.Line1.Point2.Data.Condition, 
TestParameter, AutoAnalysis.Line1.Point2.Data.Start, false
TestParameter, AutoAnalysis.Line1.Point2.Data.StartVar, 
TestParameter, AutoAnalysis.Line1.Point2.Data.StartCondition, 
TestParameter, AutoAnalysis.Line1.GradientExpr, 0
TestParameter, AutoAnalysis.Line2.Enabled, false
TestParameter, AutoAnalysis.Line2.Type, 1
TestParameter, AutoAnalysis.Line2.Fix, True
TestParameter, AutoAnalysis.Line2.YAxis, 0
TestParameter, AutoAnalysis.Line2.Point1.Type, 0
TestParameter, AutoAnalysis.Line2.Point1.XY.X, 
TestParameter, AutoAnalysis.Line2.Point1.XY.Y, 
TestParameter, AutoAnalysis.Line2.Point1.Data.Var, 
TestParameter, AutoAnalysis.Line2.Point1.Data.Condition, 
TestParameter, AutoAnalysis.Line2.Point1.Data.Start, false
TestParameter, AutoAnalysis.Line2.Point1.Data.StartVar, 
TestParameter, AutoAnalysis.Line2.Point1.Data.StartCondition, 
TestParameter, AutoAnalysis.Line2.Point2.Type, 0
TestParameter, AutoAnalysis.Line2.Point2.XY.X, 
TestParameter, AutoAnalysis.Line2.Point2.XY.Y, 
TestParameter, AutoAnalysis.Line2.Point2.Data.Var, 
TestParameter, AutoAnalysis.Line2.Point2.Data.Condition, 
TestParameter, AutoAnalysis.Line2.Point2.Data.Start, false
TestParameter, AutoAnalysis.Line2.Point2.Data.StartVar, 
TestParameter, AutoAnalysis.Line2.Point2.Data.StartCondition, 
TestParameter, AutoAnalysis.Line2.GradientExpr, 0
TestParameter, AutoAnalysis.Marker.Enabled, false
TestParameter, AutoAnalysis.Marker.Data.Var, 
TestParameter, AutoAnalysis.Marker.Data.Condition, 
TestParameter, AutoAnalysis.Marker.Data.Start, false
TestParameter, AutoAnalysis.Marker.Data.StartVar, 
TestParameter, AutoAnalysis.Marker.Data.StartCondition, 
MetaData, TestRecord.EntryPoint, true
MetaData, TestRecord.RecordTime, 11/10/2017 10:19:21
MetaData, TestRecord.TestTarget, 25um_50um
MetaData, TestRecord.IterationIndex, 1
MetaData, TestRecord.Preservation, true
MetaData, TestRecord.Flag, 
MetaData, TestRecord.Remarks, 
MetaData, TestRecord.LinkKey, 8a05cdef-8e4b-43b3-916b-4bbde21ab652
Dimension1, 301, 301, 301, 301, 301, 301
Dimension2, 6, 6, 6, 6, 6, 6
DataName, Vdrain, Vgate, Vsource, Isource, Igate, Idrain
DataValue, 0, 0, 0, -2.5000000000000003E-12, 5.7E-13, 2.5300000000000003E-12
DataValue, 0.05, 0, 0, -3.3287E-10, 1.02E-12, 3.3334E-10
DataValue, 0.1, 0, 0, -4.9483E-10, 4.8000000000000008E-13, 4.9546000000000007E-10
DataValue, 0.15, 0, 0, -5.592E-10, 9.2000000000000012E-13, 5.5978E-10
DataValue, 0.2, 0, 0, -5.8172E-10, 1.03E-12, 5.8216000000000009E-10
DataValue, 0.25, 0, 0, -5.8943E-10, 1.46E-12, 5.9014000000000009E-10
DataValue, 0.3, 0, 0, -5.9329E-10, 1.03E-12, 5.9356000000000007E-10
DataValue, 0.35000000000000003, 0, 0, -5.9683E-10, 6.8E-13, 5.964200000000001E-10
DataValue, 0.4, 0, 0, -5.9776E-10, 1.0600000000000001E-12, 5.977E-10
DataValue, 0.45, 0, 0, -5.9862E-10, 1.14E-12, 5.9889000000000009E-10
DataValue, 0.5, 0, 0, -5.9999E-10, 9.2000000000000012E-13, 6.0024000000000009E-10
DataValue, 0.55, 0, 0, -6.0064E-10, 1.27E-12, 6.0151E-10
DataValue, 0.6, 0, 0, -6.0214000000000005E-10, 1.3000000000000001E-12, 6.0225000000000007E-10
DataValue, 0.65, 0, 0, -6.0295000000000007E-10, 1.5300000000000001E-12, 6.0322E-10
DataValue, 0.70000000000000007, 0, 0, -6.0385E-10, 1.0500000000000002E-12, 6.0416E-10
DataValue, 0.75, 0, 0, -6.0509E-10, 1.26E-12, 6.0538E-10
DataValue, 0.8, 0, 0, -6.054E-10, 1.23E-12, 6.0659000000000007E-10
DataValue, 0.85, 0, 0, -6.0651E-10, 1.0500000000000002E-12, 6.0709E-10
DataValue, 0.9, 0, 0, -6.069300000000001E-10, 1.0500000000000002E-12, 6.0787000000000009E-10
DataValue, 0.95000000000000007, 0, 0, -6.0825E-10, 1.27E-12, 6.0837E-10
DataValue, 1, 0, 0, -6.0913E-10, 1.1100000000000001E-12, 6.089E-10
DataValue, 1.05, 0, 0, -6.1044E-10, 1.21E-12, 6.0997E-10
DataValue, 1.1, 0, 0, -6.109800000000001E-10, 6.2000000000000008E-13, 6.1119E-10
DataValue, 1.1500000000000001, 0, 0, -6.1147000000000006E-10, 1.0100000000000001E-12, 6.1231E-10
DataValue, 1.2, 0, 0, -6.1182000000000006E-10, 1.1100000000000001E-12, 6.1316000000000008E-10
DataValue, 1.25, 0, 0, -6.1318E-10, 7.5E-13, 6.1323000000000006E-10
DataValue, 1.3, 0, 0, -6.1464000000000006E-10, 8.6000000000000007E-13, 6.1458000000000006E-10
DataValue, 1.35, 0, 0, -6.1517000000000006E-10, 1.13E-12, 6.1494E-10
DataValue, 1.4000000000000001, 0, 0, -6.1611000000000006E-10, 7.6000000000000009E-13, 6.1561E-10
DataValue, 1.45, 0, 0, -6.172E-10, 6.400000000000001E-13, 6.1684E-10
DataValue, 1.5, 0, 0, -6.1791000000000009E-10, 6.0000000000000007E-13, 6.1725E-10
DataValue, 1.55, 0, 0, -6.1846000000000005E-10, 9.9E-13, 6.1853E-10
DataValue, 1.6, 0, 0, -6.1910000000000006E-10, 2.7E-13, 6.1871E-10
DataValue, 1.6500000000000001, 0, 0, -6.1962000000000008E-10, 4.2000000000000003E-13, 6.1969000000000006E-10
DataValue, 1.7, 0, 0, -6.2074000000000007E-10, 6.8E-13, 6.2059E-10
DataValue, 1.75, 0, 0, -6.2127000000000007E-10, 6.6E-13, 6.2139000000000006E-10
DataValue, 1.8, 0, 0, -6.2268000000000007E-10, 3.0000000000000003E-13, 6.2213E-10
DataValue, 1.85, 0, 0, -6.2327000000000006E-10, 1.4E-13, 6.2267000000000008E-10
DataValue, 1.9000000000000001, 0, 0, -6.2427000000000006E-10, 3.1000000000000004E-13, 6.2373000000000008E-10
DataValue, 1.95, 0, 0, -6.2493E-10, 0, 6.2465E-10
DataValue, 2, 0, 0, -6.2512E-10, -2.3000000000000003E-13, 6.2546E-10
DataValue, 2.05, 0, 0, -6.2607000000000009E-10, -2.3000000000000003E-13, 6.2574000000000005E-10
DataValue, 2.1, 0, 0, -6.268300000000001E-10, 2.5E-13, 6.2681E-10
DataValue, 2.15, 0, 0, -6.28E-10, 1.7E-13, 6.2726000000000007E-10
DataValue, 2.2, 0, 0, -6.2873000000000006E-10, -1.2000000000000002E-13, 6.2829E-10
DataValue, 2.25, 0, 0, -6.2967000000000006E-10, -3.3E-13, 6.2943000000000007E-10
DataValue, 2.3000000000000003, 0, 0, -6.3160000000000007E-10, -4.1E-13, 6.3108000000000006E-10
DataValue, 2.35, 0, 0, -6.324E-10, -3.8000000000000005E-13, 6.314100000000001E-10
DataValue, 2.4, 0, 0, -6.3172000000000007E-10, -2.5E-13, 6.3187E-10
DataValue, 2.45, 0, 0, -6.3248000000000007E-10, -2.8E-13, 6.3230000000000008E-10
DataValue, 2.5, 0, 0, -6.3362E-10, -4.7E-13, 6.3338E-10
DataValue, 2.5500000000000003, 0, 0, -6.3433E-10, 2.2000000000000002E-13, 6.3419000000000006E-10
DataValue, 2.6, 0, 0, -6.3582000000000009E-10, -8.0000000000000013E-14, 6.3487E-10
DataValue, 2.65, 0, 0, -6.3596E-10, -3.0000000000000003E-13, 6.3566000000000006E-10
DataValue, 2.7, 0, 0, -6.372800000000001E-10, -2.6E-13, 6.3688000000000008E-10
DataValue, 2.75, 0, 0, -6.3751E-10, -1.2000000000000002E-13, 6.378E-10
DataValue, 2.8000000000000003, 0, 0, -6.3837E-10, 1E-13, 6.382200000000001E-10
DataValue, 2.85, 0, 0, -6.3921E-10, 1.0000000000000002E-14, 6.3978E-10
DataValue, 2.9, 0, 0, -6.3977000000000006E-10, 6.0000000000000009E-14, 6.4031E-10
DataValue, 2.95, 0, 0, -6.4083E-10, 5.5000000000000008E-13, 6.4089E-10
DataValue, 3, 0, 0, -6.4149E-10, -8.0000000000000013E-14, 6.4163000000000009E-10
DataValue, 3.0500000000000003, 0, 0, -6.4269000000000008E-10, -1.0000000000000002E-14, 6.4270000000000007E-10
DataValue, 3.1, 0, 0, -6.4329000000000006E-10, 5.1E-13, 6.4375000000000008E-10
DataValue, 3.15, 0, 0, -6.4406E-10, 6.0000000000000007E-13, 6.4479E-10
DataValue, 3.2, 0, 0, -6.4479E-10, 6.8E-13, 6.4578E-10
DataValue, 3.25, 0, 0, -6.4562000000000009E-10, 4.5000000000000005E-13, 6.4604000000000008E-10
DataValue, 3.3000000000000003, 0, 0, -6.4647E-10, 8E-13, 6.4718E-10
DataValue, 3.35, 0, 0, -6.4758000000000005E-10, 1.07E-12, 6.4764E-10
DataValue, 3.4, 0, 0, -6.4803000000000009E-10, 7.7000000000000005E-13, 6.4838000000000009E-10
DataValue, 3.45, 0, 0, -6.4916000000000006E-10, 9.4E-13, 6.4950000000000008E-10
DataValue, 3.5, 0, 0, -6.4998000000000007E-10, 1E-12, 6.5033000000000007E-10
DataValue, 3.5500000000000003, 0, 0, -6.5073000000000009E-10, 9.5E-13, 6.5080000000000007E-10
DataValue, 3.6, 0, 0, -6.5099E-10, 1.1900000000000002E-12, 6.5181E-10
DataValue, 3.65, 0, 0, -6.5162000000000007E-10, 9.6000000000000015E-13, 6.5254E-10
DataValue, 3.7, 0, 0, -6.5263E-10, 1.3000000000000001E-12, 6.5299E-10
DataValue, 3.75, 0, 0, -6.5387E-10, 1.18E-12, 6.5348E-10
DataValue, 3.8000000000000003, 0, 0, -6.5535E-10, 1.22E-12, 6.5469E-10
DataValue, 3.85, 0, 0, -6.5620000000000007E-10, 1.1000000000000002E-12, 6.5608000000000008E-10
DataValue, 3.9, 0, 0, -6.5616E-10, 1.12E-12, 6.5709000000000005E-10
DataValue, 3.95, 0, 0, -6.5666000000000009E-10, 1.18E-12, 6.5763E-10
DataValue, 4, 0, 0, -6.5744000000000006E-10, 1.14E-12, 6.5835E-10
DataValue, 4.05, 0, 0, -6.5832000000000006E-10, 1.2900000000000002E-12, 6.5899E-10
DataValue, 4.1, 0, 0, -6.5927E-10, 1.4400000000000001E-12, 6.6007000000000008E-10
DataValue, 4.15, 0, 0, -6.6031000000000007E-10, 1.1900000000000002E-12, 6.599400000000001E-10
DataValue, 4.2, 0, 0, -6.6118000000000009E-10, 8.2E-13, 6.6057E-10
DataValue, 4.25, 0, 0, -6.6162E-10, 8E-13, 6.6237000000000006E-10
DataValue, 4.3, 0, 0, -6.6263E-10, 1.1600000000000001E-12, 6.6322E-10
DataValue, 4.3500000000000005, 0, 0, -6.6322E-10, 1E-12, 6.6347000000000009E-10
DataValue, 4.4, 0, 0, -6.6384000000000006E-10, 6.8E-13, 6.6424000000000008E-10
DataValue, 4.45, 0, 0, -6.6468E-10, 1.3000000000000001E-12, 6.6469E-10
DataValue, 4.5, 0, 0, -6.6568E-10, 7.9000000000000007E-13, 6.663400000000001E-10
DataValue, 4.55, 0, 0, -6.6737E-10, 4.7E-13, 6.6658000000000009E-10
DataValue, 4.6000000000000005, 0, 0, -6.6768E-10, 4.7E-13, 6.6832E-10
DataValue, 4.65, 0, 0, -6.6837E-10, 8.7E-13, 6.6893000000000009E-10
DataValue, 4.7, 0, 0, -6.6886E-10, 4.4000000000000004E-13, 6.6956E-10
DataValue, 4.75, 0, 0, -6.6974E-10, 4.7E-13, 6.6959000000000006E-10
DataValue, 4.8, 0, 0, -6.7044E-10, 4.5000000000000005E-13, 6.7044E-10
DataValue, 4.8500000000000005, 0, 0, -6.712E-10, 6.3E-13, 6.7169000000000009E-10
DataValue, 4.9, 0, 0, -6.7229000000000006E-10, 5.8000000000000005E-13, 6.723E-10
DataValue, 4.95, 0, 0, -6.7379E-10, 2.4000000000000004E-13, 6.7375000000000008E-10
DataValue, 5, 0, 0, -6.7463000000000008E-10, 2.3000000000000003E-13, 6.7449E-10
DataValue, 5.05, 0, 0, -6.7493000000000007E-10, 3.0000000000000003E-13, 6.7549E-10
DataValue, 5.1000000000000005, 0, 0, -6.7569000000000007E-10, 8.0000000000000013E-14, 6.7593000000000006E-10
DataValue, 5.15, 0, 0, -6.7651000000000008E-10, -6.0000000000000009E-14, 6.7668000000000009E-10
DataValue, 5.2, 0, 0, -6.7725E-10, 2.3000000000000003E-13, 6.7724E-10
DataValue, 5.25, 0, 0, -6.785500000000001E-10, 1.8000000000000002E-13, 6.7815000000000008E-10
DataValue, 5.3, 0, 0, -6.7967000000000009E-10, -1E-13, 6.7911E-10
DataValue, 5.3500000000000005, 0, 0, -6.8076E-10, -4.9E-13, 6.8092000000000006E-10
DataValue, 5.4, 0, 0, -6.8168000000000007E-10, -4.1E-13, 6.8152E-10
DataValue, 5.45, 0, 0, -6.8192000000000006E-10, -3.3E-13, 6.8262000000000007E-10
DataValue, 5.5, 0, 0, -6.8342E-10, -3.5E-13, 6.8316E-10
DataValue, 5.55, 0, 0, -6.849500000000001E-10, -3.8000000000000005E-13, 6.8411E-10
DataValue, 5.6000000000000005, 0, 0, -6.8538000000000007E-10, -1.4E-13, 6.8464E-10
DataValue, 5.65, 0, 0, -6.8584000000000008E-10, -4.2000000000000003E-13, 6.8550000000000006E-10
DataValue, 5.7, 0, 0, -6.8667000000000007E-10, -3.2000000000000005E-13, 6.862400000000001E-10
DataValue, 5.75, 0, 0, -6.8763E-10, -1.4E-13, 6.8746E-10
DataValue, 5.8, 0, 0, -6.8826000000000006E-10, -2.0000000000000003E-14, 6.8797000000000006E-10
DataValue, 5.8500000000000005, 0, 0, -6.8822E-10, -3.1000000000000004E-13, 6.8886E-10
DataValue, 5.9, 0, 0, -6.901E-10, -3.3E-13, 6.8960000000000008E-10
DataValue, 5.95, 0, 0, -6.9081E-10, -1.3E-13, 6.9074E-10
DataValue, 6, 0, 0, -6.9179E-10, -2.3000000000000003E-13, 6.9159000000000009E-10
DataValue, 6.05, 0, 0, -6.9247000000000009E-10, -2.8E-13, 6.922300000000001E-10
DataValue, 6.1000000000000005, 0, 0, -6.9430000000000007E-10, -4.0000000000000006E-14, 6.9418000000000008E-10
DataValue, 6.15, 0, 0, -6.9536000000000007E-10, 1.4E-13, 6.9474E-10
DataValue, 6.2, 0, 0, -6.9471000000000008E-10, -5E-14, 6.9500000000000008E-10
DataValue, 6.25, 0, 0, -6.9564000000000009E-10, 4.0000000000000006E-14, 6.9635000000000008E-10
DataValue, 6.3, 0, 0, -6.9673E-10, -1.2000000000000002E-13, 6.9710000000000011E-10
DataValue, 6.3500000000000005, 0, 0, -6.9785E-10, 2.2000000000000002E-13, 6.9813E-10
DataValue, 6.4, 0, 0, -6.991600000000001E-10, 5.1E-13, 6.9868E-10
DataValue, 6.45, 0, 0, -7.0008E-10, 6.1E-13, 6.9988000000000007E-10
DataValue, 6.5, 0, 0, -7.0096E-10, 5.2E-13, 7.008600000000001E-10
DataValue, 6.55, 0, 0, -7.0216000000000009E-10, 6.3E-13, 7.0163000000000009E-10
DataValue, 6.6000000000000005, 0, 0, -7.0188000000000006E-10, 6.7000000000000007E-13, 7.0228000000000008E-10
DataValue, 6.65, 0, 0, -7.0299000000000007E-10, 5.4E-13, 7.0340000000000007E-10
DataValue, 6.7, 0, 0, -7.0352000000000007E-10, 6.1E-13, 7.0429000000000006E-10
DataValue, 6.75, 0, 0, -7.0447E-10, 1.02E-12, 7.044400000000001E-10
DataValue, 6.8, 0, 0, -7.0534000000000007E-10, 7.2000000000000006E-13, 7.050300000000001E-10
DataValue, 6.8500000000000005, 0, 0, -7.0623000000000005E-10, 9.1000000000000016E-13, 7.0616000000000007E-10
DataValue, 6.9, 0, 0, -7.0719E-10, 1.04E-12, 7.0734000000000006E-10
DataValue, 6.95, 0, 0, -7.0845000000000007E-10, 1.1000000000000002E-12, 7.0892000000000007E-10
DataValue, 7, 0, 0, -7.086100000000001E-10, 1.17E-12, 7.095500000000001E-10
DataValue, 7.05, 0, 0, -7.0992000000000007E-10, 1.23E-12, 7.1010000000000006E-10
DataValue, 7.1000000000000005, 0, 0, -7.109600000000001E-10, 1.17E-12, 7.1075000000000005E-10
DataValue, 7.15, 0, 0, -7.1126000000000009E-10, 1.5E-12, 7.1158E-10
DataValue, 7.2, 0, 0, -7.1251000000000006E-10, 1E-12, 7.1275E-10
DataValue, 7.25, 0, 0, -7.1302000000000009E-10, 8.1000000000000008E-13, 7.1339000000000006E-10
DataValue, 7.3, 0, 0, -7.1431000000000009E-10, 1.1500000000000002E-12, 7.1503000000000006E-10
DataValue, 7.3500000000000005, 0, 0, -7.1531000000000009E-10, 1.26E-12, 7.1551E-10
DataValue, 7.4, 0, 0, -7.1515000000000006E-10, 1.1500000000000002E-12, 7.1537000000000008E-10
DataValue, 7.45, 0, 0, -7.155400000000001E-10, 1.17E-12, 7.1609000000000006E-10
DataValue, 7.5, 0, 0, -7.168E-10, 1.0500000000000002E-12, 7.1756000000000005E-10
DataValue, 7.55, 0, 0, -7.1793E-10, 1.1900000000000002E-12, 7.1831000000000008E-10
DataValue, 7.6000000000000005, 0, 0, -7.186500000000001E-10, 8.8000000000000009E-13, 7.1893E-10
DataValue, 7.65, 0, 0, -7.200000000000001E-10, 8E-13, 7.2017E-10
DataValue, 7.7, 0, 0, -7.2018000000000009E-10, 1.1500000000000002E-12, 7.2075E-10
DataValue, 7.75, 0, 0, -7.2132E-10, 7.2000000000000006E-13, 7.2196000000000006E-10
DataValue, 7.8, 0, 0, -7.2194000000000009E-10, 5.2E-13, 7.217000000000001E-10
DataValue, 7.8500000000000005, 0, 0, -7.2322E-10, 1.02E-12, 7.2329000000000009E-10
DataValue, 7.9, 0, 0, -7.242E-10, 8.9E-13, 7.2422E-10
DataValue, 7.95, 0, 0, -7.2503E-10, 7E-13, 7.244600000000001E-10
DataValue, 8, 0, 0, -7.2648000000000006E-10, 6.7000000000000007E-13, 7.2619000000000005E-10
DataValue, 8.05, 0, 0, -7.2708E-10, 6.1E-13, 7.2721E-10
DataValue, 8.1, 0, 0, -7.2839000000000011E-10, 7.4000000000000008E-13, 7.2808E-10
DataValue, 8.15, 0, 0, -7.2832E-10, 4.7E-13, 7.2867E-10
DataValue, 8.2, 0, 0, -7.2932E-10, 6.9000000000000009E-13, 7.2966E-10
DataValue, 8.25, 0, 0, -7.3057000000000009E-10, 4.5000000000000005E-13, 7.296300000000001E-10
DataValue, 8.3, 0, 0, -7.3124E-10, 4.2000000000000003E-13, 7.3088000000000007E-10
DataValue, 8.35, 0, 0, -7.3235000000000006E-10, -1.0000000000000002E-14, 7.3173E-10
DataValue, 8.4, 0, 0, -7.331500000000001E-10, -2.6E-13, 7.3277E-10
DataValue, 8.45, 0, 0, -7.3371E-10, 2.0000000000000003E-14, 7.3410000000000008E-10
DataValue, 8.5, 0, 0, -7.3475000000000007E-10, -3.0000000000000003E-13, 7.3512E-10
DataValue, 8.55, 0, 0, -7.3617000000000005E-10, -3.3E-13, 7.3565E-10
DataValue, 8.6, 0, 0, -7.364400000000001E-10, 0, 7.3668000000000009E-10
DataValue, 8.65, 0, 0, -7.3833000000000008E-10, 7E-14, 7.3753E-10
DataValue, 8.7000000000000011, 0, 0, -7.3871E-10, -2.4000000000000004E-13, 7.3794E-10
DataValue, 8.75, 0, 0, -7.3980000000000007E-10, -4.4000000000000004E-13, 7.3879000000000009E-10
