
SetupTitle, TFT Id-Vg
PrimitiveTest, I/V Sweep
TestParameter, Context.MainFrame, B1500A
TestParameter, Channel.UnitType, SMU, SMU, SMU
TestParameter, Channel.Unit, SMU4:HR, SMU1:HP, SMU3:HR
TestParameter, Channel.IName, Isource, Igate, Idrain
TestParameter, Channel.VName, Vsource, Vgate, Vdrain
TestParameter, Channel.Mode, V, V, V
TestParameter, Channel.Func, CONST, VAR1, VAR2
TestParameter, Channel.Index, 
TestParameter, Channel.Time, 
TestParameter, Measurement.Port.Unit, SMU4:HR, SMU1:HP, SMU3:HR
TestParameter, Measurement.Port.SeriesResistor, NONE, NONE, NONE
TestParameter, Measurement.Port.Filter, ON, ON, ON
TestParameter, Measurement.Port.OutputVoltageComparison, 0, 0, 0
TestParameter, Measurement.Primary.Locus, Single
TestParameter, Measurement.Primary.Scale, LINEAR
TestParameter, Measurement.Primary.Start, -5
TestParameter, Measurement.Primary.Stop, 10
TestParameter, Measurement.Primary.Step, 0.05
TestParameter, Measurement.Primary.Compliance, 0.01
TestParameter, Measurement.Primary.PowerCompliance, 0
TestParameter, Measurement.Aborting.Condition, CONTINUE AT ANY
TestParameter, Measurement.PostOutput.Value, START
TestParameter, Measurement.PostOutput.Retention, OFF
TestParameter, Measurement.Secondary.Start, 0.1
TestParameter, Measurement.Secondary.Count, 3
TestParameter, Measurement.Secondary.Step, 0.4
TestParameter, Measurement.Secondary.Compliance, 0.0001
TestParameter, Measurement.Secondary.PowerCompliance, 0
TestParameter, Measurement.Bias.Source, 0, -5, 0.1
TestParameter, Measurement.Bias.Compliance, 0.1, 0.01, 0.0001
TestParameter, Measurement.Monitor.Unit, SMU4:HR, SMU1:HP, SMU3:HR
TestParameter, Measurement.Monitor.Adc, HR ADC, HR ADC, HR ADC
TestParameter, Measurement.Monitor.Measurement, Compliance Side, Compliance Side, Compliance Side
TestParameter, Measurement.Monitor.RangingMode, LIMITED, LIMITED, LIMITED
TestParameter, Measurement.Monitor.RangeBoundary, 1nA, 1nA, 100pA
TestParameter, Measurement.Monitor.RangeRating, BY FULL RANGE, BY FULL RANGE, BY FULL RANGE
TestParameter, Measurement.Monitor.RangeRatingCoeff, 50, 50, 50
TestParameter, Measurement.Timing.Hold, 0
TestParameter, Measurement.Timing.Delay, 0
TestParameter, Measurement.Adc.HighSpeed.Mode, AUTO
TestParameter, Measurement.Adc.HighSpeed.Coeff, 1
TestParameter, Measurement.Adc.HighResolution.AutoZero, OFF
TestParameter, Measurement.Adc.HighResolution.Mode, AUTO
TestParameter, Measurement.Adc.HighResolution.Coeff, 6
TestParameter, Measurement.WaitTime.Source.Coeff, 1
TestParameter, Measurement.WaitTime.Source.Offset, 0
TestParameter, Measurement.WaitTime.Monitor.Coeff, 1
TestParameter, Measurement.WaitTime.Monitor.Offset, 0
TestParameter, Function.User.Name, gm
TestParameter, Function.User.Unit, S
TestParameter, Function.User.Definition, diff(Idrain, Vgate)
TestParameter, Output.Graph.Enabled, true
TestParameter, Output.Graph.XAxis.Data, Vgate
TestParameter, Output.Graph.XAxis.Scale, Linear
TestParameter, Output.Graph.XAxis.Left, -2
TestParameter, Output.Graph.XAxis.Right, 15
TestParameter, Output.Graph.YAxis.Data, Idrain, gm, Idrain
TestParameter, Output.Graph.YAxis.Scale, Log, Linear, Linear
TestParameter, Output.Graph.YAxis.Bottom, 0, 0, -0.0001
TestParameter, Output.Graph.YAxis.Top, 0.001, 1, 0.0001
TestParameter, Output.Graph.YAxis.Group, , , 
TestParameter, Output.List.Data, Vgate, Vdrain, Igate, Idrain, gm
TestParameter, AutoAnalysis.Interpolation, false
TestParameter, AutoAnalysis.Line1.Enabled, false
TestParameter, AutoAnalysis.Line1.Type, 1
TestParameter, AutoAnalysis.Line1.Fix, True
TestParameter, AutoAnalysis.Line1.YAxis, 0
TestParameter, AutoAnalysis.Line1.Point1.Type, 0
TestParameter, AutoAnalysis.Line1.Point1.XY.X, 
TestParameter, AutoAnalysis.Line1.Point1.XY.Y, 
TestParameter, AutoAnalysis.Line1.Point1.Data.Var, 
TestParameter, AutoAnalysis.Line1.Point1.Data.Condition, 
TestParameter, AutoAnalysis.Line1.Point1.Data.Start, false
TestParameter, AutoAnalysis.Line1.Point1.Data.StartVar, 
TestParameter, AutoAnalysis.Line1.Point1.Data.StartCondition, 
TestParameter, AutoAnalysis.Line1.Point2.Type, 0
TestParameter, AutoAnalysis.Line1.Point2.XY.X, 
TestParameter, AutoAnalysis.Line1.Point2.XY.Y, 
TestParameter, AutoAnalysis.Line1.Point2.Data.Var, 
TestParameter, AutoAnalysis.Line1.Point2.Data.Condition, 
TestParameter, AutoAnalysis.Line1.Point2.Data.Start, false
TestParameter, AutoAnalysis.Line1.Point2.Data.StartVar, 
TestParameter, AutoAnalysis.Line1.Point2.Data.StartCondition, 
TestParameter, AutoAnalysis.Line1.GradientExpr, 0
TestParameter, AutoAnalysis.Line2.Enabled, false
TestParameter, AutoAnalysis.Line2.Type, 1
TestParameter, AutoAnalysis.Line2.Fix, True
TestParameter, AutoAnalysis.Line2.YAxis, 0
TestParameter, AutoAnalysis.Line2.Point1.Type, 0
TestParameter, AutoAnalysis.Line2.Point1.XY.X, 
TestParameter, AutoAnalysis.Line2.Point1.XY.Y, 
TestParameter, AutoAnalysis.Line2.Point1.Data.Var, 
TestParameter, AutoAnalysis.Line2.Point1.Data.Condition, 
TestParameter, AutoAnalysis.Line2.Point1.Data.Start, false
TestParameter, AutoAnalysis.Line2.Point1.Data.StartVar, 
TestParameter, AutoAnalysis.Line2.Point1.Data.StartCondition, 
TestParameter, AutoAnalysis.Line2.Point2.Type, 0
TestParameter, AutoAnalysis.Line2.Point2.XY.X, 
TestParameter, AutoAnalysis.Line2.Point2.XY.Y, 
TestParameter, AutoAnalysis.Line2.Point2.Data.Var, 
TestParameter, AutoAnalysis.Line2.Point2.Data.Condition, 
TestParameter, AutoAnalysis.Line2.Point2.Data.Start, false
TestParameter, AutoAnalysis.Line2.Point2.Data.StartVar, 
TestParameter, AutoAnalysis.Line2.Point2.Data.StartCondition, 
TestParameter, AutoAnalysis.Line2.GradientExpr, 0
TestParameter, AutoAnalysis.Marker.Enabled, false
TestParameter, AutoAnalysis.Marker.Data.Var, 
TestParameter, AutoAnalysis.Marker.Data.Condition, 
TestParameter, AutoAnalysis.Marker.Data.Start, false
TestParameter, AutoAnalysis.Marker.Data.StartVar, 
TestParameter, AutoAnalysis.Marker.Data.StartCondition, 
MetaData, TestRecord.EntryPoint, true
MetaData, TestRecord.RecordTime, 11/10/2017 09:51:32
MetaData, TestRecord.TestTarget, 100um_100um
MetaData, TestRecord.IterationIndex, 1
MetaData, TestRecord.Preservation, true
MetaData, TestRecord.Flag, 
MetaData, TestRecord.Remarks, 
MetaData, TestRecord.LinkKey, d4565b9b-baeb-421a-993d-a2bc856b061d
Dimension1, 301, 301, 301, 301, 301
Dimension2, 3, 3, 3, 3, 3
DataName, Vgate, Vdrain, Igate, Idrain, gm
DataValue, -5, 0.1, -3.2000000000000005E-13, -4.3E-13, -1.7920000000000073E-12
DataValue, -4.95, 0.1, 6.6E-13, -5.196E-13, -1.2460000000000044E-12
DataValue, -4.9, 0.1, 6.2000000000000008E-13, -5.546E-13, -8.4600000000000266E-13
DataValue, -4.8500000000000005, 0.1, -7E-14, -6.042E-13, 4.2199999999999734E-13
DataValue, -4.8, 0.1, -7.4000000000000008E-13, -5.124E-13, 9.29999999999995E-13
DataValue, -4.75, 0.1, -4.9E-13, -5.112E-13, -2.9000000000000078E-13
DataValue, -4.7, 0.1, 2.1000000000000001E-13, -5.414E-13, -3.6000000000000175E-13
DataValue, -4.65, 0.1, -4.4000000000000004E-13, -5.472E-13, -3.7999999999999567E-14
DataValue, -4.6000000000000005, 0.1, -4.9E-13, -5.4519999999999994E-13, -1.3999999999999865E-13
DataValue, -4.55, 0.1, -2.7E-13, -5.612E-13, -9.6000000000000285E-14
DataValue, -4.5, 0.1, -2E-13, -5.548E-13, -7.200000000000035E-14
DataValue, -4.45, 0.1, -4.0000000000000006E-14, -5.684E-13, -8.3999999999999743E-14
DataValue, -4.4, 0.1, -3.8000000000000005E-13, -5.632E-13, -4.5800000000000128E-13
DataValue, -4.3500000000000005, 0.1, 2.0000000000000003E-14, -6.1419999999999995E-13, -1.7199999999999977E-13
DataValue, -4.3, 0.1, -6.0000000000000007E-13, -5.804E-13, 6.4199999999999625E-13
DataValue, -4.25, 0.1, -1.7E-13, -5.5E-13, -4.760000000000009E-13
DataValue, -4.2, 0.1, -4.4000000000000004E-13, -6.2799999999999995E-13, -5.1800000000000224E-13
DataValue, -4.15, 0.1, 5.3000000000000006E-13, -6.018E-13, 2.7599999999999857E-13
DataValue, -4.1, 0.1, -3.9000000000000005E-13, -6.0039999999999995E-13, 8.0000000000005292E-15
DataValue, -4.05, 0.1, -2.6E-13, -6.01E-13, 1.284000000000004E-12
DataValue, -4, 0.1, 2.8E-13, -4.72E-13, 8.4800000000000305E-13
DataValue, -3.95, 0.1, 1.08E-12, -5.162E-13, -2.5399999999999952E-13
DataValue, -3.9, 0.1, 1E-12, -4.974E-13, -1.225999999999999E-12
DataValue, -3.85, 0.1, 1.2000000000000002E-13, -6.388E-13, -8.6600000000000358E-13
DataValue, -3.8000000000000003, 0.1, -1.4E-13, -5.84E-13, 7.7199999999999944E-13
DataValue, -3.75, 0.1, -2.4000000000000004E-13, -5.616E-13, -1.6999999999999912E-13
DataValue, -3.7, 0.1, -2.2000000000000002E-13, -6.01E-13, -3.3799999999999987E-13
DataValue, -3.65, 0.1, 2.3000000000000003E-13, -5.954E-13, 6.2000000000000089E-14
DataValue, -3.6, 0.1, -3.9000000000000005E-13, -5.9479999999999995E-13, 8.4600000000000266E-13
DataValue, -3.5500000000000003, 0.1, -2.5E-13, -5.108E-13, -8.0000000000000593E-14
DataValue, -3.5, 0.1, 1.0000000000000002E-14, -6.028E-13, -2.9999999999999948E-13
DataValue, -3.45, 0.1, 2.0000000000000003E-14, -5.408E-13, 5.9399999999999979E-13
DataValue, -3.4, 0.1, -4.5000000000000005E-13, -5.434E-13, 4.2599999999999904E-13
DataValue, -3.35, 0.1, -2.2000000000000002E-13, -4.982E-13, -7.1200000000000292E-13
DataValue, -3.3000000000000003, 0.1, -4.0000000000000006E-14, -6.146E-13, -7.79999999999999E-13
DataValue, -3.25, 0.1, -6.8E-13, -5.762E-13, 2.8400000000000035E-13
DataValue, -3.2, 0.1, -2E-13, -5.862E-13, 7.8399999999999979E-13
DataValue, -3.15, 0.1, -1E-13, -4.978E-13, -4.1799999999999948E-13
DataValue, -3.1, 0.1, 9.000000000000001E-13, -6.2799999999999995E-13, -6.4800000000000219E-13
DataValue, -3.0500000000000003, 0.1, -2.4000000000000004E-13, -5.6259999999999995E-13, 7.07999999999999E-13
DataValue, -3, 0.1, -1.7E-13, -5.572E-13, -3.5000000000000023E-13
DataValue, -2.95, 0.1, 1.8000000000000002E-13, -5.976E-13, -5.0199999999999988E-13
DataValue, -2.9, 0.1, 7E-14, -6.074E-13, 2.1600000000000009E-13
DataValue, -2.85, 0.1, -2.7E-13, -5.76E-13, 8.0200000000000284E-13
DataValue, -2.8000000000000003, 0.1, 1.0000000000000002E-14, -5.272E-13, -1.7000000000000013E-13
DataValue, -2.75, 0.1, 1.5000000000000002E-13, -5.93E-13, -2.3399999999999961E-13
DataValue, -2.7, 0.1, -1.8000000000000002E-13, -5.506E-13, 3.8000000000000005E-13
DataValue, -2.65, 0.1, -4.1E-13, -5.55E-13, -4.0399999999999974E-13
DataValue, -2.6, 0.1, -1.1000000000000001E-13, -5.91E-13, -7.7000000000000348E-13
DataValue, -2.5500000000000003, 0.1, -1.2000000000000002E-13, -6.32E-13, 3.0199999999999987E-13
DataValue, -2.5, 0.1, -4.7E-13, -5.608E-13, 6.2799999999999934E-13
DataValue, -2.45, 0.1, -4.0000000000000006E-14, -5.692E-13, -5.0999999999999944E-13
DataValue, -2.4, 0.1, 3.9000000000000005E-13, -6.118E-13, 1.7000000000000013E-13
DataValue, -2.35, 0.1, -3.6000000000000003E-13, -5.522E-13, 7.3400000000000232E-13
DataValue, -2.3000000000000003, 0.1, -1.1000000000000001E-13, -5.384E-13, -2.5599999999999987E-13
DataValue, -2.25, 0.1, -4.0000000000000006E-14, -5.778E-13, -5.6399999999999891E-13
DataValue, -2.2, 0.1, 2.2000000000000002E-13, -5.9479999999999995E-13, 1.6839999999999987E-12
DataValue, -2.15, 0.1, -3.0000000000000003E-13, -4.094E-13, 5.8819999999999945E-12
DataValue, -2.1, 0.1, -2E-13, -6.6E-15, 1.7685999999999984E-11
DataValue, -2.05, 0.1, 0, 1.3592E-12, 6.1959999999999947E-11
DataValue, -2, 0.1, 4.4000000000000004E-13, 6.1894E-12, 1.8854200000000025E-10
DataValue, -1.95, 0.1, 9.3E-13, 2.02134E-11, 4.9461600000000058E-10
DataValue, -1.9000000000000001, 0.1, 3.9000000000000005E-13, 5.5651E-11, 1.0946660000000015E-09
DataValue, -1.85, 0.1, 4E-13, 1.2968E-10, 2.0748899999999984E-09
DataValue, -1.8, 0.1, 8.300000000000001E-13, 2.6314000000000003E-10, 3.3884999999999971E-09
DataValue, -1.75, 0.1, 1.2900000000000002E-12, 4.6853E-10, 4.9475999999999964E-09
DataValue, -1.7, 0.1, 9.5E-13, 7.579E-10, 6.7403000000000091E-09
DataValue, -1.6500000000000001, 0.1, 2.8E-13, 1.14256E-09, 8.749000000000011E-09
DataValue, -1.6, 0.1, -3.5E-13, 1.6328E-09, 1.1026399999999991E-08
DataValue, -1.55, 0.1, 1.02E-12, 2.2452E-09, 1.3727999999999989E-08
DataValue, -1.5, 0.1, 1.5E-12, 3.0056E-09, 1.6480999999999987E-08
DataValue, -1.45, 0.1, 6.9000000000000009E-13, 3.8933E-09, 1.9009000000000025E-08
DataValue, -1.4000000000000001, 0.1, 5E-14, 4.9065E-09, 2.1291000000000028E-08
DataValue, -1.35, 0.1, -1.4E-13, 6.0224E-09, 2.3082999999999982E-08
DataValue, -1.3, 0.1, -2.0000000000000003E-14, 7.2148E-09, 2.4362999999999978E-08
DataValue, -1.25, 0.1, 7.100000000000001E-13, 8.4587E-09, 2.523999999999997E-08
DataValue, -1.2, 0.1, 1.07E-12, 9.7388E-09, 2.5832000000000032E-08
DataValue, -1.1500000000000001, 0.1, 1.26E-12, 1.10419E-08, 2.6280000000000024E-08
DataValue, -1.1, 0.1, 1.21E-12, 1.2366799999999998E-08, 2.6582999999999971E-08
DataValue, -1.05, 0.1, 2.3000000000000003E-13, 1.37002E-08, 2.6881999999999976E-08
DataValue, -1, 0.1, 5.8000000000000005E-13, 1.5054999999999998E-08, 2.7147999999999996E-08
DataValue, -0.95000000000000007, 0.1, 1E-13, 1.6415E-08, 2.7334000000000012E-08
DataValue, -0.9, 0.1, 1E-13, 1.77884E-08, 2.7551999999999958E-08
DataValue, -0.85, 0.1, 3.0000000000000003E-13, 1.9170199999999997E-08, 2.7739999999999996E-08
DataValue, -0.8, 0.1, -2.0000000000000003E-14, 2.0562399999999998E-08, 2.7938000000000015E-08
DataValue, -0.75, 0.1, 5E-14, 2.1963999999999997E-08, 2.8062000000000003E-08
DataValue, -0.70000000000000007, 0.1, -1.3E-13, 2.3368599999999997E-08, 2.8214000000000017E-08
DataValue, -0.65, 0.1, -4.2000000000000003E-13, 2.47854E-08, 2.8425999999999966E-08
DataValue, -0.6, 0.1, -5.3000000000000006E-13, 2.6211199999999997E-08, 2.8538E-08
DataValue, -0.55, 0.1, -3.0000000000000003E-13, 2.7639199999999998E-08, 2.8668000000000016E-08
DataValue, -0.5, 0.1, -3.6000000000000003E-13, 2.9077999999999997E-08, 2.8825999999999973E-08
DataValue, -0.45, 0.1, -3.1000000000000004E-13, 3.0521799999999996E-08, 2.893200000000003E-08
DataValue, -0.4, 0.1, -2.8E-13, 3.19712E-08, 2.9026000000000018E-08
DataValue, -0.35000000000000003, 0.1, -5.7E-13, 3.34244E-08, 2.9159999999999968E-08
DataValue, -0.3, 0.1, -6.2000000000000008E-13, 3.48872E-08, 2.9307999999999964E-08
DataValue, -0.25, 0.1, -9.0000000000000008E-14, 3.6355199999999995E-08, 2.9439999999999971E-08
DataValue, -0.2, 0.1, -5E-13, 3.7831199999999994E-08, 2.9532000000000042E-08
DataValue, -0.15, 0.1, -3.6000000000000003E-13, 3.93084E-08, 2.9620000000000036E-08
DataValue, -0.1, 0.1, -1.4E-13, 4.07932E-08, 2.9776000000000005E-08
DataValue, -0.05, 0.1, -4.1E-13, 4.2286E-08, 2.9861999999999953E-08
DataValue, 0, 0.1, -2.6E-13, 4.3779399999999993E-08, 2.9929999999999991E-08
DataValue, 0.05, 0.1, -2E-13, 4.5279E-08, 3.0064000000000024E-08
DataValue, 0.1, 0.1, 1E-13, 4.6785799999999995E-08, 3.0117999999999966E-08
DataValue, 0.15, 0.1, 2.0000000000000003E-14, 4.8290799999999995E-08, 3.0474000000000025E-08
DataValue, 0.2, 0.1, -2.9000000000000003E-13, 4.98332E-08, 3.0569999999999989E-08
DataValue, 0.25, 0.1, 2.0000000000000003E-14, 5.1347799999999993E-08, 3.0401999999999977E-08
DataValue, 0.3, 0.1, 2.4000000000000004E-13, 5.2873399999999995E-08, 3.0550000000000019E-08
DataValue, 0.35000000000000003, 0.1, -3.0000000000000003E-13, 5.4402799999999997E-08, 3.0611999999999996E-08
DataValue, 0.4, 0.1, 9.0000000000000008E-14, 5.5934599999999996E-08, 3.0681999999999963E-08
DataValue, 0.45, 0.1, -2E-13, 5.7470999999999992E-08, 3.0794E-08
DataValue, 0.5, 0.1, 8.0000000000000013E-14, 5.9013999999999995E-08, 3.0908000000000054E-08
DataValue, 0.55, 0.1, 5E-14, 6.05618E-08, 3.1023999999999994E-08
DataValue, 0.6, 0.1, 1.8000000000000002E-13, 6.21164E-08, 3.10699999999999E-08
DataValue, 0.65, 0.1, 4E-13, 6.3668799999999988E-08, 3.1149999999999958E-08
DataValue, 0.70000000000000007, 0.1, 3.4E-13, 6.5231399999999992E-08, 3.15240000000001E-08
DataValue, 0.75, 0.1, 2.1000000000000001E-13, 6.68212E-08, 3.1589999999999961E-08
DataValue, 0.8, 0.1, 9.0000000000000008E-14, 6.8390399999999988E-08, 3.1449999999999934E-08
DataValue, 0.85, 0.1, 4E-13, 6.996619999999999E-08, 3.1530000000000025E-08
DataValue, 0.9, 0.1, 3.7000000000000004E-13, 7.1543399999999989E-08, 3.1599999999999939E-08
DataValue, 0.95000000000000007, 0.1, 6.1E-13, 7.3126199999999987E-08, 3.1704000000000037E-08
DataValue, 1, 0.1, 1.08E-12, 7.4713799999999992E-08, 3.1806000000000126E-08
DataValue, 1.05, 0.1, 5.9E-13, 7.63068E-08, 3.1878000000000016E-08
DataValue, 1.1, 0.1, 7.2000000000000006E-13, 7.79016E-08, 3.1919999999999905E-08
DataValue, 1.1500000000000001, 0.1, 8.1000000000000008E-13, 7.9498799999999992E-08, 3.2026000000000012E-08
DataValue, 1.2, 0.1, 7.6000000000000009E-13, 8.11042E-08, 3.2110000000000054E-08
DataValue, 1.25, 0.1, 1.46E-12, 8.2709799999999993E-08, 3.213000000000001E-08
DataValue, 1.3, 0.1, 1.13E-12, 8.43172E-08, 3.2551999999999933E-08
DataValue, 1.35, 0.1, 1.1100000000000001E-12, 8.5964999999999989E-08, 3.2631999999999891E-08
DataValue, 1.4000000000000001, 0.1, 1.51E-12, 8.7580399999999989E-08, 3.2362000000000055E-08
DataValue, 1.45, 0.1, 1.3400000000000002E-12, 8.920119999999999E-08, 3.2490000000000094E-08
DataValue, 1.5, 0.1, 1.17E-12, 9.08294E-08, 3.2632000000000024E-08
DataValue, 1.55, 0.1, 1.22E-12, 9.24644E-08, 3.2597999999999906E-08
DataValue, 1.6, 0.1, 1.5700000000000002E-12, 9.4089199999999987E-08, 3.2611999999999869E-08
DataValue, 1.6500000000000001, 0.1, 1.1600000000000001E-12, 9.5725599999999985E-08, 3.2768000000000039E-08
DataValue, 1.7, 0.1, 1.32E-12, 9.7365999999999987E-08, 3.288000000000014E-08
DataValue, 1.75, 0.1, 1.5E-12, 9.90136E-08, 3.2992000000000035E-08
DataValue, 1.8, 0.1, 1.55E-12, 1.0066519999999999E-07, 3.3041999999999959E-08
DataValue, 1.85, 0.1, 1.31E-12, 1.0231779999999999E-07, 3.3329999999999915E-08
DataValue, 1.9000000000000001, 0.1, 1.5700000000000002E-12, 1.0399819999999999E-07, 3.3427999999999993E-08
DataValue, 1.95, 0.1, 1.5700000000000002E-12, 1.0566059999999999E-07, 3.3238000000000043E-08
DataValue, 2, 0.1, 1.1100000000000001E-12, 1.0732199999999999E-07, 3.3342000000000108E-08
DataValue, 2.05, 0.1, 1.5400000000000001E-12, 1.089948E-07, 3.3462000000000039E-08
DataValue, 2.1, 0.1, 1.31E-12, 1.1066819999999999E-07, 3.3483999999999905E-08
DataValue, 2.15, 0.1, 1.4300000000000002E-12, 1.1234319999999999E-07, 3.3537999999999906E-08
DataValue, 2.2, 0.1, 1.1500000000000002E-12, 1.1402199999999999E-07, 3.3568000000000073E-08
DataValue, 2.25, 0.1, 1.23E-12, 1.157E-07, 3.358000000000006E-08
DataValue, 2.3000000000000003, 0.1, 8.8000000000000009E-13, 1.1738E-07, 3.3799999999999912E-08
DataValue, 2.35, 0.1, -3.2000000000000005E-13, 1.1907999999999999E-07, 3.4000000000000159E-08
DataValue, 2.4, 0.1, -3.8000000000000005E-13, 1.2078E-07, 3.4199999999999969E-08
DataValue, 2.45, 0.1, 7.2000000000000006E-13, 1.225E-07, 3.4199999999999836E-08
DataValue, 2.5, 0.1, 1.2400000000000002E-12, 1.242E-07, 3.42000000000001E-08
DataValue, 2.5500000000000003, 0.1, 1.2000000000000001E-12, 1.2592E-07, 3.4400000000000063E-08
DataValue, 2.6, 0.1, 2.5E-13, 1.2764E-07, 3.4000000000000027E-08
DataValue, 2.65, 0.1, -3.3E-13, 1.2932E-07, 3.3999999999999874E-08
DataValue, 2.7, 0.1, 6.3E-13, 1.3104E-07, 3.42000000000001E-08
DataValue, 2.75, 0.1, 1.26E-12, 1.3274E-07, 3.4400000000000063E-08
DataValue, 2.8000000000000003, 0.1, 7.2000000000000006E-13, 1.3448E-07, 3.4599999999999761E-08
DataValue, 2.85, 0.1, -1.4E-13, 1.362E-07, 3.4600000000000184E-08
DataValue, 2.9, 0.1, -7E-14, 1.3794E-07, 3.4799999999999987E-08
DataValue, 2.95, 0.1, 7.9000000000000007E-13, 1.3968E-07, 3.4799999999999987E-08
DataValue, 3, 0.1, 1.1000000000000002E-12, 1.4142E-07, 3.4799999999999987E-08
DataValue, 3.0500000000000003, 0.1, 8.4000000000000006E-13, 1.4316E-07, 3.4599999999999761E-08
DataValue, 3.1, 0.1, 2.3000000000000003E-13, 1.4487999999999998E-07, 3.4800000000000146E-08
DataValue, 3.15, 0.1, -1.8000000000000002E-13, 1.4664E-07, 3.5200000000000176E-08
DataValue, 3.2, 0.1, 9.1000000000000016E-13, 1.484E-07, 3.4999999999999949E-08
DataValue, 3.25, 0.1, 1.4700000000000002E-12, 1.5014E-07, 3.4799999999999987E-08
DataValue, 3.3000000000000003, 0.1, 5.1E-13, 1.5188E-07, 3.5399999999999874E-08
DataValue, 3.35, 0.1, 1.0000000000000002E-14, 1.5367999999999998E-07, 3.5000000000000108E-08
