
SetupTitle, TFT Id-Vd
PrimitiveTest, I/V Sweep
TestParameter, Context.MainFrame, B1500A
TestParameter, Channel.UnitType, SMU, SMU, SMU
TestParameter, Channel.Unit, SMU4:HR, SMU1:HP, SMU3:HR
TestParameter, Channel.IName, Isource, Igate, Idrain
TestParameter, Channel.VName, Vsource, Vgate, Vdrain
TestParameter, Channel.Mode, V, V, V
TestParameter, Channel.Func, CONST, VAR2, VAR1
TestParameter, Channel.Index, 
TestParameter, Channel.Time, 
TestParameter, Measurement.Port.Unit, SMU4:HR, SMU1:HP, SMU3:HR
TestParameter, Measurement.Port.SeriesResistor, NONE, NONE, NONE
TestParameter, Measurement.Port.Filter, ON, ON, ON
TestParameter, Measurement.Port.OutputVoltageComparison, 0, 0, 0
TestParameter, Measurement.Primary.Locus, Single
TestParameter, Measurement.Primary.Scale, LINEAR
TestParameter, Measurement.Primary.Start, 0
TestParameter, Measurement.Primary.Stop, 15
TestParameter, Measurement.Primary.Step, 0.05
TestParameter, Measurement.Primary.Compliance, 0.01
TestParameter, Measurement.Primary.PowerCompliance, 0
TestParameter, Measurement.Aborting.Condition, CONTINUE AT ANY
TestParameter, Measurement.PostOutput.Value, START
TestParameter, Measurement.PostOutput.Retention, OFF
TestParameter, Measurement.Secondary.Start, 0
TestParameter, Measurement.Secondary.Count, 6
TestParameter, Measurement.Secondary.Step, 2
TestParameter, Measurement.Secondary.Compliance, 0.0001
TestParameter, Measurement.Secondary.PowerCompliance, 0
TestParameter, Measurement.Bias.Source, 0, 0, 0
TestParameter, Measurement.Bias.Compliance, 0.1, 0.0001, 0.01
TestParameter, Measurement.Monitor.Unit, SMU4:HR, SMU1:HP, SMU3:HR
TestParameter, Measurement.Monitor.Adc, HR ADC, HR ADC, HR ADC
TestParameter, Measurement.Monitor.Measurement, Compliance Side, Compliance Side, Compliance Side
TestParameter, Measurement.Monitor.RangingMode, LIMITED, LIMITED, LIMITED
TestParameter, Measurement.Monitor.RangeBoundary, 1nA, 1nA, 1nA
TestParameter, Measurement.Monitor.RangeRating, BY FULL RANGE, BY FULL RANGE, BY FULL RANGE
TestParameter, Measurement.Monitor.RangeRatingCoeff, 50, 50, 50
TestParameter, Measurement.Timing.Hold, 0
TestParameter, Measurement.Timing.Delay, 0
TestParameter, Measurement.Adc.HighSpeed.Mode, AUTO
TestParameter, Measurement.Adc.HighSpeed.Coeff, 1
TestParameter, Measurement.Adc.HighResolution.AutoZero, OFF
TestParameter, Measurement.Adc.HighResolution.Mode, AUTO
TestParameter, Measurement.Adc.HighResolution.Coeff, 6
TestParameter, Measurement.WaitTime.Source.Coeff, 1
TestParameter, Measurement.WaitTime.Source.Offset, 0
TestParameter, Measurement.WaitTime.Monitor.Coeff, 1
TestParameter, Measurement.WaitTime.Monitor.Offset, 0
TestParameter, Output.Graph.Enabled, true
TestParameter, Output.Graph.XAxis.Data, Vdrain
TestParameter, Output.Graph.XAxis.Scale, Linear
TestParameter, Output.Graph.XAxis.Left, 0
TestParameter, Output.Graph.XAxis.Right, 10
TestParameter, Output.Graph.YAxis.Data, Idrain
TestParameter, Output.Graph.YAxis.Scale, Linear
TestParameter, Output.Graph.YAxis.Bottom, 0
TestParameter, Output.Graph.YAxis.Top, 0.1
TestParameter, Output.Graph.YAxis.Group, 
TestParameter, Output.List.Data, Vgate, Vdrain, Vsource, Igate, Idrain, Isource
TestParameter, AutoAnalysis.Interpolation, false
TestParameter, AutoAnalysis.Line1.Enabled, false
TestParameter, AutoAnalysis.Line1.Type, 1
TestParameter, AutoAnalysis.Line1.Fix, True
TestParameter, AutoAnalysis.Line1.YAxis, 0
TestParameter, AutoAnalysis.Line1.Point1.Type, 0
TestParameter, AutoAnalysis.Line1.Point1.XY.X, 
TestParameter, AutoAnalysis.Line1.Point1.XY.Y, 
TestParameter, AutoAnalysis.Line1.Point1.Data.Var, 
TestParameter, AutoAnalysis.Line1.Point1.Data.Condition, 
TestParameter, AutoAnalysis.Line1.Point1.Data.Start, false
TestParameter, AutoAnalysis.Line1.Point1.Data.StartVar, 
TestParameter, AutoAnalysis.Line1.Point1.Data.StartCondition, 
TestParameter, AutoAnalysis.Line1.Point2.Type, 0
TestParameter, AutoAnalysis.Line1.Point2.XY.X, 
TestParameter, AutoAnalysis.Line1.Point2.XY.Y, 
TestParameter, AutoAnalysis.Line1.Point2.Data.Var, 
TestParameter, AutoAnalysis.Line1.Point2.Data.Condition, 
TestParameter, AutoAnalysis.Line1.Point2.Data.Start, false
TestParameter, AutoAnalysis.Line1.Point2.Data.StartVar, 
TestParameter, AutoAnalysis.Line1.Point2.Data.StartCondition, 
TestParameter, AutoAnalysis.Line1.GradientExpr, 0
TestParameter, AutoAnalysis.Line2.Enabled, false
TestParameter, AutoAnalysis.Line2.Type, 1
TestParameter, AutoAnalysis.Line2.Fix, True
TestParameter, AutoAnalysis.Line2.YAxis, 0
TestParameter, AutoAnalysis.Line2.Point1.Type, 0
TestParameter, AutoAnalysis.Line2.Point1.XY.X, 
TestParameter, AutoAnalysis.Line2.Point1.XY.Y, 
TestParameter, AutoAnalysis.Line2.Point1.Data.Var, 
TestParameter, AutoAnalysis.Line2.Point1.Data.Condition, 
TestParameter, AutoAnalysis.Line2.Point1.Data.Start, false
TestParameter, AutoAnalysis.Line2.Point1.Data.StartVar, 
TestParameter, AutoAnalysis.Line2.Point1.Data.StartCondition, 
TestParameter, AutoAnalysis.Line2.Point2.Type, 0
TestParameter, AutoAnalysis.Line2.Point2.XY.X, 
TestParameter, AutoAnalysis.Line2.Point2.XY.Y, 
TestParameter, AutoAnalysis.Line2.Point2.Data.Var, 
TestParameter, AutoAnalysis.Line2.Point2.Data.Condition, 
TestParameter, AutoAnalysis.Line2.Point2.Data.Start, false
TestParameter, AutoAnalysis.Line2.Point2.Data.StartVar, 
TestParameter, AutoAnalysis.Line2.Point2.Data.StartCondition, 
TestParameter, AutoAnalysis.Line2.GradientExpr, 0
TestParameter, AutoAnalysis.Marker.Enabled, false
TestParameter, AutoAnalysis.Marker.Data.Var, 
TestParameter, AutoAnalysis.Marker.Data.Condition, 
TestParameter, AutoAnalysis.Marker.Data.Start, false
TestParameter, AutoAnalysis.Marker.Data.StartVar, 
TestParameter, AutoAnalysis.Marker.Data.StartCondition, 
MetaData, TestRecord.EntryPoint, true
MetaData, TestRecord.RecordTime, 11/10/2017 11:05:26
MetaData, TestRecord.TestTarget, 10um_50um
MetaData, TestRecord.IterationIndex, 1
MetaData, TestRecord.Preservation, true
MetaData, TestRecord.Flag, 
MetaData, TestRecord.Remarks, 
MetaData, TestRecord.LinkKey, 6f3e1079-ca67-469b-8acd-3ba9bee022e2
Dimension1, 301, 301, 301, 301, 301, 301
Dimension2, 6, 6, 6, 6, 6, 6
DataName, Vdrain, Vgate, Vsource, Isource, Igate, Idrain
DataValue, 0, 0, 0, -7.9600000000000008E-12, 1.7E-13, 7.2400000000000007E-12
DataValue, 0.05, 0, 0, -9.643E-10, 1.26E-12, 9.6256E-10
DataValue, 0.1, 0, 0, -1.468E-09, 5.7E-13, 1.4635E-09
DataValue, 0.15, 0, 0, -1.6837E-09, 9.6000000000000015E-13, 1.6838E-09
DataValue, 0.2, 0, 0, -1.7823E-09, 1.03E-12, 1.7836E-09
DataValue, 0.25, 0, 0, -1.8279E-09, 4.2000000000000003E-13, 1.8268E-09
DataValue, 0.3, 0, 0, -1.8569999999999999E-09, 2.3000000000000003E-13, 1.8571E-09
DataValue, 0.35000000000000003, 0, 0, -1.8729E-09, -4.0000000000000006E-14, 1.8715E-09
DataValue, 0.4, 0, 0, -1.8828E-09, 3.2000000000000005E-13, 1.8818E-09
DataValue, 0.45, 0, 0, -1.8861E-09, 1.26E-12, 1.8902E-09
DataValue, 0.5, 0, 0, -1.8886E-09, 1.4300000000000002E-12, 1.8938E-09
DataValue, 0.55, 0, 0, -1.8911E-09, 8.300000000000001E-13, 1.8963E-09
DataValue, 0.6, 0, 0, -1.902E-09, -4.0000000000000006E-14, 1.9043E-09
DataValue, 0.65, 0, 0, -1.9049E-09, -1.6000000000000003E-13, 1.9056E-09
DataValue, 0.70000000000000007, 0, 0, -1.9018E-09, 3.2000000000000005E-13, 1.9047E-09
DataValue, 0.75, 0, 0, -1.9103E-09, 8.6000000000000007E-13, 1.9054E-09
DataValue, 0.8, 0, 0, -1.9087E-09, 1.31E-12, 1.9072E-09
DataValue, 0.85, 0, 0, -1.9053E-09, 6.8E-13, 1.9141E-09
DataValue, 0.9, 0, 0, -1.909E-09, 4.0000000000000006E-14, 1.9148E-09
DataValue, 0.95000000000000007, 0, 0, -1.9134E-09, -3.1000000000000004E-13, 1.9098E-09
DataValue, 1, 0, 0, -1.9102E-09, 9.0000000000000008E-14, 1.9095E-09
DataValue, 1.05, 0, 0, -1.9155E-09, 8.4000000000000006E-13, 1.9147E-09
DataValue, 1.1, 0, 0, -1.9179E-09, 8.9E-13, 1.9193E-09
DataValue, 1.1500000000000001, 0, 0, -1.9189E-09, 4.7E-13, 1.9176E-09
DataValue, 1.2, 0, 0, -1.9199E-09, -1.1000000000000001E-13, 1.9207E-09
DataValue, 1.25, 0, 0, -1.9217E-09, -3.3E-13, 1.9203E-09
DataValue, 1.3, 0, 0, -1.926E-09, 7.6000000000000009E-13, 1.9251E-09
DataValue, 1.35, 0, 0, -1.9277E-09, 1.0500000000000002E-12, 1.9263E-09
DataValue, 1.4000000000000001, 0, 0, -1.9241E-09, 1.22E-12, 1.9259E-09
DataValue, 1.45, 0, 0, -1.9323E-09, 9.9E-13, 1.9353E-09
DataValue, 1.5, 0, 0, -1.9366E-09, 1.0000000000000002E-14, 1.9306E-09
DataValue, 1.55, 0, 0, -1.934E-09, -3.6000000000000003E-13, 1.9343E-09
DataValue, 1.6, 0, 0, -1.9367E-09, 3.9000000000000005E-13, 1.9371E-09
DataValue, 1.6500000000000001, 0, 0, -1.9347E-09, 7.4000000000000008E-13, 1.9337E-09
DataValue, 1.7, 0, 0, -1.9359E-09, 1.4800000000000002E-12, 1.9316E-09
DataValue, 1.75, 0, 0, -1.9317E-09, 5.9E-13, 1.9338E-09
DataValue, 1.8, 0, 0, -1.9389E-09, -1.1000000000000001E-13, 1.9391E-09
DataValue, 1.85, 0, 0, -1.9516E-09, -3.6000000000000003E-13, 1.9499E-09
DataValue, 1.9000000000000001, 0, 0, -1.9425E-09, 4.0000000000000006E-14, 1.9436E-09
DataValue, 1.95, 0, 0, -1.94E-09, 1.31E-12, 1.9447E-09
DataValue, 2, 0, 0, -1.949E-09, 1.1000000000000002E-12, 1.947E-09
DataValue, 2.05, 0, 0, -1.9468E-09, 7.100000000000001E-13, 1.9493E-09
DataValue, 2.1, 0, 0, -1.9459E-09, 1.3E-13, 1.9458E-09
DataValue, 2.15, 0, 0, -1.95E-09, -9.0000000000000008E-14, 1.9489E-09
DataValue, 2.2, 0, 0, -1.9466E-09, 6.3E-13, 1.9417E-09
DataValue, 2.25, 0, 0, -1.9509E-09, 1.02E-12, 1.9437E-09
DataValue, 2.3000000000000003, 0, 0, -1.9431E-09, 1.1000000000000002E-12, 1.9391E-09
DataValue, 2.35, 0, 0, -1.9421E-09, 7.3E-13, 1.9446E-09
DataValue, 2.4, 0, 0, -1.9482E-09, -1E-13, 1.9515E-09
DataValue, 2.45, 0, 0, -1.947E-09, -1.7E-13, 1.9466E-09
DataValue, 2.5, 0, 0, -1.9564E-09, 1.5000000000000002E-13, 1.9516E-09
DataValue, 2.5500000000000003, 0, 0, -1.951E-09, 8.300000000000001E-13, 1.9533E-09
DataValue, 2.6, 0, 0, -1.9546E-09, 1.13E-12, 1.9534E-09
DataValue, 2.65, 0, 0, -1.9644E-09, 6.6E-13, 1.9643E-09
DataValue, 2.7, 0, 0, -1.9556E-09, -1.1000000000000001E-13, 1.9539E-09
DataValue, 2.75, 0, 0, -1.9575E-09, -2.1000000000000001E-13, 1.9577E-09
DataValue, 2.8000000000000003, 0, 0, -1.9589E-09, 1.2000000000000002E-13, 1.9633E-09
DataValue, 2.85, 0, 0, -1.9639E-09, 8.300000000000001E-13, 1.9654E-09
DataValue, 2.9, 0, 0, -1.9701E-09, 1.3500000000000001E-12, 1.9701E-09
DataValue, 2.95, 0, 0, -1.9646E-09, 6.1E-13, 1.9622E-09
DataValue, 3, 0, 0, -1.9682E-09, 1.6000000000000003E-13, 1.9679E-09
DataValue, 3.0500000000000003, 0, 0, -1.9653E-09, -1.5000000000000002E-13, 1.968E-09
DataValue, 3.1, 0, 0, -1.9702E-09, 2.9000000000000003E-13, 1.9745E-09
DataValue, 3.15, 0, 0, -1.9699E-09, 1.1600000000000001E-12, 1.965E-09
DataValue, 3.2, 0, 0, -1.9772E-09, 1.3300000000000002E-12, 1.9731E-09
DataValue, 3.25, 0, 0, -1.9743E-09, 6.3E-13, 1.9735E-09
DataValue, 3.3000000000000003, 0, 0, -1.9757E-09, 1.4E-13, 1.9727E-09
DataValue, 3.35, 0, 0, -1.9726E-09, -2.4000000000000004E-13, 1.9764E-09
DataValue, 3.4, 0, 0, -1.9772E-09, 2.3000000000000003E-13, 1.982E-09
DataValue, 3.45, 0, 0, -1.977E-09, 7.7000000000000005E-13, 1.9825E-09
DataValue, 3.5, 0, 0, -1.9767E-09, 1.04E-12, 1.9797E-09
DataValue, 3.5500000000000003, 0, 0, -1.9802E-09, 7.100000000000001E-13, 1.9779E-09
DataValue, 3.6, 0, 0, -1.98E-09, -1.0000000000000002E-14, 1.9809E-09
DataValue, 3.65, 0, 0, -1.9796E-09, -4.3000000000000004E-13, 1.9789E-09
DataValue, 3.7, 0, 0, -1.9833E-09, -2.0000000000000003E-14, 1.9869E-09
DataValue, 3.75, 0, 0, -1.9811E-09, 6.1E-13, 1.9814E-09
DataValue, 3.8000000000000003, 0, 0, -1.9835E-09, 1.2000000000000001E-12, 1.9836E-09
DataValue, 3.85, 0, 0, -1.9856E-09, 9.4E-13, 1.9833E-09
DataValue, 3.9, 0, 0, -1.9839E-09, 4.1E-13, 1.9833E-09
DataValue, 3.95, 0, 0, -1.9832E-09, -7E-14, 1.9896E-09
DataValue, 4, 0, 0, -1.992E-09, -5.1E-13, 1.987E-09
DataValue, 4.05, 0, 0, -1.9864E-09, 3.9000000000000005E-13, 1.993E-09
DataValue, 4.1, 0, 0, -1.9958E-09, 1.2500000000000001E-12, 1.9925E-09
DataValue, 4.15, 0, 0, -1.9915E-09, 1.2900000000000002E-12, 1.99E-09
DataValue, 4.2, 0, 0, -1.9848E-09, 3.7000000000000004E-13, 1.9924E-09
DataValue, 4.25, 0, 0, -1.9907E-09, -2.2000000000000002E-13, 1.9955E-09
DataValue, 4.3, 0, 0, -1.9966E-09, -2.6E-13, 1.9934E-09
DataValue, 4.3500000000000005, 0, 0, -2.0002E-09, 2.7E-13, 1.9941E-09
DataValue, 4.4, 0, 0, -1.9945E-09, 7.6000000000000009E-13, 1.9994E-09
DataValue, 4.45, 0, 0, -1.994E-09, 1.0500000000000002E-12, 1.9966E-09
DataValue, 4.5, 0, 0, -1.9918E-09, 6.1E-13, 1.9951E-09
DataValue, 4.55, 0, 0, -1.996E-09, -1.4E-13, 1.9926E-09
DataValue, 4.6000000000000005, 0, 0, -1.9982E-09, -5E-14, 1.988E-09
DataValue, 4.65, 0, 0, -1.9962E-09, 5.4E-13, 2.0018E-09
DataValue, 4.7, 0, 0, -2.0067E-09, 9.9E-13, 2.002E-09
DataValue, 4.75, 0, 0, -2.0047E-09, 7.5E-13, 2.0004E-09
DataValue, 4.8, 0, 0, -1.9958E-09, 6.7000000000000007E-13, 2.002E-09
DataValue, 4.8500000000000005, 0, 0, -2.0064E-09, 1.8000000000000002E-13, 2.0067E-09
DataValue, 4.9, 0, 0, -2.0066E-09, -2.8E-13, 2.0083E-09
DataValue, 4.95, 0, 0, -2.0081E-09, -4.0000000000000006E-14, 2.0069E-09
DataValue, 5, 0, 0, -2.013E-09, 9.6000000000000015E-13, 2.0131E-09
DataValue, 5.05, 0, 0, -2.003E-09, 1.0500000000000002E-12, 2.0096E-09
DataValue, 5.1000000000000005, 0, 0, -2.013E-09, 1.04E-12, 2.0162E-09
DataValue, 5.15, 0, 0, -2.0156E-09, 2.1000000000000001E-13, 2.0128E-09
DataValue, 5.2, 0, 0, -2.014E-09, -4.9E-13, 2.0125E-09
DataValue, 5.25, 0, 0, -2.0102E-09, 7E-14, 2.014E-09
DataValue, 5.3, 0, 0, -2.0184E-09, 7.9000000000000007E-13, 2.0151E-09
DataValue, 5.3500000000000005, 0, 0, -2.023E-09, 9.8E-13, 2.0257E-09
DataValue, 5.4, 0, 0, -2.0249E-09, 7.4000000000000008E-13, 2.0215E-09
DataValue, 5.45, 0, 0, -2.0248E-09, 3.4E-13, 2.0265E-09
DataValue, 5.5, 0, 0, -2.0217E-09, -9.0000000000000008E-14, 2.0202E-09
DataValue, 5.55, 0, 0, -2.0218E-09, 4.1E-13, 2.0194E-09
DataValue, 5.6000000000000005, 0, 0, -2.0286E-09, 8.9E-13, 2.0259E-09
DataValue, 5.65, 0, 0, -2.0194E-09, 1.4800000000000002E-12, 2.0206E-09
DataValue, 5.7, 0, 0, -2.0281E-09, 1.14E-12, 2.0267E-09
DataValue, 5.75, 0, 0, -2.0226E-09, 3.1000000000000004E-13, 2.0222E-09
DataValue, 5.8, 0, 0, -2.0276E-09, 2.0000000000000003E-14, 2.0218E-09
DataValue, 5.8500000000000005, 0, 0, -2.0306E-09, 2.8E-13, 2.0291E-09
DataValue, 5.9, 0, 0, -2.0286E-09, 3.3E-13, 2.0298E-09
DataValue, 5.95, 0, 0, -2.0368E-09, 1.36E-12, 2.0336E-09
DataValue, 6, 0, 0, -2.0327E-09, 9.1000000000000016E-13, 2.0285E-09
DataValue, 6.05, 0, 0, -2.0304E-09, -3.0000000000000005E-14, 2.0297E-09
DataValue, 6.1000000000000005, 0, 0, -2.0365E-09, -3.0000000000000003E-13, 2.0375E-09
DataValue, 6.15, 0, 0, -2.0378E-09, -1.5000000000000002E-13, 2.0339E-09
DataValue, 6.2, 0, 0, -2.0345E-09, 6.1E-13, 2.0361E-09
DataValue, 6.25, 0, 0, -2.0436E-09, 7.9000000000000007E-13, 2.0428E-09
DataValue, 6.3, 0, 0, -2.0392E-09, 7.9000000000000007E-13, 2.0371E-09
DataValue, 6.3500000000000005, 0, 0, -2.0367E-09, 2.8E-13, 2.0348E-09
DataValue, 6.4, 0, 0, -2.0474E-09, -2.5E-13, 2.0477E-09
DataValue, 6.45, 0, 0, -2.0486E-09, 3.7000000000000004E-13, 2.0475E-09
DataValue, 6.5, 0, 0, -2.0484E-09, 7.4000000000000008E-13, 2.0479E-09
DataValue, 6.55, 0, 0, -2.0419E-09, 1.45E-12, 2.0404E-09
DataValue, 6.6000000000000005, 0, 0, -2.0438E-09, 8.7E-13, 2.044E-09
DataValue, 6.65, 0, 0, -2.0502E-09, 1.5000000000000002E-13, 2.0475E-09
DataValue, 6.7, 0, 0, -2.056E-09, -9.0000000000000008E-14, 2.0523E-09
DataValue, 6.75, 0, 0, -2.0491E-09, 1.4E-13, 2.057E-09
DataValue, 6.8, 0, 0, -2.0503E-09, 1.08E-12, 2.0519E-09
DataValue, 6.8500000000000005, 0, 0, -2.054E-09, 1.4700000000000002E-12, 2.0528E-09
DataValue, 6.9, 0, 0, -2.0508E-09, 1.1900000000000002E-12, 2.0492E-09
DataValue, 6.95, 0, 0, -2.0533E-09, 4.0000000000000006E-14, 2.052E-09
DataValue, 7, 0, 0, -2.0563E-09, -2.9000000000000003E-13, 2.0528E-09
DataValue, 7.05, 0, 0, -2.0569E-09, 1E-13, 2.0549E-09
DataValue, 7.1000000000000005, 0, 0, -2.0555E-09, 9.000000000000001E-13, 2.0584E-09
DataValue, 7.15, 0, 0, -2.0611E-09, 1.2000000000000001E-12, 2.0625E-09
DataValue, 7.2, 0, 0, -2.0555E-09, 3.1000000000000004E-13, 2.057E-09
DataValue, 7.25, 0, 0, -2.0618E-09, 1.0000000000000002E-14, 2.0532E-09
DataValue, 7.3, 0, 0, -2.0643E-09, -3.8000000000000005E-13, 2.0611E-09
DataValue, 7.3500000000000005, 0, 0, -2.0627E-09, 3.1000000000000004E-13, 2.0667E-09
DataValue, 7.4, 0, 0, -2.0675E-09, 6.7000000000000007E-13, 2.0689E-09
DataValue, 7.45, 0, 0, -2.0671E-09, 1.0600000000000001E-12, 2.067E-09
DataValue, 7.5, 0, 0, -2.0655E-09, 4.9E-13, 2.0682E-09
DataValue, 7.55, 0, 0, -2.0734E-09, 2.5E-13, 2.0698E-09
DataValue, 7.6000000000000005, 0, 0, -2.072E-09, -3.7000000000000004E-13, 2.0693E-09
DataValue, 7.65, 0, 0, -2.0679E-09, 4.7E-13, 2.0691E-09
DataValue, 7.7, 0, 0, -2.0772E-09, 1.1000000000000002E-12, 2.0696E-09
DataValue, 7.75, 0, 0, -2.0738E-09, 1.3000000000000001E-12, 2.0745E-09
DataValue, 7.8, 0, 0, -2.0751E-09, 9.6000000000000015E-13, 2.078E-09
DataValue, 7.8500000000000005, 0, 0, -2.0727E-09, 2.8E-13, 2.0749E-09
DataValue, 7.9, 0, 0, -2.0764E-09, -2.5E-13, 2.0792E-09
DataValue, 7.95, 0, 0, -2.0752E-09, 2.5E-13, 2.0762E-09
DataValue, 8, 0, 0, -2.0897E-09, 4.9E-13, 2.0898E-09
DataValue, 8.05, 0, 0, -2.0827E-09, 8.4000000000000006E-13, 2.0839E-09
DataValue, 8.1, 0, 0, -2.0828E-09, 7.9000000000000007E-13, 2.084E-09
DataValue, 8.15, 0, 0, -2.084E-09, 3.1000000000000004E-13, 2.0845E-09
DataValue, 8.2, 0, 0, -2.0926E-09, -1.9000000000000002E-13, 2.0902E-09
DataValue, 8.25, 0, 0, -2.0948E-09, -2E-13, 2.0968E-09
DataValue, 8.3, 0, 0, -2.0836E-09, 8E-13, 2.0861E-09
DataValue, 8.35, 0, 0, -2.0837E-09, 9.8E-13, 2.0869E-09
DataValue, 8.4, 0, 0, -2.0865E-09, 9.6000000000000015E-13, 2.0883E-09
DataValue, 8.45, 0, 0, -2.0912E-09, 2.4000000000000004E-13, 2.0913E-09
DataValue, 8.5, 0, 0, -2.0881E-09, 2.5E-13, 2.0885E-09
DataValue, 8.55, 0, 0, -2.0842E-09, 9.0000000000000008E-14, 2.086E-09
DataValue, 8.6, 0, 0, -2.0911E-09, 9.4E-13, 2.0884E-09
DataValue, 8.65, 0, 0, -2.0953E-09, 9.5E-13, 2.093E-09
DataValue, 8.7000000000000011, 0, 0, -2.0947E-09, 1.27E-12, 2.0939E-09
DataValue, 8.75, 0, 0, -2.0995E-09, 3.8000000000000005E-13, 2.0956E-09
DataValue, 8.8, 0, 0, -2.1016E-09, -7E-14, 2.0993E-09
DataValue, 8.85, 0, 0, -2.1021E-09, -4.0000000000000006E-14, 2.1053E-09
DataValue, 8.9, 0, 0, -2.1019E-09, 5.2E-13, 2.0991E-09
DataValue, 8.9500000000000011, 0, 0, -2.1102E-09, 6.0000000000000007E-13, 2.1085E-09
DataValue, 9, 0, 0, -2.1099E-09, 7.100000000000001E-13, 2.1065E-09
DataValue, 9.05, 0, 0, -2.1119E-09, 6.0000000000000009E-14, 2.1042E-09
DataValue, 9.1, 0, 0, -2.109E-09, -5.2E-13, 2.1089E-09
DataValue, 9.15, 0, 0, -2.1012E-09, 2.3000000000000003E-13, 2.1093E-09
DataValue, 9.2000000000000011, 0, 0, -2.114E-09, 5.4E-13, 2.1067E-09
DataValue, 9.25, 0, 0, -2.1028E-09, 1.23E-12, 2.1039E-09
DataValue, 9.3, 0, 0, -2.1018E-09, 1.0500000000000002E-12, 2.0966E-09
DataValue, 9.35, 0, 0, -2.1042E-09, 3.2000000000000005E-13, 2.1013E-09
DataValue, 9.4, 0, 0, -2.108E-09, 4.0000000000000006E-14, 2.1072E-09
DataValue, 9.4500000000000011, 0, 0, -2.1064E-09, -1.4E-13, 2.1072E-09
DataValue, 9.5, 0, 0, -2.1108E-09, 7.4000000000000008E-13, 2.1086E-09
DataValue, 9.55, 0, 0, -2.1125E-09, 1.13E-12, 2.1148E-09
DataValue, 9.6, 0, 0, -2.117E-09, 1E-12, 2.1152E-09
DataValue, 9.65, 0, 0, -2.1152E-09, 2.3000000000000003E-13, 2.1192E-09
DataValue, 9.7000000000000011, 0, 0, -2.1175E-09, -1E-13, 2.1184E-09
DataValue, 9.75, 0, 0, -2.1298E-09, -1E-13, 2.1273E-09
DataValue, 9.8, 0, 0, -2.1197E-09, 8.1000000000000008E-13, 2.119E-09
DataValue, 9.85, 0, 0, -2.1226E-09, 9.8E-13, 2.123E-09
DataValue, 9.9, 0, 0, -2.1216E-09, 8.300000000000001E-13, 2.1201E-09
DataValue, 9.9500000000000011, 0, 0, -2.1234E-09, 3.2000000000000005E-13, 2.1156E-09
DataValue, 10, 0, 0, -2.1211E-09, -4.8000000000000008E-13, 2.1227E-09
DataValue, 10.05, 0, 0, -2.1216E-09, -1.7E-13, 2.1202E-09
DataValue, 10.1, 0, 0, -2.1254E-09, 7.8000000000000011E-13, 2.1194E-09
DataValue, 10.15, 0, 0, -2.1254E-09, 9.1000000000000016E-13, 2.1117E-09
DataValue, 10.200000000000001, 0, 0, -2.1263E-09, 9.9E-13, 2.1214E-09
DataValue, 10.25, 0, 0, -2.1281E-09, 9.0000000000000008E-14, 2.1294E-09
