
SetupTitle, TFT Id-Vd
PrimitiveTest, I/V Sweep
TestParameter, Context.MainFrame, B1500A
TestParameter, Channel.UnitType, SMU, SMU, SMU
TestParameter, Channel.Unit, SMU4:HR, SMU1:HP, SMU3:HR
TestParameter, Channel.IName, Isource, Igate, Idrain
TestParameter, Channel.VName, Vsource, Vgate, Vdrain
TestParameter, Channel.Mode, V, V, V
TestParameter, Channel.Func, CONST, VAR2, VAR1
TestParameter, Channel.Index, 
TestParameter, Channel.Time, 
TestParameter, Measurement.Port.Unit, SMU4:HR, SMU1:HP, SMU3:HR
TestParameter, Measurement.Port.SeriesResistor, NONE, NONE, NONE
TestParameter, Measurement.Port.Filter, ON, ON, ON
TestParameter, Measurement.Port.OutputVoltageComparison, 0, 0, 0
TestParameter, Measurement.Primary.Locus, Single
TestParameter, Measurement.Primary.Scale, LINEAR
TestParameter, Measurement.Primary.Start, 0
TestParameter, Measurement.Primary.Stop, 15
TestParameter, Measurement.Primary.Step, 0.05
TestParameter, Measurement.Primary.Compliance, 0.01
TestParameter, Measurement.Primary.PowerCompliance, 0
TestParameter, Measurement.Aborting.Condition, CONTINUE AT ANY
TestParameter, Measurement.PostOutput.Value, START
TestParameter, Measurement.PostOutput.Retention, OFF
TestParameter, Measurement.Secondary.Start, 0
TestParameter, Measurement.Secondary.Count, 6
TestParameter, Measurement.Secondary.Step, 2
TestParameter, Measurement.Secondary.Compliance, 0.0001
TestParameter, Measurement.Secondary.PowerCompliance, 0
TestParameter, Measurement.Bias.Source, 0, 0, 0
TestParameter, Measurement.Bias.Compliance, 0.1, 0.0001, 0.01
TestParameter, Measurement.Monitor.Unit, SMU4:HR, SMU1:HP, SMU3:HR
TestParameter, Measurement.Monitor.Adc, HR ADC, HR ADC, HR ADC
TestParameter, Measurement.Monitor.Measurement, Compliance Side, Compliance Side, Compliance Side
TestParameter, Measurement.Monitor.RangingMode, LIMITED, LIMITED, LIMITED
TestParameter, Measurement.Monitor.RangeBoundary, 1nA, 1nA, 1nA
TestParameter, Measurement.Monitor.RangeRating, BY FULL RANGE, BY FULL RANGE, BY FULL RANGE
TestParameter, Measurement.Monitor.RangeRatingCoeff, 50, 50, 50
TestParameter, Measurement.Timing.Hold, 0
TestParameter, Measurement.Timing.Delay, 0
TestParameter, Measurement.Adc.HighSpeed.Mode, AUTO
TestParameter, Measurement.Adc.HighSpeed.Coeff, 1
TestParameter, Measurement.Adc.HighResolution.AutoZero, OFF
TestParameter, Measurement.Adc.HighResolution.Mode, AUTO
TestParameter, Measurement.Adc.HighResolution.Coeff, 6
TestParameter, Measurement.WaitTime.Source.Coeff, 1
TestParameter, Measurement.WaitTime.Source.Offset, 0
TestParameter, Measurement.WaitTime.Monitor.Coeff, 1
TestParameter, Measurement.WaitTime.Monitor.Offset, 0
TestParameter, Output.Graph.Enabled, true
TestParameter, Output.Graph.XAxis.Data, Vdrain
TestParameter, Output.Graph.XAxis.Scale, Linear
TestParameter, Output.Graph.XAxis.Left, 0
TestParameter, Output.Graph.XAxis.Right, 10
TestParameter, Output.Graph.YAxis.Data, Idrain
TestParameter, Output.Graph.YAxis.Scale, Linear
TestParameter, Output.Graph.YAxis.Bottom, 0
TestParameter, Output.Graph.YAxis.Top, 0.1
TestParameter, Output.Graph.YAxis.Group, 
TestParameter, Output.List.Data, Vgate, Vdrain, Vsource, Igate, Idrain, Isource
TestParameter, AutoAnalysis.Interpolation, false
TestParameter, AutoAnalysis.Line1.Enabled, false
TestParameter, AutoAnalysis.Line1.Type, 1
TestParameter, AutoAnalysis.Line1.Fix, True
TestParameter, AutoAnalysis.Line1.YAxis, 0
TestParameter, AutoAnalysis.Line1.Point1.Type, 0
TestParameter, AutoAnalysis.Line1.Point1.XY.X, 
TestParameter, AutoAnalysis.Line1.Point1.XY.Y, 
TestParameter, AutoAnalysis.Line1.Point1.Data.Var, 
TestParameter, AutoAnalysis.Line1.Point1.Data.Condition, 
TestParameter, AutoAnalysis.Line1.Point1.Data.Start, false
TestParameter, AutoAnalysis.Line1.Point1.Data.StartVar, 
TestParameter, AutoAnalysis.Line1.Point1.Data.StartCondition, 
TestParameter, AutoAnalysis.Line1.Point2.Type, 0
TestParameter, AutoAnalysis.Line1.Point2.XY.X, 
TestParameter, AutoAnalysis.Line1.Point2.XY.Y, 
TestParameter, AutoAnalysis.Line1.Point2.Data.Var, 
TestParameter, AutoAnalysis.Line1.Point2.Data.Condition, 
TestParameter, AutoAnalysis.Line1.Point2.Data.Start, false
TestParameter, AutoAnalysis.Line1.Point2.Data.StartVar, 
TestParameter, AutoAnalysis.Line1.Point2.Data.StartCondition, 
TestParameter, AutoAnalysis.Line1.GradientExpr, 0
TestParameter, AutoAnalysis.Line2.Enabled, false
TestParameter, AutoAnalysis.Line2.Type, 1
TestParameter, AutoAnalysis.Line2.Fix, True
TestParameter, AutoAnalysis.Line2.YAxis, 0
TestParameter, AutoAnalysis.Line2.Point1.Type, 0
TestParameter, AutoAnalysis.Line2.Point1.XY.X, 
TestParameter, AutoAnalysis.Line2.Point1.XY.Y, 
TestParameter, AutoAnalysis.Line2.Point1.Data.Var, 
TestParameter, AutoAnalysis.Line2.Point1.Data.Condition, 
TestParameter, AutoAnalysis.Line2.Point1.Data.Start, false
TestParameter, AutoAnalysis.Line2.Point1.Data.StartVar, 
TestParameter, AutoAnalysis.Line2.Point1.Data.StartCondition, 
TestParameter, AutoAnalysis.Line2.Point2.Type, 0
TestParameter, AutoAnalysis.Line2.Point2.XY.X, 
TestParameter, AutoAnalysis.Line2.Point2.XY.Y, 
TestParameter, AutoAnalysis.Line2.Point2.Data.Var, 
TestParameter, AutoAnalysis.Line2.Point2.Data.Condition, 
TestParameter, AutoAnalysis.Line2.Point2.Data.Start, false
TestParameter, AutoAnalysis.Line2.Point2.Data.StartVar, 
TestParameter, AutoAnalysis.Line2.Point2.Data.StartCondition, 
TestParameter, AutoAnalysis.Line2.GradientExpr, 0
TestParameter, AutoAnalysis.Marker.Enabled, false
TestParameter, AutoAnalysis.Marker.Data.Var, 
TestParameter, AutoAnalysis.Marker.Data.Condition, 
TestParameter, AutoAnalysis.Marker.Data.Start, false
TestParameter, AutoAnalysis.Marker.Data.StartVar, 
TestParameter, AutoAnalysis.Marker.Data.StartCondition, 
MetaData, TestRecord.EntryPoint, true
MetaData, TestRecord.RecordTime, 11/10/2017 11:26:09
MetaData, TestRecord.TestTarget, 100um_100um
MetaData, TestRecord.IterationIndex, 1
MetaData, TestRecord.Preservation, true
MetaData, TestRecord.Flag, 
MetaData, TestRecord.Remarks, 
MetaData, TestRecord.LinkKey, 62d1ce8b-9bc1-477e-8631-1021f393646e
Dimension1, 301, 301, 301, 301, 301, 301
Dimension2, 6, 6, 6, 6, 6, 6
DataName, Vdrain, Vgate, Vsource, Isource, Igate, Idrain
DataValue, 0, 0, 0, -4.265E-11, 1.7000000000000002E-12, 4.3760000000000006E-11
DataValue, 0.05, 0, 0, -7.8127E-09, -3.9000000000000005E-13, 7.8132E-09
DataValue, 0.1, 0, 0, -1.4284599999999998E-08, 8.6000000000000007E-13, 1.4267199999999999E-08
DataValue, 0.15, 0, 0, -1.9214399999999998E-08, 5.1E-13, 1.9207299999999998E-08
DataValue, 0.2, 0, 0, -2.2710999999999997E-08, 1.41E-12, 2.2697399999999997E-08
DataValue, 0.25, 0, 0, -2.5034799999999998E-08, 1.14E-12, 2.5017899999999997E-08
DataValue, 0.3, 0, 0, -2.6699199999999997E-08, 5E-13, 2.6678099999999998E-08
DataValue, 0.35000000000000003, 0, 0, -2.7967199999999996E-08, -7.7000000000000005E-13, 2.7951999999999998E-08
DataValue, 0.4, 0, 0, -2.9011599999999997E-08, 2.2000000000000002E-13, 2.9003999999999996E-08
DataValue, 0.45, 0, 0, -2.99074E-08, 1.04E-12, 2.98867E-08
DataValue, 0.5, 0, 0, -3.06672E-08, 1.3900000000000001E-12, 3.0661199999999997E-08
DataValue, 0.55, 0, 0, -3.1336799999999994E-08, 4.1E-13, 3.1337299999999994E-08
DataValue, 0.6, 0, 0, -3.1952999999999995E-08, -3.8000000000000005E-13, 3.1941399999999996E-08
DataValue, 0.65, 0, 0, -3.24896E-08, 2.2000000000000002E-13, 3.2476799999999996E-08
DataValue, 0.70000000000000007, 0, 0, -3.2984399999999995E-08, 1.2900000000000002E-12, 3.2972999999999994E-08
DataValue, 0.75, 0, 0, -3.34348E-08, 1.69E-12, 3.3410899999999995E-08
DataValue, 0.8, 0, 0, -3.3832399999999997E-08, 3.3E-13, 3.38174E-08
DataValue, 0.85, 0, 0, -3.42058E-08, -7.100000000000001E-13, 3.4195599999999996E-08
DataValue, 0.9, 0, 0, -3.4555399999999996E-08, -2.4000000000000004E-13, 3.4541199999999996E-08
DataValue, 0.95000000000000007, 0, 0, -3.4882999999999995E-08, 7E-13, 3.4873199999999995E-08
DataValue, 1, 0, 0, -3.5198599999999995E-08, 1.8200000000000003E-12, 3.51814E-08
DataValue, 1.05, 0, 0, -3.5480199999999995E-08, 8.2E-13, 3.5463299999999994E-08
DataValue, 1.1, 0, 0, -3.57538E-08, 0, 3.57387E-08
DataValue, 1.1500000000000001, 0, 0, -3.6003999999999996E-08, -1.1000000000000001E-13, 3.5987199999999994E-08
DataValue, 1.2, 0, 0, -3.6245E-08, 6.9000000000000009E-13, 3.6237599999999995E-08
DataValue, 1.25, 0, 0, -3.6472E-08, 1.6300000000000001E-12, 3.64649E-08
DataValue, 1.3, 0, 0, -3.67028E-08, 9.8E-13, 3.6684499999999993E-08
DataValue, 1.35, 0, 0, -3.6901399999999996E-08, 1.5000000000000002E-13, 3.6890099999999994E-08
DataValue, 1.4000000000000001, 0, 0, -3.71058E-08, -6.400000000000001E-13, 3.70914E-08
DataValue, 1.45, 0, 0, -3.72846E-08, 1.6000000000000003E-13, 3.7282599999999995E-08
DataValue, 1.5, 0, 0, -3.74798E-08, 1.1000000000000002E-12, 3.74634E-08
DataValue, 1.55, 0, 0, -3.7651E-08, 1.2000000000000001E-12, 3.7639699999999995E-08
DataValue, 1.6, 0, 0, -3.7816799999999996E-08, 3.5E-13, 3.78069E-08
DataValue, 1.6500000000000001, 0, 0, -3.7990399999999993E-08, -6.1E-13, 3.79665E-08
DataValue, 1.7, 0, 0, -3.81388E-08, -2.6E-13, 3.8129699999999995E-08
DataValue, 1.75, 0, 0, -3.8295999999999994E-08, 5.5000000000000008E-13, 3.8282699999999996E-08
DataValue, 1.8, 0, 0, -3.84362E-08, 1.64E-12, 3.84265E-08
DataValue, 1.85, 0, 0, -3.85762E-08, 1.22E-12, 3.85696E-08
DataValue, 1.9000000000000001, 0, 0, -3.87218E-08, 3.1000000000000004E-13, 3.8706699999999994E-08
DataValue, 1.95, 0, 0, -3.88546E-08, -5.5000000000000008E-13, 3.88497E-08
DataValue, 2, 0, 0, -3.89836E-08, 1.6000000000000003E-13, 3.89706E-08
DataValue, 2.05, 0, 0, -3.91078E-08, 1.18E-12, 3.9088999999999994E-08
DataValue, 2.1, 0, 0, -3.92242E-08, 1.4700000000000002E-12, 3.92116E-08
DataValue, 2.15, 0, 0, -3.9349E-08, 6.0000000000000009E-14, 3.93347E-08
DataValue, 2.2, 0, 0, -3.9466199999999995E-08, -5.1E-13, 3.9450999999999994E-08
DataValue, 2.25, 0, 0, -3.9570799999999993E-08, 3.1000000000000004E-13, 3.9557699999999993E-08
DataValue, 2.3000000000000003, 0, 0, -3.9677199999999996E-08, 1.18E-12, 3.9673999999999995E-08
DataValue, 2.35, 0, 0, -3.9792599999999996E-08, 1.08E-12, 3.97804E-08
DataValue, 2.4, 0, 0, -3.9894799999999997E-08, 1.4E-13, 3.9877599999999993E-08
DataValue, 2.45, 0, 0, -4.0000399999999996E-08, -6.0000000000000007E-13, 3.9986299999999995E-08
DataValue, 2.5, 0, 0, -4.0089199999999993E-08, -9.0000000000000008E-14, 4.0090299999999993E-08
DataValue, 2.5500000000000003, 0, 0, -4.02042E-08, 1.08E-12, 4.01868E-08
DataValue, 2.6, 0, 0, -4.0290199999999996E-08, 1.5200000000000002E-12, 4.02834E-08
DataValue, 2.65, 0, 0, -4.03868E-08, 6.3E-13, 4.0375799999999993E-08
DataValue, 2.7, 0, 0, -4.0482799999999995E-08, -2.8E-13, 4.04721E-08
DataValue, 2.75, 0, 0, -4.0578599999999994E-08, -6.8E-13, 4.0557299999999994E-08
DataValue, 2.8000000000000003, 0, 0, -4.0659399999999995E-08, 7.9000000000000007E-13, 4.06498E-08
DataValue, 2.85, 0, 0, -4.0747399999999996E-08, 1.4200000000000002E-12, 4.0734299999999996E-08
DataValue, 2.9, 0, 0, -4.0832199999999996E-08, 1.27E-12, 4.0809799999999995E-08
DataValue, 2.95, 0, 0, -4.0908799999999995E-08, 1.5000000000000002E-13, 4.0894699999999994E-08
DataValue, 3, 0, 0, -4.0983199999999995E-08, -3.1000000000000004E-13, 4.09797E-08
DataValue, 3.0500000000000003, 0, 0, -4.1071399999999993E-08, -1.3E-13, 4.1055899999999995E-08
DataValue, 3.1, 0, 0, -4.11438E-08, 1.26E-12, 4.1127499999999996E-08
DataValue, 3.15, 0, 0, -4.12202E-08, 1.6E-12, 4.1199199999999995E-08
DataValue, 3.2, 0, 0, -4.1288799999999996E-08, 6.1E-13, 4.1278599999999994E-08
DataValue, 3.25, 0, 0, -4.1362E-08, -3.6000000000000003E-13, 4.1352299999999995E-08
DataValue, 3.3000000000000003, 0, 0, -4.14402E-08, -4.4000000000000004E-13, 4.1428999999999993E-08
DataValue, 3.35, 0, 0, -4.15134E-08, 5.8000000000000005E-13, 4.1501199999999993E-08
DataValue, 3.4, 0, 0, -4.15812E-08, 1.1600000000000001E-12, 4.1576999999999996E-08
DataValue, 3.45, 0, 0, -4.1648199999999994E-08, 1.22E-12, 4.1641099999999994E-08
DataValue, 3.5, 0, 0, -4.1722399999999996E-08, -1.7E-13, 4.17087E-08
DataValue, 3.5500000000000003, 0, 0, -4.1796E-08, -2.4000000000000004E-13, 4.17808E-08
DataValue, 3.6, 0, 0, -4.1870599999999996E-08, -7E-14, 4.18518E-08
DataValue, 3.65, 0, 0, -4.1924799999999996E-08, 1.27E-12, 4.1919399999999995E-08
DataValue, 3.7, 0, 0, -4.1999E-08, 1.1500000000000002E-12, 4.19924E-08
DataValue, 3.75, 0, 0, -4.2061999999999996E-08, 4.9E-13, 4.20487E-08
DataValue, 3.8000000000000003, 0, 0, -4.21308E-08, -4.2000000000000003E-13, 4.2111399999999994E-08
DataValue, 3.85, 0, 0, -4.2183599999999994E-08, -3.0000000000000003E-13, 4.2176499999999994E-08
DataValue, 3.9, 0, 0, -4.2252399999999995E-08, 1.02E-12, 4.2236599999999995E-08
DataValue, 3.95, 0, 0, -4.23124E-08, 1.5400000000000001E-12, 4.2295499999999996E-08
DataValue, 4, 0, 0, -4.23724E-08, 1.08E-12, 4.23648E-08
DataValue, 4.05, 0, 0, -4.2437999999999993E-08, -2.1000000000000001E-13, 4.24261E-08
DataValue, 4.1, 0, 0, -4.25032E-08, -4.1E-13, 4.2488799999999993E-08
DataValue, 4.15, 0, 0, -4.2557999999999996E-08, -5E-14, 4.25437E-08
DataValue, 4.2, 0, 0, -4.2618399999999993E-08, 1.3300000000000002E-12, 4.26055E-08
DataValue, 4.25, 0, 0, -4.2679999999999996E-08, 1.1000000000000002E-12, 4.26629E-08
DataValue, 4.3, 0, 0, -4.2735999999999993E-08, 5.7E-13, 4.27235E-08
DataValue, 4.3500000000000005, 0, 0, -4.2791599999999995E-08, -5.3000000000000006E-13, 4.27788E-08
DataValue, 4.4, 0, 0, -4.28456E-08, -1.2000000000000002E-13, 4.2827599999999996E-08
DataValue, 4.45, 0, 0, -4.28908E-08, 9.1000000000000016E-13, 4.2883399999999996E-08
DataValue, 4.5, 0, 0, -4.2943199999999994E-08, 1.7200000000000001E-12, 4.2934999999999994E-08
DataValue, 4.55, 0, 0, -4.3007599999999995E-08, 1.03E-12, 4.2997299999999994E-08
DataValue, 4.6000000000000005, 0, 0, -4.3066599999999996E-08, 7E-14, 4.30549E-08
DataValue, 4.65, 0, 0, -4.31178E-08, -5.3000000000000006E-13, 4.3103399999999994E-08
DataValue, 4.7, 0, 0, -4.3165599999999996E-08, 2.8E-13, 4.3161299999999995E-08
DataValue, 4.75, 0, 0, -4.32212E-08, 1.41E-12, 4.32119E-08
DataValue, 4.8, 0, 0, -4.3260999999999993E-08, 1.46E-12, 4.32572E-08
DataValue, 4.8500000000000005, 0, 0, -4.3316599999999995E-08, 4.7E-13, 4.3303399999999996E-08
DataValue, 4.9, 0, 0, -4.3370599999999997E-08, -4E-13, 4.33563E-08
DataValue, 4.95, 0, 0, -4.34148E-08, -9.0000000000000008E-14, 4.3403499999999996E-08
DataValue, 5, 0, 0, -4.3472399999999996E-08, 6.7000000000000007E-13, 4.34519E-08
DataValue, 5.05, 0, 0, -4.3523399999999994E-08, 1.4900000000000001E-12, 4.3504299999999993E-08
DataValue, 5.1000000000000005, 0, 0, -4.3567799999999993E-08, 6.0000000000000007E-13, 4.3545899999999993E-08
DataValue, 5.15, 0, 0, -4.3610199999999996E-08, -4.9E-13, 4.3595999999999995E-08
DataValue, 5.2, 0, 0, -4.36604E-08, 3.1000000000000004E-13, 4.36433E-08
DataValue, 5.25, 0, 0, -4.3706599999999994E-08, 1.5600000000000002E-12, 4.3687399999999995E-08
DataValue, 5.3, 0, 0, -4.3756E-08, 1.22E-12, 4.3741999999999996E-08
DataValue, 5.3500000000000005, 0, 0, -4.3791999999999993E-08, 4.9E-13, 4.3786799999999996E-08
DataValue, 5.4, 0, 0, -4.38468E-08, -4.4000000000000004E-13, 4.3836299999999993E-08
DataValue, 5.45, 0, 0, -4.3885999999999993E-08, 1.6000000000000003E-13, 4.3876699999999993E-08
DataValue, 5.5, 0, 0, -4.39272E-08, 1.12E-12, 4.39119E-08
DataValue, 5.55, 0, 0, -4.3966E-08, 1.6700000000000002E-12, 4.3960699999999996E-08
DataValue, 5.6000000000000005, 0, 0, -4.4012599999999997E-08, 7.8000000000000011E-13, 4.4000599999999996E-08
DataValue, 5.65, 0, 0, -4.4065399999999993E-08, -5.7E-13, 4.4046199999999994E-08
DataValue, 5.7, 0, 0, -4.41044E-08, -3.0000000000000003E-13, 4.4099199999999994E-08
DataValue, 5.75, 0, 0, -4.4159799999999996E-08, 5.1E-13, 4.4150499999999996E-08
DataValue, 5.8, 0, 0, -4.41968E-08, 1.27E-12, 4.4183399999999994E-08
DataValue, 5.8500000000000005, 0, 0, -4.4240799999999995E-08, 1.22E-12, 4.4233599999999996E-08
DataValue, 5.9, 0, 0, -4.4297799999999993E-08, 3.0000000000000003E-13, 4.42865E-08
DataValue, 5.95, 0, 0, -4.4336399999999996E-08, -6.6E-13, 4.43177E-08
DataValue, 6, 0, 0, -4.4384799999999993E-08, 2E-13, 4.4368899999999993E-08
DataValue, 6.05, 0, 0, -4.4416399999999994E-08, 1.1100000000000001E-12, 4.44096E-08
DataValue, 6.1000000000000005, 0, 0, -4.4463999999999994E-08, 1.2400000000000002E-12, 4.4453499999999995E-08
DataValue, 6.15, 0, 0, -4.45118E-08, 3.8000000000000005E-13, 4.4488999999999996E-08
DataValue, 6.2, 0, 0, -4.4551799999999997E-08, -4.1E-13, 4.45364E-08
DataValue, 6.25, 0, 0, -4.4584E-08, 3.6000000000000003E-13, 4.45763E-08
DataValue, 6.3, 0, 0, -4.4625799999999995E-08, 9.5E-13, 4.4613099999999996E-08
DataValue, 6.3500000000000005, 0, 0, -4.46704E-08, 1.5300000000000001E-12, 4.46654E-08
DataValue, 6.4, 0, 0, -4.4712199999999995E-08, 5.3000000000000006E-13, 4.47026E-08
DataValue, 6.45, 0, 0, -4.4756999999999995E-08, -4.8000000000000008E-13, 4.4744399999999995E-08
DataValue, 6.5, 0, 0, -4.4794599999999997E-08, -4.7E-13, 4.4776799999999994E-08
DataValue, 6.55, 0, 0, -4.4825399999999995E-08, 7.7000000000000005E-13, 4.4813799999999996E-08
DataValue, 6.6000000000000005, 0, 0, -4.4867599999999993E-08, 1.73E-12, 4.4853899999999994E-08
DataValue, 6.65, 0, 0, -4.49E-08, 9.3E-13, 4.48902E-08
DataValue, 6.7, 0, 0, -4.4954399999999995E-08, -3.7000000000000004E-13, 4.4930899999999995E-08
DataValue, 6.75, 0, 0, -4.4981399999999993E-08, -3.2000000000000005E-13, 4.4970899999999994E-08
DataValue, 6.8, 0, 0, -4.50226E-08, 5.5000000000000008E-13, 4.5013599999999994E-08
DataValue, 6.8500000000000005, 0, 0, -4.5059399999999995E-08, 1.5200000000000002E-12, 4.5053599999999993E-08
DataValue, 6.9, 0, 0, -4.5102599999999995E-08, 1E-12, 4.5091699999999995E-08
DataValue, 6.95, 0, 0, -4.5153399999999996E-08, 2.3000000000000003E-13, 4.5138599999999996E-08
DataValue, 7, 0, 0, -4.51872E-08, -5.4E-13, 4.5177399999999997E-08
DataValue, 7.05, 0, 0, -4.5221999999999993E-08, -2.4000000000000004E-13, 4.5207199999999993E-08
DataValue, 7.1000000000000005, 0, 0, -4.525E-08, 9.6000000000000015E-13, 4.5245499999999993E-08
DataValue, 7.15, 0, 0, -4.5297799999999996E-08, 1.5E-12, 4.5284299999999993E-08
DataValue, 7.2, 0, 0, -4.53452E-08, 8.7E-13, 4.5326999999999993E-08
DataValue, 7.25, 0, 0, -4.5372199999999995E-08, -1.5000000000000002E-13, 4.5354699999999995E-08
DataValue, 7.3, 0, 0, -4.5408399999999994E-08, -9.000000000000001E-13, 4.5384E-08
DataValue, 7.3500000000000005, 0, 0, -4.54436E-08, 7E-13, 4.5430099999999996E-08
DataValue, 7.4, 0, 0, -4.5477199999999995E-08, 1.5400000000000001E-12, 4.5466799999999995E-08
DataValue, 7.45, 0, 0, -4.5519E-08, 1.4E-12, 4.5505799999999993E-08
DataValue, 7.5, 0, 0, -4.5548799999999996E-08, -2.2000000000000002E-13, 4.5530999999999993E-08
DataValue, 7.55, 0, 0, -4.55792E-08, -7.100000000000001E-13, 4.5566999999999994E-08
DataValue, 7.6000000000000005, 0, 0, -4.5618399999999994E-08, 2.9000000000000003E-13, 4.5608099999999993E-08
DataValue, 7.65, 0, 0, -4.5652399999999993E-08, 1.3500000000000001E-12, 4.5642799999999996E-08
DataValue, 7.7, 0, 0, -4.56974E-08, 1.02E-12, 4.5674499999999996E-08
DataValue, 7.75, 0, 0, -4.57208E-08, 2.0000000000000003E-14, 4.5711999999999993E-08
DataValue, 7.8, 0, 0, -4.57658E-08, -5.1E-13, 4.5744699999999994E-08
DataValue, 7.8500000000000005, 0, 0, -4.5799399999999994E-08, 3.5E-13, 4.5787899999999994E-08
DataValue, 7.9, 0, 0, -4.5834799999999996E-08, 1.3000000000000001E-12, 4.5813199999999992E-08
DataValue, 7.95, 0, 0, -4.5862E-08, 1.09E-12, 4.5850299999999993E-08
DataValue, 8, 0, 0, -4.59046E-08, 5.1E-13, 4.5884799999999993E-08
DataValue, 8.05, 0, 0, -4.5939199999999996E-08, -2.2000000000000002E-13, 4.59237E-08
DataValue, 8.1, 0, 0, -4.5966799999999993E-08, -1.7E-13, 4.5962699999999996E-08
DataValue, 8.15, 0, 0, -4.6011999999999995E-08, 1.12E-12, 4.6002199999999995E-08
DataValue, 8.2, 0, 0, -4.6048799999999993E-08, 1.2000000000000001E-12, 4.6032999999999993E-08
DataValue, 8.25, 0, 0, -4.6088199999999993E-08, 1.18E-12, 4.6070699999999993E-08
DataValue, 8.3, 0, 0, -4.61272E-08, -1.4E-13, 4.6099999999999996E-08
