
SetupTitle, TFT Id-Vg
PrimitiveTest, I/V Sweep
TestParameter, Context.MainFrame, B1500A
TestParameter, Channel.UnitType, SMU, SMU, SMU
TestParameter, Channel.Unit, SMU4:HR, SMU1:HP, SMU3:HR
TestParameter, Channel.IName, Isource, Igate, Idrain
TestParameter, Channel.VName, Vsource, Vgate, Vdrain
TestParameter, Channel.Mode, V, V, V
TestParameter, Channel.Func, CONST, VAR1, VAR2
TestParameter, Channel.Index, 
TestParameter, Channel.Time, 
TestParameter, Measurement.Port.Unit, SMU4:HR, SMU1:HP, SMU3:HR
TestParameter, Measurement.Port.SeriesResistor, NONE, NONE, NONE
TestParameter, Measurement.Port.Filter, ON, ON, ON
TestParameter, Measurement.Port.OutputVoltageComparison, 0, 0, 0
TestParameter, Measurement.Primary.Locus, Single
TestParameter, Measurement.Primary.Scale, LINEAR
TestParameter, Measurement.Primary.Start, -5
TestParameter, Measurement.Primary.Stop, 10
TestParameter, Measurement.Primary.Step, 0.05
TestParameter, Measurement.Primary.Compliance, 0.01
TestParameter, Measurement.Primary.PowerCompliance, 0
TestParameter, Measurement.Aborting.Condition, CONTINUE AT ANY
TestParameter, Measurement.PostOutput.Value, START
TestParameter, Measurement.PostOutput.Retention, OFF
TestParameter, Measurement.Secondary.Start, 0.1
TestParameter, Measurement.Secondary.Count, 3
TestParameter, Measurement.Secondary.Step, 0.4
TestParameter, Measurement.Secondary.Compliance, 0.0001
TestParameter, Measurement.Secondary.PowerCompliance, 0
TestParameter, Measurement.Bias.Source, 0, -5, 0.1
TestParameter, Measurement.Bias.Compliance, 0.1, 0.01, 0.0001
TestParameter, Measurement.Monitor.Unit, SMU4:HR, SMU1:HP, SMU3:HR
TestParameter, Measurement.Monitor.Adc, HR ADC, HR ADC, HR ADC
TestParameter, Measurement.Monitor.Measurement, Compliance Side, Compliance Side, Compliance Side
TestParameter, Measurement.Monitor.RangingMode, LIMITED, LIMITED, LIMITED
TestParameter, Measurement.Monitor.RangeBoundary, 1nA, 1nA, 100pA
TestParameter, Measurement.Monitor.RangeRating, BY FULL RANGE, BY FULL RANGE, BY FULL RANGE
TestParameter, Measurement.Monitor.RangeRatingCoeff, 50, 50, 50
TestParameter, Measurement.Timing.Hold, 0
TestParameter, Measurement.Timing.Delay, 0
TestParameter, Measurement.Adc.HighSpeed.Mode, AUTO
TestParameter, Measurement.Adc.HighSpeed.Coeff, 1
TestParameter, Measurement.Adc.HighResolution.AutoZero, OFF
TestParameter, Measurement.Adc.HighResolution.Mode, AUTO
TestParameter, Measurement.Adc.HighResolution.Coeff, 6
TestParameter, Measurement.WaitTime.Source.Coeff, 1
TestParameter, Measurement.WaitTime.Source.Offset, 0
TestParameter, Measurement.WaitTime.Monitor.Coeff, 1
TestParameter, Measurement.WaitTime.Monitor.Offset, 0
TestParameter, Function.User.Name, gm
TestParameter, Function.User.Unit, S
TestParameter, Function.User.Definition, diff(Idrain, Vgate)
TestParameter, Output.Graph.Enabled, true
TestParameter, Output.Graph.XAxis.Data, Vgate
TestParameter, Output.Graph.XAxis.Scale, Linear
TestParameter, Output.Graph.XAxis.Left, -2
TestParameter, Output.Graph.XAxis.Right, 15
TestParameter, Output.Graph.YAxis.Data, Idrain, gm, Idrain
TestParameter, Output.Graph.YAxis.Scale, Log, Linear, Linear
TestParameter, Output.Graph.YAxis.Bottom, 0, 0, -0.0001
TestParameter, Output.Graph.YAxis.Top, 0.001, 1, 0.0001
TestParameter, Output.Graph.YAxis.Group, , , 
TestParameter, Output.List.Data, Vgate, Vdrain, Igate, Idrain, gm
TestParameter, AutoAnalysis.Interpolation, false
TestParameter, AutoAnalysis.Line1.Enabled, false
TestParameter, AutoAnalysis.Line1.Type, 1
TestParameter, AutoAnalysis.Line1.Fix, True
TestParameter, AutoAnalysis.Line1.YAxis, 0
TestParameter, AutoAnalysis.Line1.Point1.Type, 0
TestParameter, AutoAnalysis.Line1.Point1.XY.X, 
TestParameter, AutoAnalysis.Line1.Point1.XY.Y, 
TestParameter, AutoAnalysis.Line1.Point1.Data.Var, 
TestParameter, AutoAnalysis.Line1.Point1.Data.Condition, 
TestParameter, AutoAnalysis.Line1.Point1.Data.Start, false
TestParameter, AutoAnalysis.Line1.Point1.Data.StartVar, 
TestParameter, AutoAnalysis.Line1.Point1.Data.StartCondition, 
TestParameter, AutoAnalysis.Line1.Point2.Type, 0
TestParameter, AutoAnalysis.Line1.Point2.XY.X, 
TestParameter, AutoAnalysis.Line1.Point2.XY.Y, 
TestParameter, AutoAnalysis.Line1.Point2.Data.Var, 
TestParameter, AutoAnalysis.Line1.Point2.Data.Condition, 
TestParameter, AutoAnalysis.Line1.Point2.Data.Start, false
TestParameter, AutoAnalysis.Line1.Point2.Data.StartVar, 
TestParameter, AutoAnalysis.Line1.Point2.Data.StartCondition, 
TestParameter, AutoAnalysis.Line1.GradientExpr, 0
TestParameter, AutoAnalysis.Line2.Enabled, false
TestParameter, AutoAnalysis.Line2.Type, 1
TestParameter, AutoAnalysis.Line2.Fix, True
TestParameter, AutoAnalysis.Line2.YAxis, 0
TestParameter, AutoAnalysis.Line2.Point1.Type, 0
TestParameter, AutoAnalysis.Line2.Point1.XY.X, 
TestParameter, AutoAnalysis.Line2.Point1.XY.Y, 
TestParameter, AutoAnalysis.Line2.Point1.Data.Var, 
TestParameter, AutoAnalysis.Line2.Point1.Data.Condition, 
TestParameter, AutoAnalysis.Line2.Point1.Data.Start, false
TestParameter, AutoAnalysis.Line2.Point1.Data.StartVar, 
TestParameter, AutoAnalysis.Line2.Point1.Data.StartCondition, 
TestParameter, AutoAnalysis.Line2.Point2.Type, 0
TestParameter, AutoAnalysis.Line2.Point2.XY.X, 
TestParameter, AutoAnalysis.Line2.Point2.XY.Y, 
TestParameter, AutoAnalysis.Line2.Point2.Data.Var, 
TestParameter, AutoAnalysis.Line2.Point2.Data.Condition, 
TestParameter, AutoAnalysis.Line2.Point2.Data.Start, false
TestParameter, AutoAnalysis.Line2.Point2.Data.StartVar, 
TestParameter, AutoAnalysis.Line2.Point2.Data.StartCondition, 
TestParameter, AutoAnalysis.Line2.GradientExpr, 0
TestParameter, AutoAnalysis.Marker.Enabled, false
TestParameter, AutoAnalysis.Marker.Data.Var, 
TestParameter, AutoAnalysis.Marker.Data.Condition, 
TestParameter, AutoAnalysis.Marker.Data.Start, false
TestParameter, AutoAnalysis.Marker.Data.StartVar, 
TestParameter, AutoAnalysis.Marker.Data.StartCondition, 
MetaData, TestRecord.EntryPoint, true
MetaData, TestRecord.RecordTime, 11/10/2017 11:03:36
MetaData, TestRecord.TestTarget, 10um_50um
MetaData, TestRecord.IterationIndex, 1
MetaData, TestRecord.Preservation, true
MetaData, TestRecord.Flag, 
MetaData, TestRecord.Remarks, 
MetaData, TestRecord.LinkKey, 13ea4fa3-1494-4f88-9272-7f801a1ae82c
Dimension1, 301, 301, 301, 301, 301
Dimension2, 3, 3, 3, 3, 3
DataName, Vgate, Vdrain, Igate, Idrain, gm
DataValue, -5, 0.1, -5.5000000000000008E-13, -1.1199999999999999E-14, -1.3520000000000049E-12
DataValue, -4.95, 0.1, 7E-14, -7.88E-14, -7.5000000000000276E-13
DataValue, -4.9, 0.1, -2.6E-13, -8.62E-14, 7.0000000000000257E-13
DataValue, -4.8500000000000005, 0.1, 2.0000000000000003E-14, -8.8E-15, -9.7999999999999418E-14
DataValue, -4.8, 0.1, 1.3E-13, -9.6E-14, -1.0579999999999943E-12
DataValue, -4.75, 0.1, -7E-14, -1.1459999999999999E-13, 1.0000000000000031E-13
DataValue, -4.7, 0.1, -2.2000000000000002E-13, -8.6E-14, 1.500000000000004E-13
DataValue, -4.65, 0.1, -3.3E-13, -9.96E-14, 6.0200000000000208E-13
DataValue, -4.6000000000000005, 0.1, 5.1E-13, -2.5799999999999998E-14, 5.2799999999999714E-13
DataValue, -4.55, 0.1, 1.0500000000000002E-12, -4.68E-14, -5.57999999999997E-13
DataValue, -4.5, 0.1, 1.0100000000000001E-12, -8.16E-14, -7.3800000000000251E-13
DataValue, -4.45, 0.1, 4.5000000000000005E-13, -1.2059999999999999E-13, -1.9800000000000072E-13
DataValue, -4.4, 0.1, -6.0000000000000009E-14, -1.014E-13, 5.98000000000002E-13
DataValue, -4.3500000000000005, 0.1, -4.0000000000000006E-14, -6.08E-14, 4.5199999999999767E-13
DataValue, -4.3, 0.1, -2E-13, -5.6199999999999997E-14, -5.6399999999999689E-13
DataValue, -4.25, 0.1, 4.8000000000000008E-13, -1.172E-13, -8.7400000000000294E-13
DataValue, -4.2, 0.1, -1.3E-13, -1.436E-13, 4.6800000000000164E-13
DataValue, -4.15, 0.1, -2.4000000000000004E-13, -7.04E-14, 2.5199999999999847E-13
DataValue, -4.1, 0.1, 1.4E-13, -1.184E-13, -5.6799999999999707E-13
DataValue, -4.05, 0.1, -9.0000000000000008E-14, -1.272E-13, 3.6600000000000132E-13
DataValue, -4, 0.1, -3.5E-13, -8.18E-14, 1.0120000000000036E-12
DataValue, -3.95, 0.1, 4.8000000000000008E-13, -2.6E-14, 5.9799999999999957E-13
DataValue, -3.9, 0.1, 5.8000000000000005E-13, -2.2E-14, -8.1999999999999923E-13
DataValue, -3.85, 0.1, 8.5000000000000011E-13, -1.08E-13, -8.64000000000003E-13
DataValue, -3.8000000000000003, 0.1, 2.0000000000000003E-14, -1.084E-13, 2.1799999999999973E-13
DataValue, -3.75, 0.1, 5.6E-13, -8.62E-14, 1.9799999999999984E-13
DataValue, -3.7, 0.1, 1.21E-12, -8.86E-14, 2.0999999999999981E-13
DataValue, -3.65, 0.1, 8.7E-13, -6.52E-14, -8.1999999999999933E-13
DataValue, -3.6, 0.1, 3.2000000000000005E-13, -1.706E-13, -4.2400000000000153E-13
DataValue, -3.5500000000000003, 0.1, -2E-13, -1.076E-13, 6.7799999999999943E-13
DataValue, -3.5, 0.1, -2.6E-13, -1.028E-13, 1.4399999999999994E-13
DataValue, -3.45, 0.1, -1.5000000000000002E-13, -9.32E-14, 1.939999999999998E-13
DataValue, -3.4, 0.1, 2.7E-13, -8.34E-14, -2.0000000000000022E-14
DataValue, -3.35, 0.1, -3.8000000000000005E-13, -9.52E-14, -2.3400000000000077E-13
DataValue, -3.3000000000000003, 0.1, -3.3E-13, -1.068E-13, 8.2199999999999932E-13
DataValue, -3.25, 0.1, 4.3000000000000004E-13, -1.3E-14, 6.9999999999999944E-13
DataValue, -3.2, 0.1, 9.4E-13, -3.68E-14, -5.0999999999999954E-13
DataValue, -3.15, 0.1, 1.26E-12, -6.4E-14, -1.129999999999999E-12
DataValue, -3.1, 0.1, 3.0000000000000003E-13, -1.498E-13, -7.3600000000000242E-13
DataValue, -3.0500000000000003, 0.1, -2.6E-13, -1.376E-13, 1.7599999999999981E-13
DataValue, -3, 0.1, -3.4E-13, -1.322E-13, 9.9999999999999738E-14
DataValue, -2.95, 0.1, -1.6000000000000003E-13, -1.276E-13, 7.4599999999999935E-13
DataValue, -2.9, 0.1, 4.0000000000000006E-14, -5.76E-14, 2.0599999999999991E-13
DataValue, -2.85, 0.1, -2.5E-13, -1.07E-13, -3.06000000000001E-13
DataValue, -2.8000000000000003, 0.1, -2.0000000000000003E-14, -8.8199999999999993E-14, -4.5599999999999957E-13
DataValue, -2.75, 0.1, -2.3000000000000003E-13, -1.526E-13, -2.0399999999999989E-13
DataValue, -2.7, 0.1, 5E-13, -1.086E-13, 3.7399999999999962E-13
DataValue, -2.65, 0.1, -3.5E-13, -1.152E-13, 3.079999999999998E-13
DataValue, -2.6, 0.1, -4.2000000000000003E-13, -7.78E-14, 9.0000000000000437E-14
DataValue, -2.5500000000000003, 0.1, 2.2000000000000002E-13, -1.0619999999999999E-13, -2.0199999999999987E-13
DataValue, -2.5, 0.1, 1.7E-13, -9.8E-14, 6.1799999999999949E-13
DataValue, -2.45, 0.1, -1E-13, -4.44E-14, 3.0999999999999969E-13
DataValue, -2.4, 0.1, -2.9000000000000003E-13, -6.7E-14, 2.8399999999999975E-13
DataValue, -2.35, 0.1, 3.8000000000000005E-13, -1.6E-14, -2.5200000000000084E-13
DataValue, -2.3000000000000003, 0.1, 1.14E-12, -9.22E-14, -1.0259999999999989E-12
DataValue, -2.25, 0.1, -8.0000000000000013E-14, -1.186E-13, 8.0199999999999931E-13
DataValue, -2.2, 0.1, 4.4000000000000004E-13, -1.2E-14, 8.2199999999999922E-13
DataValue, -2.15, 0.1, 1.51E-12, -3.64E-14, -5.6599999999999941E-13
DataValue, -2.1, 0.1, -5E-14, -6.8599999999999993E-14, -1.1459999999999988E-12
DataValue, -2.05, 0.1, 4.6000000000000006E-13, -1.51E-13, -9.1999999999999911E-13
DataValue, -2, 0.1, -1.2000000000000002E-13, -1.606E-13, 3.7200000000000033E-13
DataValue, -1.95, 0.1, -6.0000000000000009E-14, -1.138E-13, 1.4460000000000017E-12
DataValue, -1.9000000000000001, 0.1, 6.3E-13, -1.6E-14, -2.7000000000000021E-13
DataValue, -1.85, 0.1, 8E-13, -1.408E-13, -9.5599999999999916E-13
DataValue, -1.8, 0.1, -4.1E-13, -1.116E-13, -1.8000000000000009E-14
DataValue, -1.75, 0.1, 1.4E-13, -1.426E-13, 4.6799999999999962E-13
DataValue, -1.7, 0.1, 2E-13, -6.48E-14, 5.3400000000000065E-13
DataValue, -1.6500000000000001, 0.1, 9.6000000000000015E-13, -8.92E-14, 5.8000000000000056E-14
DataValue, -1.6, 0.1, 3.8000000000000005E-13, -5.9E-14, 6.0399999999999945E-13
DataValue, -1.55, 0.1, 7.6000000000000009E-13, -2.88E-14, -2.9999999999999973E-14
DataValue, -1.5, 0.1, 1.14E-12, -6.2E-14, -8.2199999999999922E-13
DataValue, -1.45, 0.1, 1.21E-12, -1.11E-13, -7.92000000000001E-13
DataValue, -1.4000000000000001, 0.1, 2.3000000000000003E-13, -1.412E-13, 7.0200000000000085E-13
DataValue, -1.35, 0.1, -1.1000000000000001E-13, -4.08E-14, 5.4799999999999938E-13
DataValue, -1.3, 0.1, 9.7000000000000011E-13, -8.64E-14, -9.0399999999999908E-13
DataValue, -1.25, 0.1, 4.1E-13, -1.3119999999999999E-13, -2.9599999999999955E-13
DataValue, -1.2, 0.1, -2.9000000000000003E-13, -1.1599999999999999E-13, 8.0200000000000092E-13
DataValue, -1.1500000000000001, 0.1, -2.2000000000000002E-13, -5.1E-14, -1.7600000000000044E-13
DataValue, -1.1, 0.1, 2.1000000000000001E-13, -1.336E-13, -7.799999999999994E-13
DataValue, -1.05, 0.1, 2.0000000000000003E-14, -1.29E-13, 2.9799999999999984E-13
DataValue, -1, 0.1, -3.0000000000000003E-13, -1.038E-13, 3.7600000000000022E-13
DataValue, -0.95000000000000007, 0.1, -2E-13, -9.14E-14, -5.0000000000000052E-14
DataValue, -0.9, 0.1, -1.1000000000000001E-13, -1.088E-13, -8.279999999999994E-13
DataValue, -0.85, 0.1, -8.0000000000000013E-14, -1.742E-13, 3.6800000000000015E-13
DataValue, -0.8, 0.1, -5.1E-13, -7.2E-14, 1.8920000000000004E-12
DataValue, -0.75, 0.1, 8.6000000000000007E-13, 1.5E-14, 7.6200000000000009E-13
DataValue, -0.70000000000000007, 0.1, 8.4000000000000006E-13, 4.2E-15, -9.1000000000000016E-13
DataValue, -0.65, 0.1, 1.31E-12, -7.6E-14, -1.5059999999999984E-12
DataValue, -0.6, 0.1, -9.0000000000000008E-14, -1.4639999999999999E-13, 8.0000000000000685E-15
DataValue, -0.55, 0.1, 9.0000000000000008E-14, -7.52E-14, 2.5540000000000006E-12
DataValue, -0.5, 0.1, -2.7E-13, 1.09E-13, 8.147999999999998E-12
DataValue, -0.45, 0.1, -4.5000000000000005E-13, 7.396E-13, 2.6802000000000005E-11
DataValue, -0.4, 0.1, 9.0000000000000008E-14, 2.7892E-12, 8.3148E-11
DataValue, -0.35000000000000003, 0.1, 8.6000000000000007E-13, 9.0543999999999991E-12, 2.5242599999999989E-10
DataValue, -0.3, 0.1, 3.0000000000000003E-13, 2.80318E-11, 6.7942599999999966E-10
DataValue, -0.25, 0.1, 8.9E-13, 7.6996999999999993E-11, 1.5837820000000003E-09
DataValue, -0.2, 0.1, 8.4000000000000006E-13, 1.8641E-10, 3.1147300000000009E-09
DataValue, -0.15, 0.1, 5.7E-13, 3.8847000000000006E-10, 5.1622000000000011E-09
DataValue, -0.1, 0.1, 1.3E-13, 7.0263000000000009E-10, 7.3645000000000012E-09
DataValue, -0.05, 0.1, -3.8000000000000005E-13, 1.12492E-09, 9.386699999999997E-09
DataValue, 0, 0.1, -2.9000000000000003E-13, 1.6413E-09, 1.0984799999999998E-08
DataValue, 0.05, 0.1, 1.13E-12, 2.2234E-09, 1.2123000000000002E-08
DataValue, 0.1, 0.1, 6.6E-13, 2.8536E-09, 1.3122000000000002E-08
DataValue, 0.15, 0.1, 9.0000000000000008E-14, 3.5356E-09, 1.4013999999999997E-08
DataValue, 0.2, 0.1, -3.1000000000000004E-13, 4.255E-09, 1.4726999999999997E-08
DataValue, 0.25, 0.1, 1E-13, 5.0083E-09, 1.5313000000000006E-08
DataValue, 0.3, 0.1, 7.5E-13, 5.7863E-09, 1.5900999999999995E-08
DataValue, 0.35000000000000003, 0.1, 1.04E-12, 6.5984E-09, 1.6611999999999994E-08
DataValue, 0.4, 0.1, 1.2800000000000002E-12, 7.4475E-09, 1.7237000000000011E-08
DataValue, 0.45, 0.1, 7.5E-13, 8.3221E-09, 1.7898000000000003E-08
DataValue, 0.5, 0.1, 1.8000000000000002E-13, 9.2373E-09, 1.8458999999999993E-08
DataValue, 0.55, 0.1, -4.2000000000000003E-13, 1.0168E-08, 1.9089000000000006E-08
DataValue, 0.6, 0.1, -3.0000000000000005E-14, 1.11462E-08, 1.9679999999999985E-08
DataValue, 0.65, 0.1, 5.9E-13, 1.2135999999999999E-08, 1.9723999999999962E-08
DataValue, 0.70000000000000007, 0.1, 2.6E-13, 1.3118599999999998E-08, 2.0825999999999997E-08
DataValue, 0.75, 0.1, 1.7E-13, 1.4218599999999998E-08, 2.1926000000000004E-08
DataValue, 0.8, 0.1, 1.9000000000000002E-13, 1.5311199999999998E-08, 2.2456000000000013E-08
DataValue, 0.85, 0.1, -5E-14, 1.64642E-08, 2.244800000000001E-08
DataValue, 0.9, 0.1, 3.0000000000000003E-13, 1.7556E-08, 2.3177999999999984E-08
DataValue, 0.95000000000000007, 0.1, 1E-13, 1.8782E-08, 2.4879999999999995E-08
DataValue, 1, 0.1, 3.0000000000000003E-13, 2.0043999999999997E-08, 2.5363999999999995E-08
DataValue, 1.05, 0.1, 5.4E-13, 2.1318399999999998E-08, 2.6265999999999969E-08
DataValue, 1.1, 0.1, 4.4000000000000004E-13, 2.2670599999999997E-08, 2.6997999999999978E-08
DataValue, 1.1500000000000001, 0.1, 5.5000000000000008E-13, 2.4018199999999998E-08, 2.6888000000000045E-08
DataValue, 1.2, 0.1, 7.4000000000000008E-13, 2.5359399999999997E-08, 2.7236000000000036E-08
DataValue, 1.25, 0.1, 2.8E-13, 2.6741799999999998E-08, 3.2269999999999971E-08
DataValue, 1.3, 0.1, 4.6000000000000006E-13, 2.8586399999999997E-08, 2.9371999999999967E-08
DataValue, 1.35, 0.1, 4.4000000000000004E-13, 2.9678999999999997E-08, 2.4073999999999961E-08
DataValue, 1.4000000000000001, 0.1, 8.300000000000001E-13, 3.0993799999999995E-08, 3.190800000000005E-08
DataValue, 1.45, 0.1, 1.04E-12, 3.28698E-08, 3.3530000000000083E-08
DataValue, 1.5, 0.1, 9.9E-13, 3.43468E-08, 2.9269999999999944E-08
DataValue, 1.55, 0.1, 5.7E-13, 3.5796799999999995E-08, 3.2317999999999919E-08
DataValue, 1.6, 0.1, 6.0000000000000007E-13, 3.7578599999999993E-08, 4.3035999999999976E-08
DataValue, 1.6500000000000001, 0.1, 1.12E-12, 4.01004E-08, 4.1252000000000084E-08
DataValue, 1.7, 0.1, 9.9E-13, 4.1703799999999997E-08, 3.333200000000003E-08
DataValue, 1.75, 0.1, 8.1000000000000008E-13, 4.3433599999999995E-08, 3.2541999999999988E-08
DataValue, 1.8, 0.1, 1.23E-12, 4.4958E-08, 3.4607999999999995E-08
DataValue, 1.85, 0.1, 1.3800000000000002E-12, 4.68944E-08, 3.9851999999999932E-08
DataValue, 1.9000000000000001, 0.1, 8.8000000000000009E-13, 4.8943199999999995E-08, 4.3784000000000023E-08
DataValue, 1.95, 0.1, 1.18E-12, 5.1272799999999994E-08, 4.9320000000000074E-08
DataValue, 2, 0.1, 1.6300000000000001E-12, 5.3875199999999995E-08, 4.5270000000000041E-08
DataValue, 2.05, 0.1, 1.17E-12, 5.5799799999999993E-08, 4.3365999999999953E-08
DataValue, 2.1, 0.1, 1.08E-12, 5.8211799999999995E-08, 4.288799999999998E-08
DataValue, 2.15, 0.1, 1.2000000000000001E-12, 6.00886E-08, 4.37639999999999E-08
DataValue, 2.2, 0.1, 1.3500000000000001E-12, 6.2588199999999989E-08, 5.0089999999999974E-08
DataValue, 2.25, 0.1, 1.0600000000000001E-12, 6.50976E-08, 5.9125999999999943E-08
DataValue, 2.3000000000000003, 0.1, 1.08E-12, 6.8500799999999988E-08, 5.3185999999999964E-08
DataValue, 2.35, 0.1, 1.3500000000000001E-12, 7.04162E-08, 3.788800000000024E-08
DataValue, 2.4, 0.1, 1.27E-12, 7.22896E-08, 4.942399999999996E-08
DataValue, 2.45, 0.1, 1.12E-12, 7.53586E-08, 6.0287999999999911E-08
DataValue, 2.5, 0.1, 1.12E-12, 7.83184E-08, 5.6001999999999895E-08
DataValue, 2.5500000000000003, 0.1, 1.41E-12, 8.0958799999999993E-08, 5.4033999999999893E-08
DataValue, 2.6, 0.1, 9.6000000000000015E-13, 8.3721799999999989E-08, 4.9824000000000109E-08
DataValue, 2.65, 0.1, 9.6000000000000015E-13, 8.5941199999999986E-08, 5.3566E-08
DataValue, 2.7, 0.1, 9.1000000000000016E-13, 8.90784E-08, 5.6573999999999988E-08
DataValue, 2.75, 0.1, 1.37E-12, 9.159859999999999E-08, 5.1151999999999961E-08
DataValue, 2.8000000000000003, 0.1, 1.18E-12, 9.41936E-08, 4.3811999999999982E-08
DataValue, 2.85, 0.1, 1.0500000000000002E-12, 9.5979799999999992E-08, 3.9504000000000146E-08
DataValue, 2.9, 0.1, 9.2000000000000012E-13, 9.8144E-08, 3.3509999999999987E-08
DataValue, 2.95, 0.1, 1.31E-12, 9.93308E-08, 3.46759999999999E-08
DataValue, 3, 0.1, 8.2E-13, 1.0161159999999999E-07, 2.345399999999992E-08
DataValue, 3.0500000000000003, 0.1, 8.9E-13, 1.0167619999999999E-07, 2.6075999999999952E-08
DataValue, 3.1, 0.1, 8.8000000000000009E-13, 1.0421919999999999E-07, 4.1640000000000113E-08
DataValue, 3.15, 0.1, 1.1000000000000002E-12, 1.0584019999999998E-07, 3.1294000000000068E-08
DataValue, 3.2, 0.1, 7.8000000000000011E-13, 1.073486E-07, 3.6840000000000051E-08
DataValue, 3.25, 0.1, 7E-13, 1.0952419999999999E-07, 4.5095999999999929E-08
DataValue, 3.3000000000000003, 0.1, 7.100000000000001E-13, 1.1185819999999999E-07, 4.7558000000000048E-08
DataValue, 3.35, 0.1, 9.0000000000000008E-14, 1.1428E-07, 4.8018000000000252E-08
DataValue, 3.4, 0.1, -4.1E-13, 1.1666E-07, 5.5599999999999869E-08
DataValue, 3.45, 0.1, 5.3000000000000006E-13, 1.1984E-07, 7.7999999999999838E-08
