
SetupTitle, TFT Id-Vg
PrimitiveTest, I/V Sweep
TestParameter, Context.MainFrame, B1500A
TestParameter, Channel.UnitType, SMU, SMU, SMU
TestParameter, Channel.Unit, SMU4:HR, SMU1:HP, SMU3:HR
TestParameter, Channel.IName, Isource, Igate, Idrain
TestParameter, Channel.VName, Vsource, Vgate, Vdrain
TestParameter, Channel.Mode, V, V, V
TestParameter, Channel.Func, CONST, VAR1, VAR2
TestParameter, Channel.Index, 
TestParameter, Channel.Time, 
TestParameter, Measurement.Port.Unit, SMU4:HR, SMU1:HP, SMU3:HR
TestParameter, Measurement.Port.SeriesResistor, NONE, NONE, NONE
TestParameter, Measurement.Port.Filter, ON, ON, ON
TestParameter, Measurement.Port.OutputVoltageComparison, 0, 0, 0
TestParameter, Measurement.Primary.Locus, Single
TestParameter, Measurement.Primary.Scale, LINEAR
TestParameter, Measurement.Primary.Start, -5
TestParameter, Measurement.Primary.Stop, 10
TestParameter, Measurement.Primary.Step, 0.05
TestParameter, Measurement.Primary.Compliance, 0.01
TestParameter, Measurement.Primary.PowerCompliance, 0
TestParameter, Measurement.Aborting.Condition, CONTINUE AT ANY
TestParameter, Measurement.PostOutput.Value, START
TestParameter, Measurement.PostOutput.Retention, OFF
TestParameter, Measurement.Secondary.Start, 0.1
TestParameter, Measurement.Secondary.Count, 3
TestParameter, Measurement.Secondary.Step, 0.4
TestParameter, Measurement.Secondary.Compliance, 0.0001
TestParameter, Measurement.Secondary.PowerCompliance, 0
TestParameter, Measurement.Bias.Source, 0, -5, 0.1
TestParameter, Measurement.Bias.Compliance, 0.1, 0.01, 0.0001
TestParameter, Measurement.Monitor.Unit, SMU4:HR, SMU1:HP, SMU3:HR
TestParameter, Measurement.Monitor.Adc, HR ADC, HR ADC, HR ADC
TestParameter, Measurement.Monitor.Measurement, Compliance Side, Compliance Side, Compliance Side
TestParameter, Measurement.Monitor.RangingMode, LIMITED, LIMITED, LIMITED
TestParameter, Measurement.Monitor.RangeBoundary, 1nA, 1nA, 100pA
TestParameter, Measurement.Monitor.RangeRating, BY FULL RANGE, BY FULL RANGE, BY FULL RANGE
TestParameter, Measurement.Monitor.RangeRatingCoeff, 50, 50, 50
TestParameter, Measurement.Timing.Hold, 0
TestParameter, Measurement.Timing.Delay, 0
TestParameter, Measurement.Adc.HighSpeed.Mode, AUTO
TestParameter, Measurement.Adc.HighSpeed.Coeff, 1
TestParameter, Measurement.Adc.HighResolution.AutoZero, OFF
TestParameter, Measurement.Adc.HighResolution.Mode, AUTO
TestParameter, Measurement.Adc.HighResolution.Coeff, 6
TestParameter, Measurement.WaitTime.Source.Coeff, 1
TestParameter, Measurement.WaitTime.Source.Offset, 0
TestParameter, Measurement.WaitTime.Monitor.Coeff, 1
TestParameter, Measurement.WaitTime.Monitor.Offset, 0
TestParameter, Function.User.Name, gm
TestParameter, Function.User.Unit, S
TestParameter, Function.User.Definition, diff(Idrain, Vgate)
TestParameter, Output.Graph.Enabled, true
TestParameter, Output.Graph.XAxis.Data, Vgate
TestParameter, Output.Graph.XAxis.Scale, Linear
TestParameter, Output.Graph.XAxis.Left, -2
TestParameter, Output.Graph.XAxis.Right, 15
TestParameter, Output.Graph.YAxis.Data, Idrain, gm, Idrain
TestParameter, Output.Graph.YAxis.Scale, Log, Linear, Linear
TestParameter, Output.Graph.YAxis.Bottom, 0, 0, -0.0001
TestParameter, Output.Graph.YAxis.Top, 0.001, 1, 0.0001
TestParameter, Output.Graph.YAxis.Group, , , 
TestParameter, Output.List.Data, Vgate, Vdrain, Igate, Idrain, gm
TestParameter, AutoAnalysis.Interpolation, false
TestParameter, AutoAnalysis.Line1.Enabled, false
TestParameter, AutoAnalysis.Line1.Type, 1
TestParameter, AutoAnalysis.Line1.Fix, True
TestParameter, AutoAnalysis.Line1.YAxis, 0
TestParameter, AutoAnalysis.Line1.Point1.Type, 0
TestParameter, AutoAnalysis.Line1.Point1.XY.X, 
TestParameter, AutoAnalysis.Line1.Point1.XY.Y, 
TestParameter, AutoAnalysis.Line1.Point1.Data.Var, 
TestParameter, AutoAnalysis.Line1.Point1.Data.Condition, 
TestParameter, AutoAnalysis.Line1.Point1.Data.Start, false
TestParameter, AutoAnalysis.Line1.Point1.Data.StartVar, 
TestParameter, AutoAnalysis.Line1.Point1.Data.StartCondition, 
TestParameter, AutoAnalysis.Line1.Point2.Type, 0
TestParameter, AutoAnalysis.Line1.Point2.XY.X, 
TestParameter, AutoAnalysis.Line1.Point2.XY.Y, 
TestParameter, AutoAnalysis.Line1.Point2.Data.Var, 
TestParameter, AutoAnalysis.Line1.Point2.Data.Condition, 
TestParameter, AutoAnalysis.Line1.Point2.Data.Start, false
TestParameter, AutoAnalysis.Line1.Point2.Data.StartVar, 
TestParameter, AutoAnalysis.Line1.Point2.Data.StartCondition, 
TestParameter, AutoAnalysis.Line1.GradientExpr, 0
TestParameter, AutoAnalysis.Line2.Enabled, false
TestParameter, AutoAnalysis.Line2.Type, 1
TestParameter, AutoAnalysis.Line2.Fix, True
TestParameter, AutoAnalysis.Line2.YAxis, 0
TestParameter, AutoAnalysis.Line2.Point1.Type, 0
TestParameter, AutoAnalysis.Line2.Point1.XY.X, 
TestParameter, AutoAnalysis.Line2.Point1.XY.Y, 
TestParameter, AutoAnalysis.Line2.Point1.Data.Var, 
TestParameter, AutoAnalysis.Line2.Point1.Data.Condition, 
TestParameter, AutoAnalysis.Line2.Point1.Data.Start, false
TestParameter, AutoAnalysis.Line2.Point1.Data.StartVar, 
TestParameter, AutoAnalysis.Line2.Point1.Data.StartCondition, 
TestParameter, AutoAnalysis.Line2.Point2.Type, 0
TestParameter, AutoAnalysis.Line2.Point2.XY.X, 
TestParameter, AutoAnalysis.Line2.Point2.XY.Y, 
TestParameter, AutoAnalysis.Line2.Point2.Data.Var, 
TestParameter, AutoAnalysis.Line2.Point2.Data.Condition, 
TestParameter, AutoAnalysis.Line2.Point2.Data.Start, false
TestParameter, AutoAnalysis.Line2.Point2.Data.StartVar, 
TestParameter, AutoAnalysis.Line2.Point2.Data.StartCondition, 
TestParameter, AutoAnalysis.Line2.GradientExpr, 0
TestParameter, AutoAnalysis.Marker.Enabled, false
TestParameter, AutoAnalysis.Marker.Data.Var, 
TestParameter, AutoAnalysis.Marker.Data.Condition, 
TestParameter, AutoAnalysis.Marker.Data.Start, false
TestParameter, AutoAnalysis.Marker.Data.StartVar, 
TestParameter, AutoAnalysis.Marker.Data.StartCondition, 
MetaData, TestRecord.EntryPoint, true
MetaData, TestRecord.RecordTime, 11/10/2017 10:37:20
MetaData, TestRecord.TestTarget, 100um_25um
MetaData, TestRecord.IterationIndex, 2
MetaData, TestRecord.Preservation, true
MetaData, TestRecord.Flag, 
MetaData, TestRecord.Remarks, 
MetaData, TestRecord.LinkKey, 0857febb-4013-42b8-a805-b1f6e3a09812
Dimension1, 301, 301, 301, 301, 301
Dimension2, 3, 3, 3, 3, 3
DataName, Vgate, Vdrain, Igate, Idrain, gm
DataValue, -5, 0.1, -1.9000000000000002E-13, -1.06E-14, -2.5680000000000088E-12
DataValue, -4.95, 0.1, 1.8000000000000002E-13, -1.39E-13, -1.1180000000000039E-12
DataValue, -4.9, 0.1, -4.0000000000000006E-14, -1.224E-13, 4.9400000000000173E-13
DataValue, -4.8500000000000005, 0.1, -5.4E-13, -8.9599999999999992E-14, 1.8799999999999892E-13
DataValue, -4.8, 0.1, 8.0000000000000013E-14, -1.036E-13, -8.3199999999999575E-13
DataValue, -4.75, 0.1, 4.0000000000000006E-14, -1.728E-13, 4.8000000000000193E-14
DataValue, -4.7, 0.1, -1.7E-13, -9.8799999999999993E-14, 9.320000000000035E-13
DataValue, -4.65, 0.1, -5.6E-13, -7.96E-14, 9.5200000000000321E-13
DataValue, -4.6000000000000005, 0.1, 4.0000000000000006E-14, -3.6E-15, -5.9399999999999676E-13
DataValue, -4.55, 0.1, 3.9000000000000005E-13, -1.39E-13, -1.3279999999999929E-12
DataValue, -4.5, 0.1, -4.2000000000000003E-13, -1.364E-13, -2.6800000000000093E-13
DataValue, -4.45, 0.1, -3.4E-13, -1.6579999999999999E-13, -1.7200000000000053E-13
DataValue, -4.4, 0.1, 3.4E-13, -1.536E-13, 2.6600000000000079E-13
DataValue, -4.3500000000000005, 0.1, -3.6000000000000003E-13, -1.392E-13, 6.799999999999964E-13
DataValue, -4.3, 0.1, -2E-13, -8.56E-14, 1.8199999999999917E-13
DataValue, -4.25, 0.1, 1.9000000000000002E-13, -1.21E-13, -9.1800000000000336E-13
DataValue, -4.2, 0.1, 2.8E-13, -1.774E-13, -1.2800000000000052E-13
DataValue, -4.15, 0.1, -1.7E-13, -1.338E-13, 9.29999999999995E-13
DataValue, -4.1, 0.1, -2.8E-13, -8.44E-14, -3.8799999999999789E-13
DataValue, -4.05, 0.1, 2.1000000000000001E-13, -1.726E-13, -5.740000000000019E-13
DataValue, -4, 0.1, 2.0000000000000003E-14, -1.4179999999999999E-13, 2.4600000000000077E-13
DataValue, -3.95, 0.1, -3.8000000000000005E-13, -1.48E-13, -7.4199999999999936E-13
DataValue, -3.9, 0.1, 2.0000000000000003E-14, -2.16E-13, -4.3199999999999967E-13
DataValue, -3.85, 0.1, 4.0000000000000006E-14, -1.912E-13, 4.0600000000000145E-13
DataValue, -3.8000000000000003, 0.1, -6.400000000000001E-13, -1.754E-13, 6.4999999999999945E-13
DataValue, -3.75, 0.1, -1.5000000000000002E-13, -1.262E-13, 1.0739999999999989E-12
DataValue, -3.7, 0.1, 1.1000000000000001E-13, -6.8E-14, -7.8999999999999926E-13
DataValue, -3.65, 0.1, 1.08E-12, -2.052E-13, -8.5399999999999929E-13
DataValue, -3.6, 0.1, -2.4000000000000004E-13, -1.534E-13, 6.0800000000000216E-13
DataValue, -3.5500000000000003, 0.1, -5E-14, -1.444E-13, -5.7999999999999925E-13
DataValue, -3.5, 0.1, -7E-14, -2.114E-13, 1.0199999999999988E-13
DataValue, -3.45, 0.1, -3.9000000000000005E-13, -1.342E-13, 1.2119999999999987E-12
DataValue, -3.4, 0.1, -1E-13, -9.02E-14, -5.8999999999999951E-13
DataValue, -3.35, 0.1, 2.3000000000000003E-13, -1.932E-13, -5.3000000000000178E-13
DataValue, -3.3000000000000003, 0.1, 5E-14, -1.4319999999999999E-13, 7.5799999999999919E-13
DataValue, -3.25, 0.1, -4.9E-13, -1.174E-13, 3.3599999999999963E-13
DataValue, -3.2, 0.1, -3.0000000000000003E-13, -1.096E-13, -6.4199999999999938E-13
DataValue, -3.15, 0.1, 3.2000000000000005E-13, -1.816E-13, -6.9999999999999934E-13
DataValue, -3.1, 0.1, -3.1000000000000004E-13, -1.7959999999999999E-13, 6.6400000000000232E-13
DataValue, -3.0500000000000003, 0.1, 2.1000000000000001E-13, -1.152E-13, -3.4000000000000126E-14
DataValue, -3, 0.1, 5.6E-13, -1.83E-13, -4.8399999999999955E-13
DataValue, -2.95, 0.1, 2.7E-13, -1.636E-13, 2.4999999999999974E-13
DataValue, -2.9, 0.1, -1.7E-13, -1.58E-13, -7.3999999999999924E-14
DataValue, -2.85, 0.1, -3.9000000000000005E-13, -1.71E-13, -1.0400000000000023E-13
DataValue, -2.8000000000000003, 0.1, 6.1E-13, -1.684E-13, -2.4999999999999974E-13
DataValue, -2.75, 0.1, -2.5E-13, -1.96E-13, 1.6799999999999974E-13
DataValue, -2.7, 0.1, -3.9000000000000005E-13, -1.516E-13, 9.999999999999999E-14
DataValue, -2.65, 0.1, -9.0000000000000008E-14, -1.86E-13, 1.9799999999999984E-13
DataValue, -2.6, 0.1, 6.0000000000000009E-14, -1.318E-13, 1.2600000000000037E-13
DataValue, -2.5500000000000003, 0.1, -7.8000000000000011E-13, -1.734E-13, -3.0999999999999969E-13
DataValue, -2.5, 0.1, 9.4E-13, -1.628E-13, -1.4199999999999993E-13
DataValue, -2.45, 0.1, 7E-14, -1.876E-13, 1.7199999999999977E-13
DataValue, -2.4, 0.1, -1.2000000000000002E-13, -1.456E-13, 1.077999999999999E-12
DataValue, -2.35, 0.1, 1.0000000000000002E-14, -7.98E-14, -1.9000000000000063E-13
DataValue, -2.3000000000000003, 0.1, -1E-13, -1.646E-13, -1.2459999999999989E-12
DataValue, -2.25, 0.1, 4.0000000000000006E-14, -2.044E-13, 2.1399999999999995E-13
DataValue, -2.2, 0.1, -4E-13, -1.4319999999999999E-13, 1.4879999999999985E-12
DataValue, -2.15, 0.1, -8.0000000000000013E-14, -5.56E-14, 6.1999999999999938E-13
DataValue, -2.1, 0.1, 4.0000000000000006E-14, -8.12E-14, -9.5999999999999914E-13
DataValue, -2.05, 0.1, 8.6000000000000007E-13, -1.516E-13, -4.499999999999997E-13
DataValue, -2, 0.1, -4.3000000000000004E-13, -1.262E-13, -2.7800000000000028E-13
DataValue, -1.95, 0.1, 3.0000000000000005E-14, -1.794E-13, -7.7400000000000084E-13
DataValue, -1.9000000000000001, 0.1, 1.5000000000000002E-13, -2.0359999999999999E-13, 4.400000000000005E-13
DataValue, -1.85, 0.1, -2.2000000000000002E-13, -1.354E-13, 9.63999999999999E-13
DataValue, -1.8, 0.1, 3.0000000000000003E-13, -1.072E-13, -2.2199999999999976E-13
DataValue, -1.75, 0.1, 3.9000000000000005E-13, -1.576E-13, -5.899999999999994E-13
DataValue, -1.7, 0.1, -6.0000000000000009E-14, -1.662E-13, 2.5000000000000055E-13
DataValue, -1.6500000000000001, 0.1, -1.7E-13, -1.3259999999999999E-13, 2.1999999999999834E-14
DataValue, -1.6, 0.1, 2.3000000000000003E-13, -1.64E-13, -7.9599999999999933E-13
DataValue, -1.55, 0.1, 3.0000000000000003E-13, -2.122E-13, -1.7599999999999981E-13
DataValue, -1.5, 0.1, -2.3000000000000003E-13, -1.816E-13, 5.2199999999999949E-13
DataValue, -1.45, 0.1, -9.0000000000000008E-14, -1.6E-13, 6.0000000000001843E-15
DataValue, -1.4000000000000001, 0.1, 4.7E-13, -1.8099999999999999E-13, 1.4000000000000009E-13
DataValue, -1.35, 0.1, -5.7E-13, -1.46E-13, 9.1799999999999912E-13
DataValue, -1.3, 0.1, -3.0000000000000003E-13, -8.92E-14, -4.2999999999999953E-13
DataValue, -1.25, 0.1, 0, -1.89E-13, -7.9599999999999923E-13
DataValue, -1.2, 0.1, 1.5000000000000002E-13, -1.688E-13, 6.76000000000001E-13
DataValue, -1.1500000000000001, 0.1, -2.6E-13, -1.214E-13, 6.3800000000000092E-13
DataValue, -1.1, 0.1, -4.0000000000000006E-14, -1.05E-13, -4.5599999999999957E-13
DataValue, -1.05, 0.1, 1.7E-13, -1.67E-13, -5.0599999999999946E-13
DataValue, -1, 0.1, -7E-14, -1.556E-13, 9.0400000000000019E-13
DataValue, -0.95000000000000007, 0.1, -2.5E-13, -7.66E-14, 9.82E-13
DataValue, -0.9, 0.1, -1E-13, -5.74E-14, -3.9799999999999957E-13
DataValue, -0.85, 0.1, 4.8000000000000008E-13, -1.164E-13, 2.2620000000000003E-12
DataValue, -0.8, 0.1, -4.6000000000000006E-13, 1.688E-13, 1.1282000000000003E-11
DataValue, -0.75, 0.1, 2.0000000000000003E-14, 1.0118E-12, 4.1764000000000008E-11
DataValue, -0.70000000000000007, 0.1, 3.6000000000000003E-13, 4.3452E-12, 1.6033200000000005E-10
DataValue, -0.65, 0.1, 5.7E-13, 1.7045E-11, 5.6623599999999955E-10
DataValue, -0.6, 0.1, 8.2E-13, 6.09688E-11, 1.8005500000000008E-09
DataValue, -0.55, 0.1, 1.1000000000000001E-13, 1.9710000000000002E-10, 4.9264120000000012E-09
DataValue, -0.5, 0.1, 6.400000000000001E-13, 5.5361E-10, 1.1091999999999994E-08
DataValue, -0.45, 0.1, -1.8000000000000002E-13, 1.3063E-09, 2.0381900000000005E-08
DataValue, -0.4, 0.1, 1.3400000000000002E-12, 2.5918E-09, 3.0784000000000013E-08
DataValue, -0.35000000000000003, 0.1, 1.5E-12, 4.3847E-09, 3.9650999999999989E-08
DataValue, -0.3, 0.1, 1.2000000000000001E-12, 6.5569E-09, 4.5940999999999974E-08
DataValue, -0.25, 0.1, 3.1000000000000004E-13, 8.9788E-09, 5.0312999999999995E-08
DataValue, -0.2, 0.1, -7E-14, 1.1588199999999999E-08, 5.3675999999999984E-08
DataValue, -0.15, 0.1, 1.2800000000000002E-12, 1.4346399999999998E-08, 5.6350000000000005E-08
DataValue, -0.1, 0.1, 1.64E-12, 1.72232E-08, 5.8862E-08
DataValue, -0.05, 0.1, 1.7600000000000002E-12, 2.0232599999999998E-08, 6.1083999999999993E-08
DataValue, 0, 0.1, 1.31E-12, 2.3331599999999998E-08, 6.3033999999999981E-08
DataValue, 0.05, 0.1, 1.3000000000000001E-12, 2.6535999999999997E-08, 6.4731999999999987E-08
DataValue, 0.1, 0.1, 1.83E-12, 2.98048E-08, 6.6286000000000015E-08
DataValue, 0.15, 0.1, 1.3400000000000002E-12, 3.31646E-08, 6.8942E-08
DataValue, 0.2, 0.1, 1.21E-12, 3.6698999999999997E-08, 7.0541999999999958E-08
DataValue, 0.25, 0.1, 1.4800000000000002E-12, 4.0218799999999994E-08, 7.1474000000000009E-08
DataValue, 0.3, 0.1, 1.2800000000000002E-12, 4.3846399999999996E-08, 7.3264000000000013E-08
DataValue, 0.35000000000000003, 0.1, 1.08E-12, 4.75452E-08, 7.461199999999998E-08
DataValue, 0.4, 0.1, 1.17E-12, 5.13076E-08, 7.6018000000000013E-08
DataValue, 0.45, 0.1, 1.17E-12, 5.5147E-08, 7.782200000000002E-08
DataValue, 0.5, 0.1, 1.18E-12, 5.90898E-08, 7.9941999999999936E-08
DataValue, 0.55, 0.1, 9.1000000000000016E-13, 6.31412E-08, 8.1384E-08
DataValue, 0.6, 0.1, 7E-13, 6.72282E-08, 8.2332000000000039E-08
DataValue, 0.65, 0.1, 1.02E-12, 7.13744E-08, 8.3989999999999867E-08
DataValue, 0.70000000000000007, 0.1, 8.4000000000000006E-13, 7.562719999999999E-08, 8.717599999999992E-08
DataValue, 0.75, 0.1, 6.6E-13, 8.0091999999999987E-08, 8.8874000000000019E-08
DataValue, 0.8, 0.1, 9.8E-13, 8.4514599999999991E-08, 8.9100000000000063E-08
DataValue, 0.85, 0.1, 9.8E-13, 8.9001999999999992E-08, 9.1131999999999972E-08
DataValue, 0.9, 0.1, 1.0500000000000002E-12, 9.3627799999999986E-08, 9.3225999999999938E-08
DataValue, 0.95000000000000007, 0.1, 5.2E-13, 9.83246E-08, 9.5122000000000129E-08
DataValue, 1, 0.1, 8.9E-13, 1.0314E-07, 9.709199999999998E-08
DataValue, 1.05, 0.1, 3.8000000000000005E-13, 1.0803379999999999E-07, 9.8245999999999793E-08
DataValue, 1.1, 0.1, 4.3000000000000004E-13, 1.1296459999999998E-07, 9.9662E-08
DataValue, 1.1500000000000001, 0.1, 3.9000000000000005E-13, 1.18E-07, 1.0175400000000032E-07
DataValue, 1.2, 0.1, 1.3800000000000002E-12, 1.2314E-07, 1.0420000000000023E-07
DataValue, 1.25, 0.1, 1.4900000000000001E-12, 1.2842E-07, 1.0539999999999978E-07
DataValue, 1.3, 0.1, 2.6E-13, 1.3368E-07, 1.0759999999999989E-07
DataValue, 1.35, 0.1, -3.9000000000000005E-13, 1.3918E-07, 1.0899999999999989E-07
DataValue, 1.4000000000000001, 0.1, 2.9000000000000003E-13, 1.4458E-07, 1.1020000000000017E-07
DataValue, 1.45, 0.1, 1.2800000000000002E-12, 1.502E-07, 1.1200000000000035E-07
DataValue, 1.5, 0.1, 1.04E-12, 1.5578E-07, 1.1259999999999972E-07
DataValue, 1.55, 0.1, -2.0000000000000003E-14, 1.6146E-07, 1.1399999999999972E-07
DataValue, 1.6, 0.1, -2.5E-13, 1.6718E-07, 1.1539999999999999E-07
DataValue, 1.6500000000000001, 0.1, 7E-13, 1.73E-07, 1.1560000000000022E-07
DataValue, 1.7, 0.1, 1.3400000000000002E-12, 1.7874E-07, 1.1660000000000003E-07
DataValue, 1.75, 0.1, 9.6000000000000015E-13, 1.8466E-07, 1.177999999999998E-07
DataValue, 1.8, 0.1, 2.9000000000000003E-13, 1.9052E-07, 1.1839999999999995E-07
DataValue, 1.85, 0.1, -2.9000000000000003E-13, 1.965E-07, 1.2060000000000006E-07
DataValue, 1.9000000000000001, 0.1, 4.3000000000000004E-13, 2.0258E-07, 1.2080000000000029E-07
DataValue, 1.95, 0.1, 1.2500000000000001E-12, 2.0858E-07, 1.2020000000000014E-07
DataValue, 2, 0.1, 1.18E-12, 2.146E-07, 1.2020000000000014E-07
DataValue, 2.05, 0.1, 3.0000000000000003E-13, 2.206E-07, 1.205999999999998E-07
DataValue, 2.1, 0.1, -1.7E-13, 2.2666E-07, 1.2119999999999968E-07
DataValue, 2.15, 0.1, 1.14E-12, 2.3271999999999998E-07, 1.2200000000000006E-07
DataValue, 2.2, 0.1, 1.4700000000000002E-12, 2.3886E-07, 1.2179999999999983E-07
DataValue, 2.25, 0.1, 8.4000000000000006E-13, 2.449E-07, 1.2119999999999968E-07
DataValue, 2.3000000000000003, 0.1, -5E-14, 2.5098E-07, 1.2160000000000014E-07
DataValue, 2.35, 0.1, -3.7000000000000004E-13, 2.5706E-07, 1.2180000000000036E-07
DataValue, 2.4, 0.1, 7E-13, 2.6316E-07, 1.2279999999999991E-07
DataValue, 2.45, 0.1, 1.2500000000000001E-12, 2.6934E-07, 1.2260000000000021E-07
DataValue, 2.5, 0.1, 9.2000000000000012E-13, 2.7542E-07, 1.2179999999999983E-07
DataValue, 2.5500000000000003, 0.1, -1.5000000000000002E-13, 2.8152E-07, 1.2199999999999953E-07
DataValue, 2.6, 0.1, 2.0000000000000003E-14, 2.8762E-07, 1.2200000000000059E-07
DataValue, 2.65, 0.1, 1.13E-12, 2.9372E-07, 1.2200000000000006E-07
DataValue, 2.7, 0.1, 1.5400000000000001E-12, 2.9982E-07, 1.2199999999999953E-07
DataValue, 2.75, 0.1, 5.3000000000000006E-13, 3.0592E-07, 1.2200000000000006E-07
DataValue, 2.8000000000000003, 0.1, -7E-14, 3.1202E-07, 1.2200000000000006E-07
DataValue, 2.85, 0.1, -1.7E-13, 3.1812E-07, 1.2180000000000036E-07
DataValue, 2.9, 0.1, 6.8E-13, 3.242E-07, 1.2179999999999983E-07
DataValue, 2.95, 0.1, 1.5300000000000001E-12, 3.303E-07, 1.2219999999999976E-07
DataValue, 3, 0.1, 6.3E-13, 3.3642E-07, 1.2239999999999998E-07
DataValue, 3.0500000000000003, 0.1, 1.1000000000000001E-13, 3.4254E-07, 1.2219999999999976E-07
DataValue, 3.1, 0.1, 2.5E-13, 3.4864E-07, 1.2080000000000029E-07
DataValue, 3.15, 0.1, 1.1000000000000002E-12, 3.5462E-07, 1.2120000000000021E-07
DataValue, 3.2, 0.1, 1.2900000000000002E-12, 3.6076E-07, 1.2260000000000021E-07
DataValue, 3.25, 0.1, 7.5E-13, 3.6688E-07, 1.2199999999999953E-07
DataValue, 3.3000000000000003, 0.1, 2.0000000000000003E-14, 3.7295999999999997E-07, 1.2279999999999991E-07
DataValue, 3.35, 0.1, -2.4000000000000004E-13, 3.7916E-07, 1.2100000000000051E-07
DataValue, 3.4, 0.1, 7.7000000000000005E-13, 3.8506E-07, 1.2119999999999968E-07
DataValue, 3.45, 0.1, 1.36E-12, 3.9128E-07, 1.2260000000000021E-07
DataValue, 3.5, 0.1, 8.300000000000001E-13, 3.9732E-07, 1.2200000000000006E-07
DataValue, 3.5500000000000003, 0.1, -7E-14, 4.0348E-07, 1.2139999999999991E-07
