
SetupTitle, TFT Id-Vd
PrimitiveTest, I/V Sweep
TestParameter, Context.MainFrame, B1500A
TestParameter, Channel.UnitType, SMU, SMU, SMU
TestParameter, Channel.Unit, SMU4:HR, SMU1:HP, SMU3:HR
TestParameter, Channel.IName, Isource, Igate, Idrain
TestParameter, Channel.VName, Vsource, Vgate, Vdrain
TestParameter, Channel.Mode, V, V, V
TestParameter, Channel.Func, CONST, VAR2, VAR1
TestParameter, Channel.Index, 
TestParameter, Channel.Time, 
TestParameter, Measurement.Port.Unit, SMU4:HR, SMU1:HP, SMU3:HR
TestParameter, Measurement.Port.SeriesResistor, NONE, NONE, NONE
TestParameter, Measurement.Port.Filter, ON, ON, ON
TestParameter, Measurement.Port.OutputVoltageComparison, 0, 0, 0
TestParameter, Measurement.Primary.Locus, Single
TestParameter, Measurement.Primary.Scale, LINEAR
TestParameter, Measurement.Primary.Start, 0
TestParameter, Measurement.Primary.Stop, 15
TestParameter, Measurement.Primary.Step, 0.05
TestParameter, Measurement.Primary.Compliance, 0.01
TestParameter, Measurement.Primary.PowerCompliance, 0
TestParameter, Measurement.Aborting.Condition, CONTINUE AT ANY
TestParameter, Measurement.PostOutput.Value, START
TestParameter, Measurement.PostOutput.Retention, OFF
TestParameter, Measurement.Secondary.Start, 0
TestParameter, Measurement.Secondary.Count, 6
TestParameter, Measurement.Secondary.Step, 2
TestParameter, Measurement.Secondary.Compliance, 0.0001
TestParameter, Measurement.Secondary.PowerCompliance, 0
TestParameter, Measurement.Bias.Source, 0, 0, 0
TestParameter, Measurement.Bias.Compliance, 0.1, 0.0001, 0.01
TestParameter, Measurement.Monitor.Unit, SMU4:HR, SMU1:HP, SMU3:HR
TestParameter, Measurement.Monitor.Adc, HR ADC, HR ADC, HR ADC
TestParameter, Measurement.Monitor.Measurement, Compliance Side, Compliance Side, Compliance Side
TestParameter, Measurement.Monitor.RangingMode, LIMITED, LIMITED, LIMITED
TestParameter, Measurement.Monitor.RangeBoundary, 1nA, 1nA, 1nA
TestParameter, Measurement.Monitor.RangeRating, BY FULL RANGE, BY FULL RANGE, BY FULL RANGE
TestParameter, Measurement.Monitor.RangeRatingCoeff, 50, 50, 50
TestParameter, Measurement.Timing.Hold, 0
TestParameter, Measurement.Timing.Delay, 0
TestParameter, Measurement.Adc.HighSpeed.Mode, AUTO
TestParameter, Measurement.Adc.HighSpeed.Coeff, 1
TestParameter, Measurement.Adc.HighResolution.AutoZero, OFF
TestParameter, Measurement.Adc.HighResolution.Mode, AUTO
TestParameter, Measurement.Adc.HighResolution.Coeff, 6
TestParameter, Measurement.WaitTime.Source.Coeff, 1
TestParameter, Measurement.WaitTime.Source.Offset, 0
TestParameter, Measurement.WaitTime.Monitor.Coeff, 1
TestParameter, Measurement.WaitTime.Monitor.Offset, 0
TestParameter, Output.Graph.Enabled, true
TestParameter, Output.Graph.XAxis.Data, Vdrain
TestParameter, Output.Graph.XAxis.Scale, Linear
TestParameter, Output.Graph.XAxis.Left, 0
TestParameter, Output.Graph.XAxis.Right, 10
TestParameter, Output.Graph.YAxis.Data, Idrain
TestParameter, Output.Graph.YAxis.Scale, Linear
TestParameter, Output.Graph.YAxis.Bottom, 0
TestParameter, Output.Graph.YAxis.Top, 0.1
TestParameter, Output.Graph.YAxis.Group, 
TestParameter, Output.List.Data, Vgate, Vdrain, Vsource, Igate, Idrain, Isource
TestParameter, AutoAnalysis.Interpolation, false
TestParameter, AutoAnalysis.Line1.Enabled, false
TestParameter, AutoAnalysis.Line1.Type, 1
TestParameter, AutoAnalysis.Line1.Fix, True
TestParameter, AutoAnalysis.Line1.YAxis, 0
TestParameter, AutoAnalysis.Line1.Point1.Type, 0
TestParameter, AutoAnalysis.Line1.Point1.XY.X, 
TestParameter, AutoAnalysis.Line1.Point1.XY.Y, 
TestParameter, AutoAnalysis.Line1.Point1.Data.Var, 
TestParameter, AutoAnalysis.Line1.Point1.Data.Condition, 
TestParameter, AutoAnalysis.Line1.Point1.Data.Start, false
TestParameter, AutoAnalysis.Line1.Point1.Data.StartVar, 
TestParameter, AutoAnalysis.Line1.Point1.Data.StartCondition, 
TestParameter, AutoAnalysis.Line1.Point2.Type, 0
TestParameter, AutoAnalysis.Line1.Point2.XY.X, 
TestParameter, AutoAnalysis.Line1.Point2.XY.Y, 
TestParameter, AutoAnalysis.Line1.Point2.Data.Var, 
TestParameter, AutoAnalysis.Line1.Point2.Data.Condition, 
TestParameter, AutoAnalysis.Line1.Point2.Data.Start, false
TestParameter, AutoAnalysis.Line1.Point2.Data.StartVar, 
TestParameter, AutoAnalysis.Line1.Point2.Data.StartCondition, 
TestParameter, AutoAnalysis.Line1.GradientExpr, 0
TestParameter, AutoAnalysis.Line2.Enabled, false
TestParameter, AutoAnalysis.Line2.Type, 1
TestParameter, AutoAnalysis.Line2.Fix, True
TestParameter, AutoAnalysis.Line2.YAxis, 0
TestParameter, AutoAnalysis.Line2.Point1.Type, 0
TestParameter, AutoAnalysis.Line2.Point1.XY.X, 
TestParameter, AutoAnalysis.Line2.Point1.XY.Y, 
TestParameter, AutoAnalysis.Line2.Point1.Data.Var, 
TestParameter, AutoAnalysis.Line2.Point1.Data.Condition, 
TestParameter, AutoAnalysis.Line2.Point1.Data.Start, false
TestParameter, AutoAnalysis.Line2.Point1.Data.StartVar, 
TestParameter, AutoAnalysis.Line2.Point1.Data.StartCondition, 
TestParameter, AutoAnalysis.Line2.Point2.Type, 0
TestParameter, AutoAnalysis.Line2.Point2.XY.X, 
TestParameter, AutoAnalysis.Line2.Point2.XY.Y, 
TestParameter, AutoAnalysis.Line2.Point2.Data.Var, 
TestParameter, AutoAnalysis.Line2.Point2.Data.Condition, 
TestParameter, AutoAnalysis.Line2.Point2.Data.Start, false
TestParameter, AutoAnalysis.Line2.Point2.Data.StartVar, 
TestParameter, AutoAnalysis.Line2.Point2.Data.StartCondition, 
TestParameter, AutoAnalysis.Line2.GradientExpr, 0
TestParameter, AutoAnalysis.Marker.Enabled, false
TestParameter, AutoAnalysis.Marker.Data.Var, 
TestParameter, AutoAnalysis.Marker.Data.Condition, 
TestParameter, AutoAnalysis.Marker.Data.Start, false
TestParameter, AutoAnalysis.Marker.Data.StartVar, 
TestParameter, AutoAnalysis.Marker.Data.StartCondition, 
MetaData, TestRecord.EntryPoint, true
MetaData, TestRecord.RecordTime, 11/10/2017 10:39:00
MetaData, TestRecord.TestTarget, 100um_25um
MetaData, TestRecord.IterationIndex, 2
MetaData, TestRecord.Preservation, true
MetaData, TestRecord.Flag, 
MetaData, TestRecord.Remarks, 
MetaData, TestRecord.LinkKey, 452b6225-a77e-4f0e-bdc2-281bddfe7f70
Dimension1, 301, 301, 301, 301, 301, 301
Dimension2, 6, 6, 6, 6, 6, 6
DataName, Vdrain, Vgate, Vsource, Isource, Igate, Idrain
DataValue, 0, 0, 0, -7.756E-11, 1.04E-12, 7.7710000000000009E-11
DataValue, 0.05, 0, 0, -1.2307999999999998E-08, 5E-13, 1.2300999999999999E-08
DataValue, 0.1, 0, 0, -2.19532E-08, -3.0000000000000003E-13, 2.1939899999999998E-08
DataValue, 0.15, 0, 0, -2.8997999999999996E-08, 1.0000000000000002E-14, 2.8979299999999997E-08
DataValue, 0.2, 0, 0, -3.39346E-08, 1.3E-13, 3.3907399999999996E-08
DataValue, 0.25, 0, 0, -3.72188E-08, 1.12E-12, 3.72103E-08
DataValue, 0.3, 0, 0, -3.94484E-08, 9.1000000000000016E-13, 3.9389599999999996E-08
DataValue, 0.35000000000000003, 0, 0, -4.0806599999999994E-08, 1.6000000000000003E-13, 4.07991E-08
DataValue, 0.4, 0, 0, -4.1704399999999996E-08, -3.5E-13, 4.16611E-08
DataValue, 0.45, 0, 0, -4.22024E-08, -4.0000000000000006E-14, 4.21827E-08
DataValue, 0.5, 0, 0, -4.2494599999999996E-08, 1.4E-12, 4.24845E-08
DataValue, 0.55, 0, 0, -4.2681799999999994E-08, 9.2000000000000012E-13, 4.26717E-08
DataValue, 0.6, 0, 0, -4.27842E-08, 7.3E-13, 4.27827E-08
DataValue, 0.65, 0, 0, -4.2856199999999994E-08, -2.8E-13, 4.2833699999999995E-08
DataValue, 0.70000000000000007, 0, 0, -4.28942E-08, -1.9000000000000002E-13, 4.28766E-08
DataValue, 0.75, 0, 0, -4.3015799999999995E-08, 7.5E-13, 4.29675E-08
DataValue, 0.8, 0, 0, -4.2998799999999996E-08, 9.5E-13, 4.2949299999999993E-08
DataValue, 0.85, 0, 0, -4.2984599999999996E-08, 9.8E-13, 4.30216E-08
DataValue, 0.9, 0, 0, -4.30326E-08, -2.2000000000000002E-13, 4.2986899999999994E-08
DataValue, 0.95000000000000007, 0, 0, -4.2992999999999993E-08, -4.0000000000000006E-14, 4.3005499999999994E-08
DataValue, 1, 0, 0, -4.3038399999999993E-08, 4.8000000000000008E-13, 4.3026899999999993E-08
DataValue, 1.05, 0, 0, -4.3047999999999996E-08, 1.09E-12, 4.3039799999999996E-08
DataValue, 1.1, 0, 0, -4.3107599999999996E-08, 9.1000000000000016E-13, 4.3102099999999997E-08
DataValue, 1.1500000000000001, 0, 0, -4.3113799999999994E-08, 3.5E-13, 4.31047E-08
DataValue, 1.2, 0, 0, -4.31518E-08, -5E-13, 4.31337E-08
DataValue, 1.25, 0, 0, -4.31298E-08, -4E-13, 4.3075499999999994E-08
DataValue, 1.3, 0, 0, -4.3138399999999994E-08, 9.1000000000000016E-13, 4.3116599999999993E-08
DataValue, 1.35, 0, 0, -4.3157599999999993E-08, 1.46E-12, 4.3145999999999995E-08
DataValue, 1.4000000000000001, 0, 0, -4.3159799999999993E-08, 1.1100000000000001E-12, 4.3166299999999994E-08
DataValue, 1.45, 0, 0, -4.3209599999999993E-08, -2.3000000000000003E-13, 4.3207099999999997E-08
DataValue, 1.5, 0, 0, -4.32184E-08, -4.4000000000000004E-13, 4.3190399999999993E-08
DataValue, 1.55, 0, 0, -4.3284799999999996E-08, 5.8000000000000005E-13, 4.32611E-08
DataValue, 1.6, 0, 0, -4.32524E-08, 1.2000000000000001E-12, 4.32611E-08
DataValue, 1.6500000000000001, 0, 0, -4.3249999999999994E-08, 7E-13, 4.3230799999999994E-08
DataValue, 1.7, 0, 0, -4.32944E-08, -5E-14, 4.32929E-08
DataValue, 1.75, 0, 0, -4.3313399999999994E-08, -4.0000000000000006E-14, 4.3315399999999996E-08
DataValue, 1.8, 0, 0, -4.33366E-08, 8E-13, 4.3306399999999993E-08
DataValue, 1.85, 0, 0, -4.3347399999999993E-08, 1.21E-12, 4.3356699999999993E-08
DataValue, 1.9000000000000001, 0, 0, -4.33716E-08, 1.17E-12, 4.3360299999999996E-08
DataValue, 1.95, 0, 0, -4.3322799999999993E-08, 4E-13, 4.3362399999999997E-08
DataValue, 2, 0, 0, -4.3395999999999994E-08, 5E-14, 4.33711E-08
DataValue, 2.05, 0, 0, -4.3378999999999994E-08, 4E-13, 4.3403099999999994E-08
DataValue, 2.1, 0, 0, -4.3388E-08, 1.1000000000000002E-12, 4.3370799999999994E-08
DataValue, 2.15, 0, 0, -4.34744E-08, 1.2000000000000001E-12, 4.3470299999999995E-08
DataValue, 2.2, 0, 0, -4.35122E-08, 9.7000000000000011E-13, 4.34619E-08
DataValue, 2.25, 0, 0, -4.34574E-08, -2.8E-13, 4.3430899999999995E-08
DataValue, 2.3000000000000003, 0, 0, -4.34514E-08, -2.7E-13, 4.34771E-08
DataValue, 2.35, 0, 0, -4.3490999999999996E-08, 9.0000000000000008E-14, 4.3435799999999995E-08
DataValue, 2.4, 0, 0, -4.34738E-08, 1.36E-12, 4.3470899999999994E-08
DataValue, 2.45, 0, 0, -4.35296E-08, 1.08E-12, 4.3521199999999994E-08
DataValue, 2.5, 0, 0, -4.35876E-08, 1.8000000000000002E-13, 4.3547799999999996E-08
DataValue, 2.5500000000000003, 0, 0, -4.3580799999999994E-08, -2.9000000000000003E-13, 4.3580099999999996E-08
DataValue, 2.6, 0, 0, -4.3628E-08, 2.9000000000000003E-13, 4.3630399999999996E-08
DataValue, 2.65, 0, 0, -4.3674799999999995E-08, 1.2400000000000002E-12, 4.3691E-08
DataValue, 2.7, 0, 0, -4.3645E-08, 1.1000000000000002E-12, 4.3704299999999995E-08
DataValue, 2.75, 0, 0, -4.3696199999999994E-08, 6.8E-13, 4.37161E-08
DataValue, 2.8000000000000003, 0, 0, -4.37304E-08, -7E-14, 4.3713599999999995E-08
DataValue, 2.85, 0, 0, -4.3754799999999993E-08, -1E-13, 4.3787399999999995E-08
DataValue, 2.9, 0, 0, -4.3768399999999994E-08, 3.9000000000000005E-13, 4.3757899999999995E-08
DataValue, 2.95, 0, 0, -4.3753599999999994E-08, 1.3300000000000002E-12, 4.3757999999999994E-08
DataValue, 3, 0, 0, -4.3785399999999993E-08, 1.12E-12, 4.3734299999999996E-08
DataValue, 3.0500000000000003, 0, 0, -4.3805399999999996E-08, 8.0000000000000013E-14, 4.3756999999999993E-08
DataValue, 3.1, 0, 0, -4.3792999999999994E-08, -4.3000000000000004E-13, 4.3761799999999994E-08
DataValue, 3.15, 0, 0, -4.3750799999999995E-08, 4.6000000000000006E-13, 4.3754599999999995E-08
DataValue, 3.2, 0, 0, -4.3774E-08, 1.4800000000000002E-12, 4.37927E-08
DataValue, 3.25, 0, 0, -4.3791399999999993E-08, 7.7000000000000005E-13, 4.3794699999999993E-08
DataValue, 3.3000000000000003, 0, 0, -4.3819599999999996E-08, -4.0000000000000006E-14, 4.3809499999999993E-08
DataValue, 3.35, 0, 0, -4.3896399999999993E-08, 0, 4.3868499999999993E-08
DataValue, 3.4, 0, 0, -4.3867E-08, 3.8000000000000005E-13, 4.3858699999999993E-08
DataValue, 3.45, 0, 0, -4.3959599999999996E-08, 1.4400000000000001E-12, 4.3926399999999994E-08
DataValue, 3.5, 0, 0, -4.3954399999999993E-08, 1.02E-12, 4.39179E-08
DataValue, 3.5500000000000003, 0, 0, -4.3945599999999994E-08, 2.8E-13, 4.3944999999999994E-08
DataValue, 3.6, 0, 0, -4.3973799999999996E-08, -2.7E-13, 4.3922999999999996E-08
DataValue, 3.65, 0, 0, -4.3942799999999994E-08, 1.6000000000000003E-13, 4.3944999999999994E-08
DataValue, 3.7, 0, 0, -4.3977399999999992E-08, 1.1100000000000001E-12, 4.39748E-08
DataValue, 3.75, 0, 0, -4.4003599999999993E-08, 1.17E-12, 4.39907E-08
DataValue, 3.8000000000000003, 0, 0, -4.4000799999999994E-08, 8.6000000000000007E-13, 4.4018899999999993E-08
DataValue, 3.85, 0, 0, -4.40644E-08, -5.2E-13, 4.40474E-08
DataValue, 3.9, 0, 0, -4.4099799999999994E-08, -1.6000000000000003E-13, 4.4074999999999996E-08
DataValue, 3.95, 0, 0, -4.4132999999999996E-08, 4.4000000000000004E-13, 4.41137E-08
DataValue, 4, 0, 0, -4.4111E-08, 1.55E-12, 4.4118299999999995E-08
DataValue, 4.05, 0, 0, -4.4146799999999994E-08, 9.000000000000001E-13, 4.4170799999999995E-08
DataValue, 4.1, 0, 0, -4.41754E-08, 5.7E-13, 4.41772E-08
DataValue, 4.15, 0, 0, -4.41776E-08, -3.3E-13, 4.4193699999999996E-08
DataValue, 4.2, 0, 0, -4.41602E-08, -1.0000000000000002E-14, 4.41777E-08
DataValue, 4.25, 0, 0, -4.4194199999999996E-08, 1.04E-12, 4.41864E-08
DataValue, 4.3, 0, 0, -4.4188199999999996E-08, 1.18E-12, 4.4186199999999994E-08
DataValue, 4.3500000000000005, 0, 0, -4.42142E-08, 5.2E-13, 4.4199899999999993E-08
DataValue, 4.4, 0, 0, -4.42492E-08, -2.3000000000000003E-13, 4.4263699999999996E-08
DataValue, 4.45, 0, 0, -4.42608E-08, -2.5E-13, 4.4292899999999993E-08
DataValue, 4.5, 0, 0, -4.4344199999999994E-08, 2.6E-13, 4.4327599999999997E-08
DataValue, 4.55, 0, 0, -4.4381999999999993E-08, 1.12E-12, 4.43116E-08
DataValue, 4.6000000000000005, 0, 0, -4.43264E-08, 1.0100000000000001E-12, 4.43099E-08
DataValue, 4.65, 0, 0, -4.4360399999999997E-08, 4.4000000000000004E-13, 4.43575E-08
DataValue, 4.7, 0, 0, -4.43844E-08, -4.1E-13, 4.4368299999999994E-08
DataValue, 4.75, 0, 0, -4.43996E-08, 2.0000000000000003E-14, 4.4374099999999996E-08
DataValue, 4.8, 0, 0, -4.4352E-08, 7E-13, 4.4356099999999996E-08
DataValue, 4.8500000000000005, 0, 0, -4.4368799999999994E-08, 1.4800000000000002E-12, 4.4336499999999995E-08
DataValue, 4.9, 0, 0, -4.4413599999999995E-08, 7.9000000000000007E-13, 4.44051E-08
DataValue, 4.95, 0, 0, -4.4407599999999995E-08, -1.0000000000000002E-14, 4.4408699999999995E-08
DataValue, 5, 0, 0, -4.4460599999999995E-08, -5.4E-13, 4.44309E-08
DataValue, 5.05, 0, 0, -4.4468199999999996E-08, 6.0000000000000007E-13, 4.44784E-08
DataValue, 5.1000000000000005, 0, 0, -4.4478799999999993E-08, 1.1900000000000002E-12, 4.44435E-08
DataValue, 5.15, 0, 0, -4.44652E-08, 1.36E-12, 4.4519299999999993E-08
DataValue, 5.2, 0, 0, -4.4607E-08, 4.1E-13, 4.4543199999999995E-08
DataValue, 5.25, 0, 0, -4.4570599999999994E-08, -5.4E-13, 4.4520099999999996E-08
DataValue, 5.3, 0, 0, -4.4493399999999995E-08, -7E-14, 4.4500499999999995E-08
DataValue, 5.3500000000000005, 0, 0, -4.4552399999999996E-08, 8.4000000000000006E-13, 4.4587399999999996E-08
DataValue, 5.4, 0, 0, -4.4505999999999995E-08, 1.6200000000000002E-12, 4.4494399999999996E-08
DataValue, 5.45, 0, 0, -4.4579799999999995E-08, 6.8E-13, 4.4535599999999994E-08
DataValue, 5.5, 0, 0, -4.4602E-08, 1E-13, 4.4620399999999994E-08
DataValue, 5.55, 0, 0, -4.4633999999999995E-08, -1.5000000000000002E-13, 4.46819E-08
DataValue, 5.6000000000000005, 0, 0, -4.47114E-08, 6.9000000000000009E-13, 4.46748E-08
DataValue, 5.65, 0, 0, -4.4734199999999993E-08, 1.09E-12, 4.4690199999999996E-08
DataValue, 5.7, 0, 0, -4.47442E-08, 6.5000000000000006E-13, 4.46704E-08
DataValue, 5.75, 0, 0, -4.46978E-08, 1.3E-13, 4.46906E-08
DataValue, 5.8, 0, 0, -4.4778999999999994E-08, -2.9000000000000003E-13, 4.47693E-08
DataValue, 5.8500000000000005, 0, 0, -4.4778399999999994E-08, 2E-13, 4.4700599999999996E-08
DataValue, 5.9, 0, 0, -4.47322E-08, 1.07E-12, 4.4725E-08
DataValue, 5.95, 0, 0, -4.47634E-08, 1.2800000000000002E-12, 4.47442E-08
DataValue, 6, 0, 0, -4.4837799999999997E-08, 7.7000000000000005E-13, 4.4828599999999996E-08
DataValue, 6.05, 0, 0, -4.48372E-08, -1.2000000000000002E-13, 4.4802599999999993E-08
DataValue, 6.1000000000000005, 0, 0, -4.4841E-08, -1.9000000000000002E-13, 4.4823099999999996E-08
DataValue, 6.15, 0, 0, -4.4841E-08, 6.400000000000001E-13, 4.4826399999999996E-08
DataValue, 6.2, 0, 0, -4.4904199999999994E-08, 1.37E-12, 4.4876299999999994E-08
DataValue, 6.25, 0, 0, -4.4930799999999996E-08, 5.5000000000000008E-13, 4.4915999999999997E-08
DataValue, 6.3, 0, 0, -4.4919999999999995E-08, 1.5000000000000002E-13, 4.4924799999999996E-08
DataValue, 6.3500000000000005, 0, 0, -4.4958999999999993E-08, -2E-13, 4.4920699999999993E-08
DataValue, 6.4, 0, 0, -4.4915599999999995E-08, 3.5E-13, 4.49466E-08
DataValue, 6.45, 0, 0, -4.4961399999999997E-08, 1.12E-12, 4.4956199999999993E-08
DataValue, 6.5, 0, 0, -4.4967599999999994E-08, 1.4300000000000002E-12, 4.49443E-08
DataValue, 6.55, 0, 0, -4.5000999999999994E-08, 3.0000000000000005E-14, 4.4939299999999993E-08
DataValue, 6.6000000000000005, 0, 0, -4.4977599999999992E-08, -3.1000000000000004E-13, 4.497E-08
DataValue, 6.65, 0, 0, -4.5030999999999995E-08, 3.8000000000000005E-13, 4.5017E-08
DataValue, 6.7, 0, 0, -4.5062599999999996E-08, 7.9000000000000007E-13, 4.5026799999999993E-08
DataValue, 6.75, 0, 0, -4.5060599999999994E-08, 1.26E-12, 4.5052499999999993E-08
DataValue, 6.8, 0, 0, -4.51346E-08, 7E-13, 4.50925E-08
DataValue, 6.8500000000000005, 0, 0, -4.5158599999999993E-08, 2.5E-13, 4.5107999999999996E-08
DataValue, 6.9, 0, 0, -4.5122199999999996E-08, -9.0000000000000008E-14, 4.5133899999999994E-08
DataValue, 6.95, 0, 0, -4.51532E-08, 5.4E-13, 4.5166799999999993E-08
DataValue, 7, 0, 0, -4.5186199999999996E-08, 1.31E-12, 4.51177E-08
DataValue, 7.05, 0, 0, -4.5168199999999995E-08, 5.7E-13, 4.5180899999999994E-08
DataValue, 7.1000000000000005, 0, 0, -4.5216999999999994E-08, 1.7E-13, 4.5202599999999996E-08
DataValue, 7.15, 0, 0, -4.5224199999999993E-08, -8.0000000000000013E-14, 4.5201799999999993E-08
DataValue, 7.2, 0, 0, -4.52626E-08, 4.8000000000000008E-13, 4.52456E-08
DataValue, 7.25, 0, 0, -4.5255E-08, 1.21E-12, 4.5253599999999994E-08
DataValue, 7.3, 0, 0, -4.52966E-08, 8.7E-13, 4.5279899999999994E-08
DataValue, 7.3500000000000005, 0, 0, -4.5282599999999994E-08, 4.0000000000000006E-14, 4.5319199999999995E-08
DataValue, 7.4, 0, 0, -4.53512E-08, -2E-13, 4.53441E-08
DataValue, 7.45, 0, 0, -4.5363999999999995E-08, 1.8000000000000002E-13, 4.5362899999999995E-08
DataValue, 7.5, 0, 0, -4.53894E-08, 1.08E-12, 4.5422599999999994E-08
DataValue, 7.55, 0, 0, -4.54326E-08, 1.23E-12, 4.5420399999999994E-08
DataValue, 7.6000000000000005, 0, 0, -4.5469999999999996E-08, 3.9000000000000005E-13, 4.5454E-08
DataValue, 7.65, 0, 0, -4.5484999999999993E-08, -3.3E-13, 4.54475E-08
DataValue, 7.7, 0, 0, -4.5421399999999995E-08, -1.2000000000000002E-13, 4.5441699999999995E-08
DataValue, 7.75, 0, 0, -4.5455799999999996E-08, 6.2000000000000008E-13, 4.54852E-08
DataValue, 7.8, 0, 0, -4.54846E-08, 1.51E-12, 4.54951E-08
DataValue, 7.8500000000000005, 0, 0, -4.5476599999999996E-08, 5.2E-13, 4.5455399999999994E-08
DataValue, 7.9, 0, 0, -4.5528599999999995E-08, -9.0000000000000008E-14, 4.54961E-08
DataValue, 7.95, 0, 0, -4.5511599999999996E-08, 2.6E-13, 4.5523899999999992E-08
DataValue, 8, 0, 0, -4.5595799999999996E-08, 8.9E-13, 4.55825E-08
DataValue, 8.05, 0, 0, -4.5615599999999995E-08, 1.41E-12, 4.5594899999999994E-08
DataValue, 8.1, 0, 0, -4.56054E-08, 4.4000000000000004E-13, 4.5610599999999996E-08
DataValue, 8.15, 0, 0, -4.5648799999999996E-08, -5.4E-13, 4.5608899999999996E-08
DataValue, 8.2, 0, 0, -4.5689999999999994E-08, 1.7E-13, 4.56717E-08
DataValue, 8.25, 0, 0, -4.56564E-08, 7.5E-13, 4.5661699999999993E-08
DataValue, 8.3, 0, 0, -4.56612E-08, 1.23E-12, 4.5661599999999994E-08
DataValue, 8.35, 0, 0, -4.5682999999999993E-08, 9.4E-13, 4.5618E-08
DataValue, 8.4, 0, 0, -4.5636399999999994E-08, -2.9000000000000003E-13, 4.5651699999999994E-08
