
SetupTitle, TFT Id-Vd
PrimitiveTest, I/V Sweep
TestParameter, Context.MainFrame, B1500A
TestParameter, Channel.UnitType, SMU, SMU, SMU
TestParameter, Channel.Unit, SMU4:HR, SMU1:HP, SMU3:HR
TestParameter, Channel.IName, Isource, Igate, Idrain
TestParameter, Channel.VName, Vsource, Vgate, Vdrain
TestParameter, Channel.Mode, V, V, V
TestParameter, Channel.Func, CONST, VAR2, VAR1
TestParameter, Channel.Index, 
TestParameter, Channel.Time, 
TestParameter, Measurement.Port.Unit, SMU4:HR, SMU1:HP, SMU3:HR
TestParameter, Measurement.Port.SeriesResistor, NONE, NONE, NONE
TestParameter, Measurement.Port.Filter, ON, ON, ON
TestParameter, Measurement.Port.OutputVoltageComparison, 0, 0, 0
TestParameter, Measurement.Primary.Locus, Single
TestParameter, Measurement.Primary.Scale, LINEAR
TestParameter, Measurement.Primary.Start, 0
TestParameter, Measurement.Primary.Stop, 15
TestParameter, Measurement.Primary.Step, 0.05
TestParameter, Measurement.Primary.Compliance, 0.01
TestParameter, Measurement.Primary.PowerCompliance, 0
TestParameter, Measurement.Aborting.Condition, CONTINUE AT ANY
TestParameter, Measurement.PostOutput.Value, START
TestParameter, Measurement.PostOutput.Retention, OFF
TestParameter, Measurement.Secondary.Start, 0
TestParameter, Measurement.Secondary.Count, 6
TestParameter, Measurement.Secondary.Step, 2
TestParameter, Measurement.Secondary.Compliance, 0.0001
TestParameter, Measurement.Secondary.PowerCompliance, 0
TestParameter, Measurement.Bias.Source, 0, 0, 0
TestParameter, Measurement.Bias.Compliance, 0.1, 0.0001, 0.01
TestParameter, Measurement.Monitor.Unit, SMU4:HR, SMU1:HP, SMU3:HR
TestParameter, Measurement.Monitor.Adc, HR ADC, HR ADC, HR ADC
TestParameter, Measurement.Monitor.Measurement, Compliance Side, Compliance Side, Compliance Side
TestParameter, Measurement.Monitor.RangingMode, LIMITED, LIMITED, LIMITED
TestParameter, Measurement.Monitor.RangeBoundary, 1nA, 1nA, 1nA
TestParameter, Measurement.Monitor.RangeRating, BY FULL RANGE, BY FULL RANGE, BY FULL RANGE
TestParameter, Measurement.Monitor.RangeRatingCoeff, 50, 50, 50
TestParameter, Measurement.Timing.Hold, 0
TestParameter, Measurement.Timing.Delay, 0
TestParameter, Measurement.Adc.HighSpeed.Mode, AUTO
TestParameter, Measurement.Adc.HighSpeed.Coeff, 1
TestParameter, Measurement.Adc.HighResolution.AutoZero, OFF
TestParameter, Measurement.Adc.HighResolution.Mode, AUTO
TestParameter, Measurement.Adc.HighResolution.Coeff, 6
TestParameter, Measurement.WaitTime.Source.Coeff, 1
TestParameter, Measurement.WaitTime.Source.Offset, 0
TestParameter, Measurement.WaitTime.Monitor.Coeff, 1
TestParameter, Measurement.WaitTime.Monitor.Offset, 0
TestParameter, Output.Graph.Enabled, true
TestParameter, Output.Graph.XAxis.Data, Vdrain
TestParameter, Output.Graph.XAxis.Scale, Linear
TestParameter, Output.Graph.XAxis.Left, 0
TestParameter, Output.Graph.XAxis.Right, 10
TestParameter, Output.Graph.YAxis.Data, Idrain
TestParameter, Output.Graph.YAxis.Scale, Linear
TestParameter, Output.Graph.YAxis.Bottom, 0
TestParameter, Output.Graph.YAxis.Top, 0.1
TestParameter, Output.Graph.YAxis.Group, 
TestParameter, Output.List.Data, Vgate, Vdrain, Vsource, Igate, Idrain, Isource
TestParameter, AutoAnalysis.Interpolation, false
TestParameter, AutoAnalysis.Line1.Enabled, false
TestParameter, AutoAnalysis.Line1.Type, 1
TestParameter, AutoAnalysis.Line1.Fix, True
TestParameter, AutoAnalysis.Line1.YAxis, 0
TestParameter, AutoAnalysis.Line1.Point1.Type, 0
TestParameter, AutoAnalysis.Line1.Point1.XY.X, 
TestParameter, AutoAnalysis.Line1.Point1.XY.Y, 
TestParameter, AutoAnalysis.Line1.Point1.Data.Var, 
TestParameter, AutoAnalysis.Line1.Point1.Data.Condition, 
TestParameter, AutoAnalysis.Line1.Point1.Data.Start, false
TestParameter, AutoAnalysis.Line1.Point1.Data.StartVar, 
TestParameter, AutoAnalysis.Line1.Point1.Data.StartCondition, 
TestParameter, AutoAnalysis.Line1.Point2.Type, 0
TestParameter, AutoAnalysis.Line1.Point2.XY.X, 
TestParameter, AutoAnalysis.Line1.Point2.XY.Y, 
TestParameter, AutoAnalysis.Line1.Point2.Data.Var, 
TestParameter, AutoAnalysis.Line1.Point2.Data.Condition, 
TestParameter, AutoAnalysis.Line1.Point2.Data.Start, false
TestParameter, AutoAnalysis.Line1.Point2.Data.StartVar, 
TestParameter, AutoAnalysis.Line1.Point2.Data.StartCondition, 
TestParameter, AutoAnalysis.Line1.GradientExpr, 0
TestParameter, AutoAnalysis.Line2.Enabled, false
TestParameter, AutoAnalysis.Line2.Type, 1
TestParameter, AutoAnalysis.Line2.Fix, True
TestParameter, AutoAnalysis.Line2.YAxis, 0
TestParameter, AutoAnalysis.Line2.Point1.Type, 0
TestParameter, AutoAnalysis.Line2.Point1.XY.X, 
TestParameter, AutoAnalysis.Line2.Point1.XY.Y, 
TestParameter, AutoAnalysis.Line2.Point1.Data.Var, 
TestParameter, AutoAnalysis.Line2.Point1.Data.Condition, 
TestParameter, AutoAnalysis.Line2.Point1.Data.Start, false
TestParameter, AutoAnalysis.Line2.Point1.Data.StartVar, 
TestParameter, AutoAnalysis.Line2.Point1.Data.StartCondition, 
TestParameter, AutoAnalysis.Line2.Point2.Type, 0
TestParameter, AutoAnalysis.Line2.Point2.XY.X, 
TestParameter, AutoAnalysis.Line2.Point2.XY.Y, 
TestParameter, AutoAnalysis.Line2.Point2.Data.Var, 
TestParameter, AutoAnalysis.Line2.Point2.Data.Condition, 
TestParameter, AutoAnalysis.Line2.Point2.Data.Start, false
TestParameter, AutoAnalysis.Line2.Point2.Data.StartVar, 
TestParameter, AutoAnalysis.Line2.Point2.Data.StartCondition, 
TestParameter, AutoAnalysis.Line2.GradientExpr, 0
TestParameter, AutoAnalysis.Marker.Enabled, false
TestParameter, AutoAnalysis.Marker.Data.Var, 
TestParameter, AutoAnalysis.Marker.Data.Condition, 
TestParameter, AutoAnalysis.Marker.Data.Start, false
TestParameter, AutoAnalysis.Marker.Data.StartVar, 
TestParameter, AutoAnalysis.Marker.Data.StartCondition, 
MetaData, TestRecord.EntryPoint, true
MetaData, TestRecord.RecordTime, 11/10/2017 10:56:11
MetaData, TestRecord.TestTarget, 10um_25um
MetaData, TestRecord.IterationIndex, 1
MetaData, TestRecord.Preservation, true
MetaData, TestRecord.Flag, 
MetaData, TestRecord.Remarks, 
MetaData, TestRecord.LinkKey, df7e5610-713c-4e5a-9563-d21e8433c23e
Dimension1, 301, 301, 301, 301, 301, 301
Dimension2, 6, 6, 6, 6, 6, 6
DataName, Vdrain, Vgate, Vsource, Isource, Igate, Idrain
DataValue, 0, 0, 0, -1.0600000000000001E-12, -9.0000000000000008E-14, 6.7000000000000007E-13
DataValue, 0.05, 0, 0, -9.46E-11, 8E-13, 9.449E-11
DataValue, 0.1, 0, 0, -1.3269E-10, 6.8E-13, 1.3225E-10
DataValue, 0.15, 0, 0, -1.4515E-10, 5.1E-13, 1.4483E-10
DataValue, 0.2, 0, 0, -1.4892000000000001E-10, 6.400000000000001E-13, 1.4918000000000002E-10
DataValue, 0.25, 0, 0, -1.5009000000000002E-10, 6.400000000000001E-13, 1.4978E-10
DataValue, 0.3, 0, 0, -1.5157E-10, 1.2000000000000002E-13, 1.5103000000000002E-10
DataValue, 0.35000000000000003, 0, 0, -1.5162000000000002E-10, 2.7E-13, 1.5163000000000002E-10
DataValue, 0.4, 0, 0, -1.5187000000000001E-10, 5.6E-13, 1.5145E-10
DataValue, 0.45, 0, 0, -1.5231000000000002E-10, 2.3000000000000003E-13, 1.5188000000000002E-10
DataValue, 0.5, 0, 0, -1.5334E-10, -1.1000000000000001E-13, 1.5238000000000002E-10
DataValue, 0.55, 0, 0, -1.5321E-10, 8.0000000000000013E-14, 1.5302E-10
DataValue, 0.6, 0, 0, -1.5295E-10, 2.7E-13, 1.5264E-10
DataValue, 0.65, 0, 0, -1.5367000000000002E-10, -1E-13, 1.5361E-10
DataValue, 0.70000000000000007, 0, 0, -1.5397E-10, -3.0000000000000005E-14, 1.5362E-10
DataValue, 0.75, 0, 0, -1.5412E-10, 2.4000000000000004E-13, 1.5354000000000002E-10
DataValue, 0.8, 0, 0, -1.5447E-10, 4.0000000000000006E-14, 1.5448000000000002E-10
DataValue, 0.85, 0, 0, -1.5531E-10, -5.4E-13, 1.5476000000000002E-10
DataValue, 0.9, 0, 0, -1.5565E-10, -2E-13, 1.549E-10
DataValue, 0.95000000000000007, 0, 0, -1.5570000000000002E-10, 1.1000000000000001E-13, 1.5522E-10
DataValue, 1, 0, 0, -1.5587E-10, -1.3E-13, 1.5568000000000003E-10
DataValue, 1.05, 0, 0, -1.5596000000000002E-10, -4.6000000000000006E-13, 1.5589000000000002E-10
DataValue, 1.1, 0, 0, -1.5643000000000002E-10, 1.1000000000000001E-13, 1.5613E-10
DataValue, 1.1500000000000001, 0, 0, -1.5592000000000002E-10, -5E-14, 1.5585E-10
DataValue, 1.2, 0, 0, -1.5653E-10, -1.7E-13, 1.5653E-10
DataValue, 1.25, 0, 0, -1.5682E-10, -8.0000000000000013E-14, 1.5617000000000002E-10
DataValue, 1.3, 0, 0, -1.5718000000000002E-10, -7E-14, 1.5680000000000002E-10
DataValue, 1.35, 0, 0, -1.5702000000000002E-10, 1.6000000000000003E-13, 1.5685E-10
DataValue, 1.4000000000000001, 0, 0, -1.5749000000000002E-10, -5E-14, 1.5765000000000002E-10
DataValue, 1.45, 0, 0, -1.5751E-10, 3.6000000000000003E-13, 1.5739E-10
DataValue, 1.5, 0, 0, -1.5814E-10, 3.5E-13, 1.5852E-10
DataValue, 1.55, 0, 0, -1.5786E-10, 3.2000000000000005E-13, 1.5807E-10
DataValue, 1.6, 0, 0, -1.5800000000000002E-10, 1.7E-13, 1.582E-10
DataValue, 1.6500000000000001, 0, 0, -1.5884000000000002E-10, 4.1E-13, 1.5864E-10
DataValue, 1.7, 0, 0, -1.5898E-10, 5.3000000000000006E-13, 1.5928000000000002E-10
DataValue, 1.75, 0, 0, -1.5849000000000001E-10, 3.9000000000000005E-13, 1.5933E-10
DataValue, 1.8, 0, 0, -1.5908E-10, 4.9E-13, 1.598E-10
DataValue, 1.85, 0, 0, -1.5964E-10, 7.5E-13, 1.5992E-10
DataValue, 1.9000000000000001, 0, 0, -1.598E-10, 9.2000000000000012E-13, 1.6028000000000001E-10
DataValue, 1.95, 0, 0, -1.5976000000000003E-10, 8.2E-13, 1.6021E-10
DataValue, 2, 0, 0, -1.6037E-10, 1.0100000000000001E-12, 1.608E-10
DataValue, 2.05, 0, 0, -1.6058E-10, 1.07E-12, 1.6139000000000002E-10
DataValue, 2.1, 0, 0, -1.6047000000000002E-10, 1.1600000000000001E-12, 1.6148000000000002E-10
DataValue, 2.15, 0, 0, -1.6052E-10, 9.6000000000000015E-13, 1.6124E-10
DataValue, 2.2, 0, 0, -1.6119000000000001E-10, 1.1100000000000001E-12, 1.6153E-10
DataValue, 2.25, 0, 0, -1.6122000000000001E-10, 1.36E-12, 1.6159E-10
DataValue, 2.3000000000000003, 0, 0, -1.6253E-10, 1E-12, 1.6213000000000001E-10
DataValue, 2.35, 0, 0, -1.6178E-10, 9.9E-13, 1.6161000000000002E-10
DataValue, 2.4, 0, 0, -1.6209E-10, 1.18E-12, 1.63E-10
DataValue, 2.45, 0, 0, -1.6164000000000002E-10, 1.41E-12, 1.6239000000000002E-10
DataValue, 2.5, 0, 0, -1.6168E-10, 1.08E-12, 1.6237E-10
DataValue, 2.5500000000000003, 0, 0, -1.6223000000000002E-10, 1.2900000000000002E-12, 1.6239000000000002E-10
DataValue, 2.6, 0, 0, -1.6288E-10, 1.3000000000000001E-12, 1.6292000000000002E-10
DataValue, 2.65, 0, 0, -1.6289000000000002E-10, 9.2000000000000012E-13, 1.6293E-10
DataValue, 2.7, 0, 0, -1.6303E-10, 9.000000000000001E-13, 1.6390000000000002E-10
DataValue, 2.75, 0, 0, -1.6351E-10, 1.0100000000000001E-12, 1.6349000000000002E-10
DataValue, 2.8000000000000003, 0, 0, -1.6421000000000002E-10, 1.3300000000000002E-12, 1.6413E-10
DataValue, 2.85, 0, 0, -1.6359E-10, 9.1000000000000016E-13, 1.6443000000000002E-10
DataValue, 2.9, 0, 0, -1.6302000000000002E-10, 9.000000000000001E-13, 1.6373E-10
DataValue, 2.95, 0, 0, -1.6424000000000002E-10, 8.6000000000000007E-13, 1.6414000000000001E-10
DataValue, 3, 0, 0, -1.6378E-10, 1.1500000000000002E-12, 1.6365000000000002E-10
DataValue, 3.0500000000000003, 0, 0, -1.6390000000000002E-10, 6.1E-13, 1.6378E-10
DataValue, 3.1, 0, 0, -1.6462000000000002E-10, 3.7000000000000004E-13, 1.6399000000000002E-10
DataValue, 3.15, 0, 0, -1.6442E-10, 5E-13, 1.6446000000000002E-10
DataValue, 3.2, 0, 0, -1.6409000000000003E-10, 4.4000000000000004E-13, 1.6418000000000002E-10
DataValue, 3.25, 0, 0, -1.6484000000000002E-10, 7E-13, 1.6506000000000002E-10
DataValue, 3.3000000000000003, 0, 0, -1.6494E-10, 3.2000000000000005E-13, 1.6525000000000002E-10
DataValue, 3.35, 0, 0, -1.6539E-10, 5.9E-13, 1.6532E-10
DataValue, 3.4, 0, 0, -1.6587000000000002E-10, 4.4000000000000004E-13, 1.6541E-10
DataValue, 3.45, 0, 0, -1.6617E-10, 2.0000000000000003E-14, 1.6519E-10
DataValue, 3.5, 0, 0, -1.6647000000000002E-10, -4.0000000000000006E-14, 1.6598E-10
DataValue, 3.5500000000000003, 0, 0, -1.6609000000000002E-10, -1.1000000000000001E-13, 1.6591000000000003E-10
DataValue, 3.6, 0, 0, -1.6609000000000002E-10, 0, 1.6638000000000002E-10
DataValue, 3.65, 0, 0, -1.6658E-10, -1.4E-13, 1.6675000000000002E-10
DataValue, 3.7, 0, 0, -1.6647000000000002E-10, 0, 1.6662000000000002E-10
DataValue, 3.75, 0, 0, -1.6699E-10, 4.0000000000000006E-14, 1.6652E-10
DataValue, 3.8000000000000003, 0, 0, -1.6749E-10, 3.0000000000000005E-14, 1.6702E-10
DataValue, 3.85, 0, 0, -1.6853E-10, -2.6E-13, 1.6772000000000002E-10
DataValue, 3.9, 0, 0, -1.6803000000000001E-10, -1.2000000000000002E-13, 1.6845000000000002E-10
DataValue, 3.95, 0, 0, -1.6821E-10, 2.3000000000000003E-13, 1.6829000000000002E-10
DataValue, 4, 0, 0, -1.6867000000000002E-10, -4E-13, 1.6849E-10
DataValue, 4.05, 0, 0, -1.6819000000000002E-10, -2.7E-13, 1.6803000000000001E-10
DataValue, 4.1, 0, 0, -1.6915E-10, 3.1000000000000004E-13, 1.6822000000000002E-10
DataValue, 4.15, 0, 0, -1.6881E-10, -2.0000000000000003E-14, 1.6895000000000002E-10
DataValue, 4.2, 0, 0, -1.6922E-10, -4.0000000000000006E-14, 1.6911000000000002E-10
DataValue, 4.25, 0, 0, -1.701E-10, 5E-14, 1.6915E-10
DataValue, 4.3, 0, 0, -1.6958000000000002E-10, 2.1000000000000001E-13, 1.6981E-10
DataValue, 4.3500000000000005, 0, 0, -1.6912E-10, 5E-14, 1.6974000000000003E-10
DataValue, 4.4, 0, 0, -1.701E-10, 2.0000000000000003E-14, 1.7058000000000002E-10
DataValue, 4.45, 0, 0, -1.7036000000000002E-10, 3.1000000000000004E-13, 1.7026000000000002E-10
DataValue, 4.5, 0, 0, -1.7014000000000002E-10, 4.3000000000000004E-13, 1.7039000000000002E-10
DataValue, 4.55, 0, 0, -1.7059E-10, 3.5E-13, 1.7038E-10
DataValue, 4.6000000000000005, 0, 0, -1.7112000000000003E-10, 4.6000000000000006E-13, 1.7116E-10
DataValue, 4.65, 0, 0, -1.7159000000000003E-10, 5.4E-13, 1.7125E-10
DataValue, 4.7, 0, 0, -1.7066E-10, 3.9000000000000005E-13, 1.7136000000000002E-10
DataValue, 4.75, 0, 0, -1.7090000000000003E-10, 5.2E-13, 1.7236E-10
DataValue, 4.8, 0, 0, -1.7224000000000002E-10, 5.4E-13, 1.7218000000000002E-10
DataValue, 4.8500000000000005, 0, 0, -1.7204E-10, 1.09E-12, 1.7183000000000002E-10
DataValue, 4.9, 0, 0, -1.7231000000000002E-10, 7.9000000000000007E-13, 1.7227000000000002E-10
DataValue, 4.95, 0, 0, -1.7273E-10, 1.08E-12, 1.7281000000000002E-10
DataValue, 5, 0, 0, -1.7284000000000002E-10, 7.9000000000000007E-13, 1.7344000000000002E-10
DataValue, 5.05, 0, 0, -1.722E-10, 1.1000000000000002E-12, 1.7264E-10
DataValue, 5.1000000000000005, 0, 0, -1.7207E-10, 1.2800000000000002E-12, 1.7275000000000002E-10
DataValue, 5.15, 0, 0, -1.7249000000000002E-10, 1.1500000000000002E-12, 1.7257E-10
DataValue, 5.2, 0, 0, -1.7389E-10, 1.1000000000000002E-12, 1.737E-10
DataValue, 5.25, 0, 0, -1.7332E-10, 1.41E-12, 1.7340000000000002E-10
DataValue, 5.3, 0, 0, -1.7371000000000001E-10, 9.4E-13, 1.7414E-10
DataValue, 5.3500000000000005, 0, 0, -1.7428000000000002E-10, 1.04E-12, 1.7349000000000001E-10
DataValue, 5.4, 0, 0, -1.7457000000000002E-10, 1.4400000000000001E-12, 1.7451000000000003E-10
DataValue, 5.45, 0, 0, -1.7416000000000002E-10, 1.23E-12, 1.7466000000000002E-10
DataValue, 5.5, 0, 0, -1.738E-10, 8.2E-13, 1.7476000000000003E-10
DataValue, 5.55, 0, 0, -1.7463000000000002E-10, 1.3400000000000002E-12, 1.7508E-10
DataValue, 5.6000000000000005, 0, 0, -1.7474E-10, 1.6100000000000002E-12, 1.7497000000000002E-10
DataValue, 5.65, 0, 0, -1.7521E-10, 1.04E-12, 1.7554000000000002E-10
DataValue, 5.7, 0, 0, -1.754E-10, 9.3E-13, 1.7562E-10
DataValue, 5.75, 0, 0, -1.7604000000000002E-10, 1.1500000000000002E-12, 1.7613000000000002E-10
DataValue, 5.8, 0, 0, -1.7549E-10, 1.04E-12, 1.7609E-10
DataValue, 5.8500000000000005, 0, 0, -1.7593E-10, 7.3E-13, 1.7616000000000002E-10
DataValue, 5.9, 0, 0, -1.7639000000000002E-10, 9.8E-13, 1.7637E-10
DataValue, 5.95, 0, 0, -1.7682000000000002E-10, 5.8000000000000005E-13, 1.7655000000000003E-10
DataValue, 6, 0, 0, -1.7668E-10, 8.8000000000000009E-13, 1.7691E-10
DataValue, 6.05, 0, 0, -1.7713E-10, 6.8E-13, 1.7670000000000002E-10
DataValue, 6.1000000000000005, 0, 0, -1.7775E-10, 8.300000000000001E-13, 1.7733000000000002E-10
DataValue, 6.15, 0, 0, -1.7691E-10, 5.5000000000000008E-13, 1.7746000000000003E-10
DataValue, 6.2, 0, 0, -1.7757000000000001E-10, 1.5000000000000002E-13, 1.7797E-10
DataValue, 6.25, 0, 0, -1.7761000000000002E-10, 5.8000000000000005E-13, 1.7790000000000003E-10
DataValue, 6.3, 0, 0, -1.7738E-10, 6.0000000000000007E-13, 1.7770000000000002E-10
DataValue, 6.3500000000000005, 0, 0, -1.7845000000000001E-10, 4.5000000000000005E-13, 1.7806E-10
DataValue, 6.4, 0, 0, -1.7798000000000002E-10, -2.0000000000000003E-14, 1.7647E-10
DataValue, 6.45, 0, 0, -1.7862000000000003E-10, 1.2000000000000002E-13, 1.7875E-10
DataValue, 6.5, 0, 0, -1.7887000000000002E-10, 1.5000000000000002E-13, 1.7871000000000002E-10
DataValue, 6.55, 0, 0, -1.7904E-10, -6.0000000000000009E-14, 1.7899000000000002E-10
DataValue, 6.6000000000000005, 0, 0, -1.7930000000000002E-10, -3.5E-13, 1.8005000000000001E-10
DataValue, 6.65, 0, 0, -1.7959000000000002E-10, 0, 1.7950000000000003E-10
DataValue, 6.7, 0, 0, -1.7988E-10, 1E-13, 1.7981000000000002E-10
DataValue, 6.75, 0, 0, -1.8015000000000002E-10, -4.9E-13, 1.7944E-10
DataValue, 6.8, 0, 0, -1.8055E-10, -5.1E-13, 1.8025000000000002E-10
DataValue, 6.8500000000000005, 0, 0, -1.8079E-10, -3.8000000000000005E-13, 1.7986E-10
DataValue, 6.9, 0, 0, -1.8069000000000002E-10, -1.3E-13, 1.8063000000000003E-10
DataValue, 6.95, 0, 0, -1.8104E-10, -1.5000000000000002E-13, 1.8062000000000002E-10
DataValue, 7, 0, 0, -1.8142E-10, -1.7E-13, 1.8143000000000001E-10
DataValue, 7.05, 0, 0, -1.8139E-10, 1.4E-13, 1.8129E-10
DataValue, 7.1000000000000005, 0, 0, -1.8194000000000002E-10, 2.0000000000000003E-14, 1.8157000000000003E-10
DataValue, 7.15, 0, 0, -1.8200000000000002E-10, -1.0000000000000002E-14, 1.822E-10
DataValue, 7.2, 0, 0, -1.8259E-10, -1.7E-13, 1.8213000000000002E-10
DataValue, 7.25, 0, 0, -1.8208E-10, 2.0000000000000003E-14, 1.8277E-10
DataValue, 7.3, 0, 0, -1.824E-10, -7E-14, 1.8256000000000001E-10
DataValue, 7.3500000000000005, 0, 0, -1.8268E-10, -8.0000000000000013E-14, 1.8300000000000001E-10
DataValue, 7.4, 0, 0, -1.8325000000000001E-10, 1.9000000000000002E-13, 1.8292000000000003E-10
DataValue, 7.45, 0, 0, -1.8360000000000002E-10, -1E-13, 1.8332000000000002E-10
DataValue, 7.5, 0, 0, -1.8331E-10, 7E-14, 1.8334E-10
DataValue, 7.55, 0, 0, -1.8416000000000001E-10, 3.1000000000000004E-13, 1.8358000000000003E-10
DataValue, 7.6000000000000005, 0, 0, -1.8384E-10, 5.4E-13, 1.8362E-10
DataValue, 7.65, 0, 0, -1.8348000000000002E-10, 3.1000000000000004E-13, 1.8417000000000002E-10
DataValue, 7.7, 0, 0, -1.8485000000000001E-10, 2.3000000000000003E-13, 1.8523000000000002E-10
DataValue, 7.75, 0, 0, -1.8516E-10, 8.4000000000000006E-13, 1.8499000000000003E-10
DataValue, 7.8, 0, 0, -1.8526000000000002E-10, 6.0000000000000007E-13, 1.8511000000000002E-10
DataValue, 7.8500000000000005, 0, 0, -1.8559E-10, 5.9E-13, 1.85E-10
DataValue, 7.9, 0, 0, -1.8481E-10, 7.3E-13, 1.8495000000000002E-10
DataValue, 7.95, 0, 0, -1.8574000000000002E-10, 6.9000000000000009E-13, 1.8583000000000002E-10
DataValue, 8, 0, 0, -1.8541E-10, 8.1000000000000008E-13, 1.8609000000000003E-10
DataValue, 8.05, 0, 0, -1.8496000000000003E-10, 9.9E-13, 1.8651E-10
DataValue, 8.1, 0, 0, -1.8607E-10, 8.7E-13, 1.8649000000000002E-10
DataValue, 8.15, 0, 0, -1.8633000000000002E-10, 1.07E-12, 1.8659000000000003E-10
DataValue, 8.2, 0, 0, -1.8719E-10, 1.1600000000000001E-12, 1.8677000000000002E-10
DataValue, 8.25, 0, 0, -1.8738E-10, 9.2000000000000012E-13, 1.8755000000000001E-10
DataValue, 8.3, 0, 0, -1.8757E-10, 1.08E-12, 1.8788000000000003E-10
DataValue, 8.35, 0, 0, -1.8744000000000003E-10, 1.4800000000000002E-12, 1.8905E-10
DataValue, 8.4, 0, 0, -1.8777000000000001E-10, 7.7000000000000005E-13, 1.8893000000000001E-10
DataValue, 8.45, 0, 0, -1.8835000000000003E-10, 9.9E-13, 1.8890000000000002E-10
DataValue, 8.5, 0, 0, -1.8888000000000002E-10, 1.37E-12, 1.8879000000000003E-10
DataValue, 8.55, 0, 0, -1.8889E-10, 1.1000000000000002E-12, 1.8884000000000002E-10
DataValue, 8.6, 0, 0, -1.9000000000000002E-10, 1.23E-12, 1.8968E-10
DataValue, 8.65, 0, 0, -1.8943E-10, 1.1000000000000002E-12, 1.8976000000000003E-10
