
SetupTitle, TFT Id-Vg
PrimitiveTest, I/V Sweep
TestParameter, Context.MainFrame, B1500A
TestParameter, Channel.UnitType, SMU, SMU, SMU
TestParameter, Channel.Unit, SMU4:HR, SMU1:HP, SMU3:HR
TestParameter, Channel.IName, Isource, Igate, Idrain
TestParameter, Channel.VName, Vsource, Vgate, Vdrain
TestParameter, Channel.Mode, V, V, V
TestParameter, Channel.Func, CONST, VAR1, VAR2
TestParameter, Channel.Index, 
TestParameter, Channel.Time, 
TestParameter, Measurement.Port.Unit, SMU4:HR, SMU1:HP, SMU3:HR
TestParameter, Measurement.Port.SeriesResistor, NONE, NONE, NONE
TestParameter, Measurement.Port.Filter, ON, ON, ON
TestParameter, Measurement.Port.OutputVoltageComparison, 0, 0, 0
TestParameter, Measurement.Primary.Locus, Single
TestParameter, Measurement.Primary.Scale, LINEAR
TestParameter, Measurement.Primary.Start, -5
TestParameter, Measurement.Primary.Stop, 10
TestParameter, Measurement.Primary.Step, 0.05
TestParameter, Measurement.Primary.Compliance, 0.01
TestParameter, Measurement.Primary.PowerCompliance, 0
TestParameter, Measurement.Aborting.Condition, CONTINUE AT ANY
TestParameter, Measurement.PostOutput.Value, START
TestParameter, Measurement.PostOutput.Retention, OFF
TestParameter, Measurement.Secondary.Start, 0.1
TestParameter, Measurement.Secondary.Count, 3
TestParameter, Measurement.Secondary.Step, 0.4
TestParameter, Measurement.Secondary.Compliance, 0.0001
TestParameter, Measurement.Secondary.PowerCompliance, 0
TestParameter, Measurement.Bias.Source, 0, -5, 0.1
TestParameter, Measurement.Bias.Compliance, 0.1, 0.01, 0.0001
TestParameter, Measurement.Monitor.Unit, SMU4:HR, SMU1:HP, SMU3:HR
TestParameter, Measurement.Monitor.Adc, HR ADC, HR ADC, HR ADC
TestParameter, Measurement.Monitor.Measurement, Compliance Side, Compliance Side, Compliance Side
TestParameter, Measurement.Monitor.RangingMode, LIMITED, LIMITED, LIMITED
TestParameter, Measurement.Monitor.RangeBoundary, 1nA, 1nA, 100pA
TestParameter, Measurement.Monitor.RangeRating, BY FULL RANGE, BY FULL RANGE, BY FULL RANGE
TestParameter, Measurement.Monitor.RangeRatingCoeff, 50, 50, 50
TestParameter, Measurement.Timing.Hold, 0
TestParameter, Measurement.Timing.Delay, 0
TestParameter, Measurement.Adc.HighSpeed.Mode, AUTO
TestParameter, Measurement.Adc.HighSpeed.Coeff, 1
TestParameter, Measurement.Adc.HighResolution.AutoZero, OFF
TestParameter, Measurement.Adc.HighResolution.Mode, AUTO
TestParameter, Measurement.Adc.HighResolution.Coeff, 6
TestParameter, Measurement.WaitTime.Source.Coeff, 1
TestParameter, Measurement.WaitTime.Source.Offset, 0
TestParameter, Measurement.WaitTime.Monitor.Coeff, 1
TestParameter, Measurement.WaitTime.Monitor.Offset, 0
TestParameter, Function.User.Name, gm
TestParameter, Function.User.Unit, S
TestParameter, Function.User.Definition, diff(Idrain, Vgate)
TestParameter, Output.Graph.Enabled, true
TestParameter, Output.Graph.XAxis.Data, Vgate
TestParameter, Output.Graph.XAxis.Scale, Linear
TestParameter, Output.Graph.XAxis.Left, -2
TestParameter, Output.Graph.XAxis.Right, 15
TestParameter, Output.Graph.YAxis.Data, Idrain, gm, Idrain
TestParameter, Output.Graph.YAxis.Scale, Log, Linear, Linear
TestParameter, Output.Graph.YAxis.Bottom, 0, 0, -0.0001
TestParameter, Output.Graph.YAxis.Top, 0.001, 1, 0.0001
TestParameter, Output.Graph.YAxis.Group, , , 
TestParameter, Output.List.Data, Vgate, Vdrain, Igate, Idrain, gm
TestParameter, AutoAnalysis.Interpolation, false
TestParameter, AutoAnalysis.Line1.Enabled, false
TestParameter, AutoAnalysis.Line1.Type, 1
TestParameter, AutoAnalysis.Line1.Fix, True
TestParameter, AutoAnalysis.Line1.YAxis, 0
TestParameter, AutoAnalysis.Line1.Point1.Type, 0
TestParameter, AutoAnalysis.Line1.Point1.XY.X, 
TestParameter, AutoAnalysis.Line1.Point1.XY.Y, 
TestParameter, AutoAnalysis.Line1.Point1.Data.Var, 
TestParameter, AutoAnalysis.Line1.Point1.Data.Condition, 
TestParameter, AutoAnalysis.Line1.Point1.Data.Start, false
TestParameter, AutoAnalysis.Line1.Point1.Data.StartVar, 
TestParameter, AutoAnalysis.Line1.Point1.Data.StartCondition, 
TestParameter, AutoAnalysis.Line1.Point2.Type, 0
TestParameter, AutoAnalysis.Line1.Point2.XY.X, 
TestParameter, AutoAnalysis.Line1.Point2.XY.Y, 
TestParameter, AutoAnalysis.Line1.Point2.Data.Var, 
TestParameter, AutoAnalysis.Line1.Point2.Data.Condition, 
TestParameter, AutoAnalysis.Line1.Point2.Data.Start, false
TestParameter, AutoAnalysis.Line1.Point2.Data.StartVar, 
TestParameter, AutoAnalysis.Line1.Point2.Data.StartCondition, 
TestParameter, AutoAnalysis.Line1.GradientExpr, 0
TestParameter, AutoAnalysis.Line2.Enabled, false
TestParameter, AutoAnalysis.Line2.Type, 1
TestParameter, AutoAnalysis.Line2.Fix, True
TestParameter, AutoAnalysis.Line2.YAxis, 0
TestParameter, AutoAnalysis.Line2.Point1.Type, 0
TestParameter, AutoAnalysis.Line2.Point1.XY.X, 
TestParameter, AutoAnalysis.Line2.Point1.XY.Y, 
TestParameter, AutoAnalysis.Line2.Point1.Data.Var, 
TestParameter, AutoAnalysis.Line2.Point1.Data.Condition, 
TestParameter, AutoAnalysis.Line2.Point1.Data.Start, false
TestParameter, AutoAnalysis.Line2.Point1.Data.StartVar, 
TestParameter, AutoAnalysis.Line2.Point1.Data.StartCondition, 
TestParameter, AutoAnalysis.Line2.Point2.Type, 0
TestParameter, AutoAnalysis.Line2.Point2.XY.X, 
TestParameter, AutoAnalysis.Line2.Point2.XY.Y, 
TestParameter, AutoAnalysis.Line2.Point2.Data.Var, 
TestParameter, AutoAnalysis.Line2.Point2.Data.Condition, 
TestParameter, AutoAnalysis.Line2.Point2.Data.Start, false
TestParameter, AutoAnalysis.Line2.Point2.Data.StartVar, 
TestParameter, AutoAnalysis.Line2.Point2.Data.StartCondition, 
TestParameter, AutoAnalysis.Line2.GradientExpr, 0
TestParameter, AutoAnalysis.Marker.Enabled, false
TestParameter, AutoAnalysis.Marker.Data.Var, 
TestParameter, AutoAnalysis.Marker.Data.Condition, 
TestParameter, AutoAnalysis.Marker.Data.Start, false
TestParameter, AutoAnalysis.Marker.Data.StartVar, 
TestParameter, AutoAnalysis.Marker.Data.StartCondition, 
MetaData, TestRecord.EntryPoint, true
MetaData, TestRecord.RecordTime, 11/10/2017 10:58:50
MetaData, TestRecord.TestTarget, 10um_10um
MetaData, TestRecord.IterationIndex, 1
MetaData, TestRecord.Preservation, true
MetaData, TestRecord.Flag, 
MetaData, TestRecord.Remarks, 
MetaData, TestRecord.LinkKey, e193c71f-b434-4a0c-88cf-252ee6ae3632
Dimension1, 301, 301, 301, 301, 301
Dimension2, 3, 3, 3, 3, 3
DataName, Vgate, Vdrain, Igate, Idrain, gm
DataValue, -5, 0.1, 2.0000000000000003E-14, 5.4E-14, -3.8840000000000137E-12
DataValue, -4.95, 0.1, 1.7E-13, -1.402E-13, -2.1160000000000075E-12
DataValue, -4.9, 0.1, 1.2000000000000002E-13, -1.576E-13, 6.3600000000000224E-13
DataValue, -4.8500000000000005, 0.1, -4.3000000000000004E-13, -7.66E-14, 6.2999999999999671E-13
DataValue, -4.8, 0.1, -2E-13, -9.46E-14, 3.0999999999999838E-13
DataValue, -4.75, 0.1, 4.0000000000000006E-14, -4.5599999999999996E-14, 3.06000000000001E-13
DataValue, -4.7, 0.1, 1.0600000000000001E-12, -6.4E-14, -8.0800000000000282E-13
DataValue, -4.65, 0.1, 2E-13, -1.264E-13, 2.8000000000000108E-13
DataValue, -4.6000000000000005, 0.1, -2E-13, -3.6E-14, 3.8999999999999788E-13
DataValue, -4.55, 0.1, 8.8000000000000009E-13, -8.74E-14, 3.9999999999999741E-14
DataValue, -4.5, 0.1, 1.02E-12, -3.2E-14, -7.7400000000000266E-13
DataValue, -4.45, 0.1, 7.2000000000000006E-13, -1.648E-13, -7.5400000000000264E-13
DataValue, -4.4, 0.1, -2.5E-13, -1.074E-13, 3.26000000000001E-13
DataValue, -4.3500000000000005, 0.1, 1.9000000000000002E-13, -1.322E-13, -2.9599999999999839E-13
DataValue, -4.3, 0.1, 5E-14, -1.37E-13, 5.6999999999999707E-13
DataValue, -4.25, 0.1, -2.7E-13, -7.52E-14, 2.4800000000000091E-13
DataValue, -4.2, 0.1, 4.0000000000000006E-14, -1.1219999999999999E-13, 2.6000000000000091E-13
DataValue, -4.15, 0.1, 5.5000000000000008E-13, -4.92E-14, 3.9999999999999741E-14
DataValue, -4.1, 0.1, 1.08E-12, -1.082E-13, -9.11999999999995E-13
DataValue, -4.05, 0.1, -3.3E-13, -1.404E-13, 1.1000000000000043E-13
DataValue, -4, 0.1, 1.8000000000000002E-13, -9.7199999999999992E-14, 5.94000000000002E-13
DataValue, -3.95, 0.1, -6.0000000000000009E-14, -8.1E-14, 5.5999999999999913E-14
DataValue, -3.9, 0.1, -1.6000000000000003E-13, -9.16E-14, -7.1599999999999937E-13
DataValue, -3.85, 0.1, 6.0000000000000009E-14, -1.526E-13, 6.220000000000022E-13
DataValue, -3.8000000000000003, 0.1, 1.3E-13, -2.94E-14, 4.0999999999999967E-13
DataValue, -3.75, 0.1, 8.8000000000000009E-13, -1.116E-13, 1.3799999999999987E-13
DataValue, -3.7, 0.1, 1.2500000000000001E-12, -1.56E-14, -1.3599999999999975E-13
DataValue, -3.65, 0.1, 9.4E-13, -1.2519999999999999E-13, -8.3999999999999925E-13
DataValue, -3.6, 0.1, -1.5000000000000002E-13, -9.96E-14, 9.6200000000000317E-13
DataValue, -3.5500000000000003, 0.1, 4.3000000000000004E-13, -2.8999999999999996E-14, 7.2399999999999934E-13
DataValue, -3.5, 0.1, 9.4E-13, -2.72E-14, -3.5799999999999969E-13
DataValue, -3.45, 0.1, 1.0600000000000001E-12, -6.48E-14, -4.7399999999999949E-13
DataValue, -3.4, 0.1, 8.2E-13, -7.4599999999999993E-14, -2.2999999999999983E-13
DataValue, -3.35, 0.1, 8.2E-13, -8.78E-14, -3.8800000000000148E-13
DataValue, -3.3000000000000003, 0.1, -1.5000000000000002E-13, -1.134E-13, -5.5799999999999934E-13
DataValue, -3.25, 0.1, 2E-13, -1.436E-13, -2.1999999999999987E-13
DataValue, -3.2, 0.1, 2.6E-13, -1.354E-13, 3.3999999999999874E-14
DataValue, -3.15, 0.1, -4.6000000000000006E-13, -1.402E-13, -4.6999999999999931E-13
DataValue, -3.1, 0.1, -2.6E-13, -1.8239999999999999E-13, 4.0000000000000476E-15
DataValue, -3.0500000000000003, 0.1, 1.9000000000000002E-13, -1.398E-13, 7.3399999999999919E-13
DataValue, -3, 0.1, -1.0000000000000002E-14, -1.09E-13, 7.0599999999999931E-13
DataValue, -2.95, 0.1, -9.0000000000000008E-14, -6.92E-14, 1.2599999999999994E-13
DataValue, -2.9, 0.1, -4.0000000000000006E-14, -9.64E-14, 3.6799999999999964E-13
DataValue, -2.85, 0.1, 2.5E-13, -3.24E-14, 1.7800000000000061E-13
DataValue, -2.8000000000000003, 0.1, 1.18E-12, -7.86E-14, -1.1559999999999991E-12
DataValue, -2.75, 0.1, 3.4E-13, -1.48E-13, 6.9199999999999937E-13
DataValue, -2.7, 0.1, -2.0000000000000003E-14, -9.4E-15, 2.1819999999999982E-12
DataValue, -2.65, 0.1, 1.02E-12, 7.02E-14, 5.0199999999999952E-12
DataValue, -2.6, 0.1, 1.9000000000000002E-13, 4.9259999999999994E-13, 2.3228000000000083E-11
DataValue, -2.5500000000000003, 0.1, -1.6000000000000003E-13, 2.393E-12, 8.0057999999999937E-11
DataValue, -2.5, 0.1, 1.45E-12, 8.4984E-12, 2.420619999999998E-10
DataValue, -2.45, 0.1, 7E-14, 2.65992E-11, 5.9941799999999945E-10
DataValue, -2.4, 0.1, 1.0500000000000002E-12, 6.84402E-11, 1.1436079999999993E-09
DataValue, -2.35, 0.1, -4.0000000000000006E-14, 1.4096000000000002E-10, 1.6836980000000065E-09
DataValue, -2.3000000000000003, 0.1, -2.8E-13, 2.3681000000000003E-10, 2.0412999999999983E-09
DataValue, -2.25, 0.1, 1.3E-13, 3.4509000000000005E-10, 2.2352999999999979E-09
DataValue, -2.2, 0.1, 8.5000000000000011E-13, 4.6034000000000004E-10, 2.3323999999999974E-09
DataValue, -2.15, 0.1, 8.9E-13, 5.7833E-10, 2.5131999999999983E-09
DataValue, -2.1, 0.1, 1.12E-12, 7.116600000000001E-10, 2.7028999999999986E-09
DataValue, -2.05, 0.1, 8.6000000000000007E-13, 8.4862000000000012E-10, 2.7836999999999982E-09
DataValue, -2, 0.1, 3.8000000000000005E-13, 9.9003000000000015E-10, 2.8868000000000025E-09
DataValue, -1.95, 0.1, 2.6E-13, 1.1373E-09, 3.1037000000000024E-09
DataValue, -1.9000000000000001, 0.1, -1.2000000000000002E-13, 1.3004E-09, 3.3880000000000036E-09
DataValue, -1.85, 0.1, 9.1000000000000016E-13, 1.4761E-09, 3.6249999999999961E-09
DataValue, -1.8, 0.1, 7.100000000000001E-13, 1.6629E-09, 3.7179999999999977E-09
DataValue, -1.75, 0.1, 6.0000000000000009E-14, 1.8479E-09, 3.8899999999999963E-09
DataValue, -1.7, 0.1, -5E-14, 2.0519E-09, 4.0730000000000036E-09
DataValue, -1.6500000000000001, 0.1, -1.2000000000000002E-13, 2.2552E-09, 4.2710000000000048E-09
DataValue, -1.6, 0.1, 4.2000000000000003E-13, 2.479E-09, 4.5499999999999977E-09
DataValue, -1.55, 0.1, 7.5E-13, 2.7102E-09, 4.7949999999999984E-09
DataValue, -1.5, 0.1, 1.18E-12, 2.9585E-09, 5.0089999999999938E-09
DataValue, -1.45, 0.1, 1.26E-12, 3.2111E-09, 5.2560000000000058E-09
DataValue, -1.4000000000000001, 0.1, 6.3E-13, 3.4841E-09, 5.5830000000000077E-09
DataValue, -1.35, 0.1, 3.5E-13, 3.7694E-09, 5.5979999999999958E-09
DataValue, -1.3, 0.1, -2.4000000000000004E-13, 4.0439E-09, 5.6379999999999956E-09
DataValue, -1.25, 0.1, -1.1000000000000001E-13, 4.3332E-09, 5.9669999999999931E-09
DataValue, -1.2, 0.1, 5.9E-13, 4.6406E-09, 6.3940000000000091E-09
DataValue, -1.1500000000000001, 0.1, 9.5E-13, 4.9726E-09, 6.64900000000001E-09
DataValue, -1.1, 0.1, 1.3500000000000001E-12, 5.3055E-09, 6.9309999999999985E-09
DataValue, -1.05, 0.1, 1.03E-12, 5.6657E-09, 6.9049999999999988E-09
DataValue, -1, 0.1, 4.2000000000000003E-13, 5.996E-09, 7.3909999999999982E-09
DataValue, -0.95000000000000007, 0.1, -1E-13, 6.4048E-09, 7.9289999999999977E-09
DataValue, -0.9, 0.1, -3.4E-13, 6.7889E-09, 7.7419999999999942E-09
DataValue, -0.85, 0.1, 1.1000000000000001E-13, 7.179E-09, 8.49E-09
DataValue, -0.8, 0.1, 4.6000000000000006E-13, 7.6379E-09, 9.3439999999999975E-09
DataValue, -0.75, 0.1, 8.9E-13, 8.1134E-09, 9.8149999999999972E-09
DataValue, -0.70000000000000007, 0.1, 9.1000000000000016E-13, 8.6194E-09, 9.66900000000001E-09
DataValue, -0.65, 0.1, 6.5000000000000006E-13, 9.0803E-09, 9.465000000000004E-09
DataValue, -0.6, 0.1, 6.1E-13, 9.5659E-09, 1.027E-08
DataValue, -0.55, 0.1, 2.4000000000000004E-13, 1.01073E-08, 1.1208E-08
DataValue, -0.5, 0.1, -1.2000000000000002E-13, 1.06867E-08, 1.1842999999999986E-08
DataValue, -0.45, 0.1, 1.8000000000000002E-13, 1.12916E-08, 1.1434999999999983E-08
DataValue, -0.4, 0.1, 6.9000000000000009E-13, 1.1830199999999998E-08, 1.1977999999999997E-08
DataValue, -0.35000000000000003, 0.1, 3.0000000000000005E-14, 1.2489399999999999E-08, 1.3039999999999991E-08
DataValue, -0.3, 0.1, 3.4E-13, 1.3134199999999998E-08, 1.3020000000000002E-08
DataValue, -0.25, 0.1, 1.7E-13, 1.37914E-08, 1.3830000000000002E-08
DataValue, -0.2, 0.1, -3.0000000000000005E-14, 1.4517199999999998E-08, 1.4879999999999998E-08
DataValue, -0.15, 0.1, -1.0000000000000002E-14, 1.52794E-08, 1.4794000000000013E-08
DataValue, -0.1, 0.1, 4.3000000000000004E-13, 1.59966E-08, 1.4740000000000007E-08
DataValue, -0.05, 0.1, 3.5E-13, 1.67534E-08, 1.527799999999998E-08
DataValue, 0, 0.1, 4.5000000000000005E-13, 1.7524399999999997E-08, 1.5752E-08
DataValue, 0.05, 0.1, 4.3000000000000004E-13, 1.83286E-08, 1.6197999999999997E-08
DataValue, 0.1, 0.1, 2.5E-13, 1.9144199999999997E-08, 1.6556E-08
DataValue, 0.15, 0.1, 5.7E-13, 1.99842E-08, 1.7444000000000007E-08
DataValue, 0.2, 0.1, 2.9000000000000003E-13, 2.0888599999999998E-08, 1.7837999999999971E-08
DataValue, 0.25, 0.1, 6.0000000000000007E-13, 2.1767999999999997E-08, 1.7961999999999996E-08
DataValue, 0.3, 0.1, 8.2E-13, 2.2684799999999997E-08, 1.8080000000000014E-08
DataValue, 0.35000000000000003, 0.1, 8.6000000000000007E-13, 2.3576E-08, 1.829799999999999E-08
DataValue, 0.4, 0.1, 1E-12, 2.4514599999999996E-08, 1.8493999999999977E-08
DataValue, 0.45, 0.1, 9.6000000000000015E-13, 2.5425399999999996E-08, 1.8184000000000022E-08
DataValue, 0.5, 0.1, 1.27E-12, 2.6332999999999998E-08, 1.8565999999999989E-08
DataValue, 0.55, 0.1, 1.2500000000000001E-12, 2.7281999999999996E-08, 1.9383999999999993E-08
DataValue, 0.6, 0.1, 1.04E-12, 2.8271399999999997E-08, 1.914200000000001E-08
DataValue, 0.65, 0.1, 1.23E-12, 2.9196199999999996E-08, 1.8833999999999979E-08
DataValue, 0.70000000000000007, 0.1, 1.31E-12, 3.01548E-08, 1.9381999999999985E-08
DataValue, 0.75, 0.1, 1.0600000000000001E-12, 3.1134399999999995E-08, 1.9583999999999989E-08
DataValue, 0.8, 0.1, 8E-13, 3.2113199999999995E-08, 1.8684000000000027E-08
DataValue, 0.85, 0.1, 1.31E-12, 3.30028E-08, 1.872200000000003E-08
DataValue, 0.9, 0.1, 1.23E-12, 3.39854E-08, 1.9315999999999969E-08
DataValue, 0.95000000000000007, 0.1, 1.3300000000000002E-12, 3.4934399999999996E-08, 1.8768000000000003E-08
DataValue, 1, 0.1, 1.2800000000000002E-12, 3.58622E-08, 1.8602000000000027E-08
DataValue, 1.05, 0.1, 1.2800000000000002E-12, 3.67946E-08, 1.8785999999999964E-08
DataValue, 1.1, 0.1, 1.1500000000000002E-12, 3.7740799999999996E-08, 1.869E-08
DataValue, 1.1500000000000001, 0.1, 1.21E-12, 3.86636E-08, 1.8750000000000045E-08
DataValue, 1.2, 0.1, 8.4000000000000006E-13, 3.96158E-08, 1.8835999999999997E-08
DataValue, 1.25, 0.1, 1.1000000000000002E-12, 4.0547199999999997E-08, 1.8569999999999997E-08
DataValue, 1.3, 0.1, 7.4000000000000008E-13, 4.14728E-08, 1.8883999999999969E-08
DataValue, 1.35, 0.1, 9.2000000000000012E-13, 4.2435599999999995E-08, 1.9265999999999979E-08
DataValue, 1.4000000000000001, 0.1, 1.1900000000000002E-12, 4.33994E-08, 1.8376000000000002E-08
DataValue, 1.45, 0.1, 8.6000000000000007E-13, 4.4273199999999993E-08, 1.8232000000000024E-08
DataValue, 1.5, 0.1, 1.08E-12, 4.52226E-08, 1.824000000000002E-08
DataValue, 1.55, 0.1, 8.9E-13, 4.60972E-08, 1.7741999999999958E-08
DataValue, 1.6, 0.1, 7.3E-13, 4.6996799999999996E-08, 1.7917999999999946E-08
DataValue, 1.6500000000000001, 0.1, 5.8000000000000005E-13, 4.7888999999999993E-08, 1.7560000000000016E-08
DataValue, 1.7, 0.1, 7.2000000000000006E-13, 4.8752799999999996E-08, 1.736200000000003E-08
DataValue, 1.75, 0.1, 9.2000000000000012E-13, 4.9625199999999994E-08, 1.7683999999999998E-08
DataValue, 1.8, 0.1, 8.1000000000000008E-13, 5.05212E-08, 1.7761999999999981E-08
DataValue, 1.85, 0.1, 7.2000000000000006E-13, 5.1401399999999993E-08, 1.7825999999999934E-08
DataValue, 1.9000000000000001, 0.1, 6.5000000000000006E-13, 5.2303799999999992E-08, 1.7716000000000048E-08
DataValue, 1.95, 0.1, 3.7000000000000004E-13, 5.3172999999999996E-08, 1.825800000000004E-08
DataValue, 2, 0.1, 4.1E-13, 5.4129599999999994E-08, 1.8393999999999983E-08
DataValue, 2.05, 0.1, 2.9000000000000003E-13, 5.5012399999999992E-08, 1.6934000000000008E-08
DataValue, 2.1, 0.1, 2.8E-13, 5.5822999999999996E-08, 1.7240000000000011E-08
DataValue, 2.15, 0.1, 5.2E-13, 5.6736399999999994E-08, 1.7613999999999985E-08
DataValue, 2.2, 0.1, 4.3000000000000004E-13, 5.7584399999999996E-08, 1.7273999999999996E-08
DataValue, 2.25, 0.1, -2.0000000000000003E-14, 5.8463799999999996E-08, 1.7149999999999975E-08
DataValue, 2.3000000000000003, 0.1, 1.3E-13, 5.9299399999999996E-08, 1.6910000000000034E-08
DataValue, 2.35, 0.1, 4.0000000000000006E-14, 6.01548E-08, 1.7572000000000043E-08
DataValue, 2.4, 0.1, -1.9000000000000002E-13, 6.10566E-08, 1.7181999999999852E-08
DataValue, 2.45, 0.1, -1.4E-13, 6.1872999999999988E-08, 1.6671999999999939E-08
DataValue, 2.5, 0.1, -1.4E-13, 6.2723799999999989E-08, 1.7058000000000029E-08
DataValue, 2.5500000000000003, 0.1, -3.5E-13, 6.3578799999999992E-08, 1.6512000000000022E-08
DataValue, 2.6, 0.1, -7E-14, 6.4374999999999992E-08, 1.6286000000000047E-08
DataValue, 2.65, 0.1, 5E-14, 6.5207399999999991E-08, 1.5964000000000036E-08
DataValue, 2.7, 0.1, -1.1000000000000001E-13, 6.59714E-08, 1.6578000000000018E-08
DataValue, 2.75, 0.1, -4.9E-13, 6.68652E-08, 1.6853999999999983E-08
DataValue, 2.8000000000000003, 0.1, 1.3E-13, 6.76568E-08, 1.6610000000000028E-08
DataValue, 2.85, 0.1, -1.0000000000000002E-14, 6.85262E-08, 1.6093999999999988E-08
DataValue, 2.9, 0.1, -1.0000000000000002E-14, 6.9266199999999991E-08, 1.5321999999999997E-08
DataValue, 2.95, 0.1, -2.8E-13, 7.00584E-08, 1.5790000000000024E-08
DataValue, 3, 0.1, -1.1000000000000001E-13, 7.08452E-08, 1.6341999999999962E-08
DataValue, 3.0500000000000003, 0.1, 2.0000000000000003E-14, 7.16926E-08, 1.6273999999999991E-08
DataValue, 3.1, 0.1, 7E-14, 7.24726E-08, 1.544200000000007E-08
DataValue, 3.15, 0.1, 5.2E-13, 7.32368E-08, 1.5758000000000014E-08
DataValue, 3.2, 0.1, 1.6000000000000003E-13, 7.40484E-08, 1.65439999999999E-08
DataValue, 3.25, 0.1, 4E-13, 7.489119999999999E-08, 1.6397999999999946E-08
DataValue, 3.3000000000000003, 0.1, 2.5E-13, 7.56882E-08, 1.6038000000000067E-08
DataValue, 3.35, 0.1, 1.7E-13, 7.6495E-08, 1.5472000000000104E-08
DataValue, 3.4, 0.1, 3.0000000000000003E-13, 7.72354E-08, 1.553199999999997E-08
