
SetupTitle, TFT Id-Vd
PrimitiveTest, I/V Sweep
TestParameter, Context.MainFrame, B1500A
TestParameter, Channel.UnitType, SMU, SMU, SMU
TestParameter, Channel.Unit, SMU4:HR, SMU1:HP, SMU3:HR
TestParameter, Channel.IName, Isource, Igate, Idrain
TestParameter, Channel.VName, Vsource, Vgate, Vdrain
TestParameter, Channel.Mode, V, V, V
TestParameter, Channel.Func, CONST, VAR2, VAR1
TestParameter, Channel.Index, 
TestParameter, Channel.Time, 
TestParameter, Measurement.Port.Unit, SMU4:HR, SMU1:HP, SMU3:HR
TestParameter, Measurement.Port.SeriesResistor, NONE, NONE, NONE
TestParameter, Measurement.Port.Filter, ON, ON, ON
TestParameter, Measurement.Port.OutputVoltageComparison, 0, 0, 0
TestParameter, Measurement.Primary.Locus, Single
TestParameter, Measurement.Primary.Scale, LINEAR
TestParameter, Measurement.Primary.Start, 0
TestParameter, Measurement.Primary.Stop, 15
TestParameter, Measurement.Primary.Step, 0.05
TestParameter, Measurement.Primary.Compliance, 0.01
TestParameter, Measurement.Primary.PowerCompliance, 0
TestParameter, Measurement.Aborting.Condition, CONTINUE AT ANY
TestParameter, Measurement.PostOutput.Value, START
TestParameter, Measurement.PostOutput.Retention, OFF
TestParameter, Measurement.Secondary.Start, 0
TestParameter, Measurement.Secondary.Count, 6
TestParameter, Measurement.Secondary.Step, 2
TestParameter, Measurement.Secondary.Compliance, 0.0001
TestParameter, Measurement.Secondary.PowerCompliance, 0
TestParameter, Measurement.Bias.Source, 0, 0, 0
TestParameter, Measurement.Bias.Compliance, 0.1, 0.0001, 0.01
TestParameter, Measurement.Monitor.Unit, SMU4:HR, SMU1:HP, SMU3:HR
TestParameter, Measurement.Monitor.Adc, HR ADC, HR ADC, HR ADC
TestParameter, Measurement.Monitor.Measurement, Compliance Side, Compliance Side, Compliance Side
TestParameter, Measurement.Monitor.RangingMode, LIMITED, LIMITED, LIMITED
TestParameter, Measurement.Monitor.RangeBoundary, 1nA, 1nA, 1nA
TestParameter, Measurement.Monitor.RangeRating, BY FULL RANGE, BY FULL RANGE, BY FULL RANGE
TestParameter, Measurement.Monitor.RangeRatingCoeff, 50, 50, 50
TestParameter, Measurement.Timing.Hold, 0
TestParameter, Measurement.Timing.Delay, 0
TestParameter, Measurement.Adc.HighSpeed.Mode, AUTO
TestParameter, Measurement.Adc.HighSpeed.Coeff, 1
TestParameter, Measurement.Adc.HighResolution.AutoZero, OFF
TestParameter, Measurement.Adc.HighResolution.Mode, AUTO
TestParameter, Measurement.Adc.HighResolution.Coeff, 6
TestParameter, Measurement.WaitTime.Source.Coeff, 1
TestParameter, Measurement.WaitTime.Source.Offset, 0
TestParameter, Measurement.WaitTime.Monitor.Coeff, 1
TestParameter, Measurement.WaitTime.Monitor.Offset, 0
TestParameter, Output.Graph.Enabled, true
TestParameter, Output.Graph.XAxis.Data, Vdrain
TestParameter, Output.Graph.XAxis.Scale, Linear
TestParameter, Output.Graph.XAxis.Left, 0
TestParameter, Output.Graph.XAxis.Right, 10
TestParameter, Output.Graph.YAxis.Data, Idrain
TestParameter, Output.Graph.YAxis.Scale, Linear
TestParameter, Output.Graph.YAxis.Bottom, 0
TestParameter, Output.Graph.YAxis.Top, 0.1
TestParameter, Output.Graph.YAxis.Group, 
TestParameter, Output.List.Data, Vgate, Vdrain, Vsource, Igate, Idrain, Isource
TestParameter, AutoAnalysis.Interpolation, false
TestParameter, AutoAnalysis.Line1.Enabled, false
TestParameter, AutoAnalysis.Line1.Type, 1
TestParameter, AutoAnalysis.Line1.Fix, True
TestParameter, AutoAnalysis.Line1.YAxis, 0
TestParameter, AutoAnalysis.Line1.Point1.Type, 0
TestParameter, AutoAnalysis.Line1.Point1.XY.X, 
TestParameter, AutoAnalysis.Line1.Point1.XY.Y, 
TestParameter, AutoAnalysis.Line1.Point1.Data.Var, 
TestParameter, AutoAnalysis.Line1.Point1.Data.Condition, 
TestParameter, AutoAnalysis.Line1.Point1.Data.Start, false
TestParameter, AutoAnalysis.Line1.Point1.Data.StartVar, 
TestParameter, AutoAnalysis.Line1.Point1.Data.StartCondition, 
TestParameter, AutoAnalysis.Line1.Point2.Type, 0
TestParameter, AutoAnalysis.Line1.Point2.XY.X, 
TestParameter, AutoAnalysis.Line1.Point2.XY.Y, 
TestParameter, AutoAnalysis.Line1.Point2.Data.Var, 
TestParameter, AutoAnalysis.Line1.Point2.Data.Condition, 
TestParameter, AutoAnalysis.Line1.Point2.Data.Start, false
TestParameter, AutoAnalysis.Line1.Point2.Data.StartVar, 
TestParameter, AutoAnalysis.Line1.Point2.Data.StartCondition, 
TestParameter, AutoAnalysis.Line1.GradientExpr, 0
TestParameter, AutoAnalysis.Line2.Enabled, false
TestParameter, AutoAnalysis.Line2.Type, 1
TestParameter, AutoAnalysis.Line2.Fix, True
TestParameter, AutoAnalysis.Line2.YAxis, 0
TestParameter, AutoAnalysis.Line2.Point1.Type, 0
TestParameter, AutoAnalysis.Line2.Point1.XY.X, 
TestParameter, AutoAnalysis.Line2.Point1.XY.Y, 
TestParameter, AutoAnalysis.Line2.Point1.Data.Var, 
TestParameter, AutoAnalysis.Line2.Point1.Data.Condition, 
TestParameter, AutoAnalysis.Line2.Point1.Data.Start, false
TestParameter, AutoAnalysis.Line2.Point1.Data.StartVar, 
TestParameter, AutoAnalysis.Line2.Point1.Data.StartCondition, 
TestParameter, AutoAnalysis.Line2.Point2.Type, 0
TestParameter, AutoAnalysis.Line2.Point2.XY.X, 
TestParameter, AutoAnalysis.Line2.Point2.XY.Y, 
TestParameter, AutoAnalysis.Line2.Point2.Data.Var, 
TestParameter, AutoAnalysis.Line2.Point2.Data.Condition, 
TestParameter, AutoAnalysis.Line2.Point2.Data.Start, false
TestParameter, AutoAnalysis.Line2.Point2.Data.StartVar, 
TestParameter, AutoAnalysis.Line2.Point2.Data.StartCondition, 
TestParameter, AutoAnalysis.Line2.GradientExpr, 0
TestParameter, AutoAnalysis.Marker.Enabled, false
TestParameter, AutoAnalysis.Marker.Data.Var, 
TestParameter, AutoAnalysis.Marker.Data.Condition, 
TestParameter, AutoAnalysis.Marker.Data.Start, false
TestParameter, AutoAnalysis.Marker.Data.StartVar, 
TestParameter, AutoAnalysis.Marker.Data.StartCondition, 
MetaData, TestRecord.EntryPoint, true
MetaData, TestRecord.RecordTime, 11/10/2017 09:59:11
MetaData, TestRecord.TestTarget, 100um_50um
MetaData, TestRecord.IterationIndex, 1
MetaData, TestRecord.Preservation, true
MetaData, TestRecord.Flag, 
MetaData, TestRecord.Remarks, 
MetaData, TestRecord.LinkKey, 6dbbe23c-4375-4135-a53c-189c0ad0ef61
Dimension1, 301, 301, 301, 301, 301, 301
Dimension2, 6, 6, 6, 6, 6, 6
DataName, Vdrain, Vgate, Vsource, Isource, Igate, Idrain
DataValue, 0, 0, 0, -8.11E-12, 4.2000000000000003E-13, 8.1000000000000014E-12
DataValue, 0.05, 0, 0, -1.4866E-09, 5.3000000000000006E-13, 1.4879E-09
DataValue, 0.1, 0, 0, -2.5597E-09, 9.000000000000001E-13, 2.5589E-09
DataValue, 0.15, 0, 0, -3.247E-09, 1.14E-12, 3.246E-09
DataValue, 0.2, 0, 0, -3.647E-09, 3.8000000000000005E-13, 3.6475E-09
DataValue, 0.25, 0, 0, -3.8719E-09, -1.5000000000000002E-13, 3.8709E-09
DataValue, 0.3, 0, 0, -4.0124E-09, -4.3000000000000004E-13, 4.0112E-09
DataValue, 0.35000000000000003, 0, 0, -4.1097E-09, 5E-13, 4.1093E-09
DataValue, 0.4, 0, 0, -4.1816E-09, 1.08E-12, 4.1814E-09
DataValue, 0.45, 0, 0, -4.2378E-09, 1.14E-12, 4.2387E-09
DataValue, 0.5, 0, 0, -4.2824E-09, 3.4E-13, 4.2818E-09
DataValue, 0.55, 0, 0, -4.3198E-09, -5.3000000000000006E-13, 4.3189E-09
DataValue, 0.6, 0, 0, -4.3513E-09, -2.3000000000000003E-13, 4.3501E-09
DataValue, 0.65, 0, 0, -4.3759E-09, 1E-13, 4.3751E-09
DataValue, 0.70000000000000007, 0, 0, -4.3979E-09, 1.04E-12, 4.3979E-09
DataValue, 0.75, 0, 0, -4.4188E-09, 1.3000000000000001E-12, 4.4179E-09
DataValue, 0.8, 0, 0, -4.4372E-09, 4.6000000000000006E-13, 4.4364E-09
DataValue, 0.85, 0, 0, -4.4521E-09, -1.0000000000000002E-14, 4.4528E-09
DataValue, 0.9, 0, 0, -4.4673E-09, -7E-14, 4.4656E-09
DataValue, 0.95000000000000007, 0, 0, -4.4807E-09, 6.6E-13, 4.4807E-09
DataValue, 1, 0, 0, -4.4934E-09, 1.07E-12, 4.4938E-09
DataValue, 1.05, 0, 0, -4.5026E-09, 1.0600000000000001E-12, 4.5025E-09
DataValue, 1.1, 0, 0, -4.5131E-09, 1.5000000000000002E-13, 4.514E-09
DataValue, 1.1500000000000001, 0, 0, -4.5269E-09, 2.0000000000000003E-14, 4.5254E-09
DataValue, 1.2, 0, 0, -4.5353E-09, -1.9000000000000002E-13, 4.5346E-09
DataValue, 1.25, 0, 0, -4.5431E-09, 4E-13, 4.5424E-09
DataValue, 1.3, 0, 0, -4.5532E-09, 8.7E-13, 4.5533E-09
DataValue, 1.35, 0, 0, -4.5609E-09, 1.07E-12, 4.5619E-09
DataValue, 1.4000000000000001, 0, 0, -4.5686E-09, 2.8E-13, 4.5687E-09
DataValue, 1.45, 0, 0, -4.5774E-09, -7E-14, 4.5762E-09
DataValue, 1.5, 0, 0, -4.5837E-09, -3.8000000000000005E-13, 4.5841E-09
DataValue, 1.55, 0, 0, -4.5906E-09, 4E-13, 4.5906E-09
DataValue, 1.6, 0, 0, -4.5968E-09, 6.7000000000000007E-13, 4.5975E-09
DataValue, 1.6500000000000001, 0, 0, -4.6046E-09, 1.45E-12, 4.6023E-09
DataValue, 1.7, 0, 0, -4.6097E-09, 7.100000000000001E-13, 4.6116E-09
DataValue, 1.75, 0, 0, -4.6181E-09, 5E-14, 4.6177E-09
DataValue, 1.8, 0, 0, -4.6233E-09, -2.8E-13, 4.6238E-09
DataValue, 1.85, 0, 0, -4.6298E-09, 6.0000000000000007E-13, 4.6296E-09
DataValue, 1.9000000000000001, 0, 0, -4.6353E-09, 1.1600000000000001E-12, 4.6347E-09
DataValue, 1.95, 0, 0, -4.6402E-09, 1.51E-12, 4.6421E-09
DataValue, 2, 0, 0, -4.648E-09, 4.3000000000000004E-13, 4.647E-09
DataValue, 2.05, 0, 0, -4.6523E-09, 2.0000000000000003E-14, 4.6525E-09
DataValue, 2.1, 0, 0, -4.6588E-09, -1.0100000000000001E-12, 4.6577E-09
DataValue, 2.15, 0, 0, -4.6627E-09, 2.2000000000000002E-13, 4.6643E-09
DataValue, 2.2, 0, 0, -4.6698E-09, 6.3E-13, 4.67E-09
DataValue, 2.25, 0, 0, -4.6744E-09, 1.1600000000000001E-12, 4.6752E-09
DataValue, 2.3000000000000003, 0, 0, -4.6785E-09, 8.8000000000000009E-13, 4.6801E-09
DataValue, 2.35, 0, 0, -4.6839E-09, -8.0000000000000013E-14, 4.6838E-09
DataValue, 2.4, 0, 0, -4.6893E-09, -3.0000000000000003E-13, 4.6884E-09
DataValue, 2.45, 0, 0, -4.6927E-09, -2.0000000000000003E-14, 4.6922E-09
DataValue, 2.5, 0, 0, -4.6987E-09, 7.3E-13, 4.6982E-09
DataValue, 2.5500000000000003, 0, 0, -4.7019E-09, 1.6600000000000002E-12, 4.703E-09
DataValue, 2.6, 0, 0, -4.7064E-09, 8.300000000000001E-13, 4.7065E-09
DataValue, 2.65, 0, 0, -4.7118E-09, -7E-14, 4.7110999999999996E-09
DataValue, 2.7, 0, 0, -4.7159E-09, -3.2000000000000005E-13, 4.7151E-09
DataValue, 2.75, 0, 0, -4.7212E-09, 1.8000000000000002E-13, 4.7211E-09
DataValue, 2.8000000000000003, 0, 0, -4.7258E-09, 1.02E-12, 4.7255E-09
DataValue, 2.85, 0, 0, -4.7285E-09, 1.2500000000000001E-12, 4.7287E-09
DataValue, 2.9, 0, 0, -4.7338E-09, 1.23E-12, 4.7342E-09
DataValue, 2.95, 0, 0, -4.7383E-09, 3.6000000000000003E-13, 4.7389E-09
DataValue, 3, 0, 0, -4.7434E-09, -3.6000000000000003E-13, 4.7432E-09
DataValue, 3.0500000000000003, 0, 0, -4.7471E-09, -9.0000000000000008E-14, 4.7476E-09
DataValue, 3.1, 0, 0, -4.7504E-09, 7.4000000000000008E-13, 4.7501E-09
DataValue, 3.15, 0, 0, -4.7542E-09, 1.1900000000000002E-12, 4.7538E-09
DataValue, 3.2, 0, 0, -4.7604E-09, 8E-13, 4.7595E-09
DataValue, 3.25, 0, 0, -4.7638E-09, 5E-14, 4.7633E-09
DataValue, 3.3000000000000003, 0, 0, -4.7664E-09, -4.3000000000000004E-13, 4.7669E-09
DataValue, 3.35, 0, 0, -4.7717E-09, -5.4E-13, 4.7711E-09
DataValue, 3.4, 0, 0, -4.7756E-09, 6.400000000000001E-13, 4.776E-09
DataValue, 3.45, 0, 0, -4.7796E-09, 1.1500000000000002E-12, 4.7796E-09
DataValue, 3.5, 0, 0, -4.784E-09, 8E-13, 4.7847E-09
DataValue, 3.5500000000000003, 0, 0, -4.7864E-09, 3.7000000000000004E-13, 4.7866E-09
DataValue, 3.6, 0, 0, -4.7905E-09, -1.3E-13, 4.7895E-09
DataValue, 3.65, 0, 0, -4.7967E-09, 1.6000000000000003E-13, 4.795E-09
DataValue, 3.7, 0, 0, -4.8000999999999996E-09, 6.5000000000000006E-13, 4.7997E-09
DataValue, 3.75, 0, 0, -4.8026E-09, 1.3800000000000002E-12, 4.804E-09
DataValue, 3.8000000000000003, 0, 0, -4.807E-09, 1.0100000000000001E-12, 4.8067E-09
DataValue, 3.85, 0, 0, -4.8098E-09, 2.3000000000000003E-13, 4.8093E-09
DataValue, 3.9, 0, 0, -4.8147E-09, 9.0000000000000008E-14, 4.8139E-09
DataValue, 3.95, 0, 0, -4.8177E-09, -4.4000000000000004E-13, 4.8183E-09
DataValue, 4, 0, 0, -4.8237E-09, 7.9000000000000007E-13, 4.8225E-09
DataValue, 4.05, 0, 0, -4.8247E-09, 1.2400000000000002E-12, 4.8251E-09
DataValue, 4.1, 0, 0, -4.8306E-09, 1.04E-12, 4.8295E-09
DataValue, 4.15, 0, 0, -4.8325E-09, 3.7000000000000004E-13, 4.8337E-09
DataValue, 4.2, 0, 0, -4.8385E-09, -6.2000000000000008E-13, 4.8371E-09
DataValue, 4.25, 0, 0, -4.8412E-09, -5.6E-13, 4.8402E-09
DataValue, 4.3, 0, 0, -4.845E-09, 3.5E-13, 4.8455E-09
DataValue, 4.3500000000000005, 0, 0, -4.8486E-09, 1.0500000000000002E-12, 4.8489E-09
DataValue, 4.4, 0, 0, -4.8532E-09, 1.2900000000000002E-12, 4.8517E-09
DataValue, 4.45, 0, 0, -4.856E-09, 3.5E-13, 4.8557E-09
DataValue, 4.5, 0, 0, -4.8593E-09, 1.1000000000000001E-13, 4.8584E-09
DataValue, 4.55, 0, 0, -4.8628E-09, -1.6000000000000003E-13, 4.8627E-09
DataValue, 4.6000000000000005, 0, 0, -4.8682E-09, 8.7E-13, 4.8669E-09
DataValue, 4.65, 0, 0, -4.8697E-09, 8.9E-13, 4.8709E-09
DataValue, 4.7, 0, 0, -4.8764E-09, 1.41E-12, 4.8756E-09
DataValue, 4.75, 0, 0, -4.8772E-09, 6.5000000000000006E-13, 4.8773E-09
DataValue, 4.8, 0, 0, -4.8814E-09, -2.0000000000000003E-14, 4.8799E-09
DataValue, 4.8500000000000005, 0, 0, -4.8853E-09, -3.1000000000000004E-13, 4.8843E-09
DataValue, 4.9, 0, 0, -4.888E-09, 4.5000000000000005E-13, 4.8897E-09
DataValue, 4.95, 0, 0, -4.8943E-09, 6.5000000000000006E-13, 4.8938E-09
DataValue, 5, 0, 0, -4.8957E-09, 1.1500000000000002E-12, 4.8972E-09
DataValue, 5.05, 0, 0, -4.9004E-09, 3.3E-13, 4.9013E-09
DataValue, 5.1000000000000005, 0, 0, -4.9044E-09, 3.0000000000000005E-14, 4.9031E-09
DataValue, 5.15, 0, 0, -4.9068E-09, -1.6000000000000003E-13, 4.9049E-09
DataValue, 5.2, 0, 0, -4.9102E-09, 3.3E-13, 4.9096E-09
DataValue, 5.25, 0, 0, -4.9144E-09, 1.07E-12, 4.9143E-09
DataValue, 5.3, 0, 0, -4.9169E-09, 1.2500000000000001E-12, 4.9173E-09
DataValue, 5.3500000000000005, 0, 0, -4.922E-09, 9.7000000000000011E-13, 4.9214E-09
DataValue, 5.4, 0, 0, -4.9244E-09, 1.2000000000000002E-13, 4.9246E-09
DataValue, 5.45, 0, 0, -4.9278E-09, -3.5E-13, 4.928E-09
DataValue, 5.5, 0, 0, -4.9325E-09, 1.7E-13, 4.9325E-09
DataValue, 5.55, 0, 0, -4.936E-09, 8.8000000000000009E-13, 4.9363E-09
DataValue, 5.6000000000000005, 0, 0, -4.9399E-09, 1.37E-12, 4.9384E-09
DataValue, 5.65, 0, 0, -4.9422E-09, 7.100000000000001E-13, 4.943E-09
DataValue, 5.7, 0, 0, -4.9474E-09, -4.0000000000000006E-14, 4.9463E-09
DataValue, 5.75, 0, 0, -4.9492E-09, -2.8E-13, 4.9486E-09
DataValue, 5.8, 0, 0, -4.9544E-09, -4.3000000000000004E-13, 4.9527E-09
DataValue, 5.8500000000000005, 0, 0, -4.9569E-09, 5.5000000000000008E-13, 4.9576E-09
DataValue, 5.9, 0, 0, -4.9621E-09, 1.3000000000000001E-12, 4.962E-09
DataValue, 5.95, 0, 0, -4.9642E-09, 7.2000000000000006E-13, 4.9639E-09
DataValue, 6, 0, 0, -4.9693E-09, -3.0000000000000005E-14, 4.9688E-09
DataValue, 6.05, 0, 0, -4.9711E-09, -4.2000000000000003E-13, 4.9711E-09
DataValue, 6.1000000000000005, 0, 0, -4.9759E-09, -9.0000000000000008E-14, 4.9753E-09
DataValue, 6.15, 0, 0, -4.9801E-09, 6.0000000000000007E-13, 4.9791E-09
DataValue, 6.2, 0, 0, -4.9821E-09, 9.8E-13, 4.9839E-09
DataValue, 6.25, 0, 0, -4.986E-09, 1.5700000000000002E-12, 4.9874E-09
DataValue, 6.3, 0, 0, -4.9898E-09, 4.5000000000000005E-13, 4.9899E-09
DataValue, 6.3500000000000005, 0, 0, -4.9939E-09, -1.8000000000000002E-13, 4.9934E-09
DataValue, 6.4, 0, 0, -4.998E-09, -9.0000000000000008E-14, 4.9961E-09
DataValue, 6.45, 0, 0, -5.0003E-09, 8.4000000000000006E-13, 4.9996E-09
DataValue, 6.5, 0, 0, -5.0014E-09, 1.23E-12, 5.0031E-09
DataValue, 6.55, 0, 0, -5.0072E-09, 1.04E-12, 5.0074E-09
DataValue, 6.6000000000000005, 0, 0, -5.0103E-09, 3.4E-13, 5.0103E-09
DataValue, 6.65, 0, 0, -5.015E-09, -3.8000000000000005E-13, 5.0128E-09
DataValue, 6.7, 0, 0, -5.0165E-09, -2.1000000000000001E-13, 5.0172E-09
DataValue, 6.75, 0, 0, -5.0208E-09, 5.9E-13, 5.0203E-09
DataValue, 6.8, 0, 0, -5.0234E-09, 1.1900000000000002E-12, 5.0241E-09
DataValue, 6.8500000000000005, 0, 0, -5.028E-09, 1.03E-12, 5.0269E-09
DataValue, 6.9, 0, 0, -5.0301E-09, 3.6000000000000003E-13, 5.0293E-09
DataValue, 6.95, 0, 0, -5.0338E-09, -5.4E-13, 5.0324E-09
DataValue, 7, 0, 0, -5.0354E-09, -3.9000000000000005E-13, 5.035E-09
DataValue, 7.05, 0, 0, -5.0394E-09, 8.6000000000000007E-13, 5.0391E-09
DataValue, 7.1000000000000005, 0, 0, -5.0448E-09, 1.21E-12, 5.0448E-09
DataValue, 7.15, 0, 0, -5.0465E-09, 1.1900000000000002E-12, 5.0473E-09
DataValue, 7.2, 0, 0, -5.0501E-09, 2.5E-13, 5.0511E-09
DataValue, 7.25, 0, 0, -5.0552E-09, -1.3E-13, 5.055E-09
DataValue, 7.3, 0, 0, -5.0578E-09, -3.3E-13, 5.0588E-09
DataValue, 7.3500000000000005, 0, 0, -5.0626E-09, 7.3E-13, 5.0617E-09
DataValue, 7.4, 0, 0, -5.0667E-09, 1.1600000000000001E-12, 5.0659E-09
DataValue, 7.45, 0, 0, -5.0678E-09, 1.4700000000000002E-12, 5.0675E-09
DataValue, 7.5, 0, 0, -5.0722E-09, 5.7E-13, 5.0712E-09
DataValue, 7.55, 0, 0, -5.0756E-09, -2.4000000000000004E-13, 5.0744E-09
DataValue, 7.6000000000000005, 0, 0, -5.0781E-09, -7E-14, 5.0781E-09
DataValue, 7.65, 0, 0, -5.0817E-09, 6.3E-13, 5.0807E-09
DataValue, 7.7, 0, 0, -5.084E-09, 1.07E-12, 5.0847E-09
DataValue, 7.75, 0, 0, -5.0891E-09, 1.08E-12, 5.089E-09
DataValue, 7.8, 0, 0, -5.0915E-09, 5.1E-13, 5.0909E-09
DataValue, 7.8500000000000005, 0, 0, -5.095E-09, -2E-13, 5.0938E-09
DataValue, 7.9, 0, 0, -5.0958E-09, -2.8E-13, 5.0962E-09
DataValue, 7.95, 0, 0, -5.1004E-09, 1.8000000000000002E-13, 5.1E-09
DataValue, 8, 0, 0, -5.1042E-09, 8.6000000000000007E-13, 5.1048E-09
DataValue, 8.05, 0, 0, -5.1086E-09, 9.9E-13, 5.1091E-09
DataValue, 8.1, 0, 0, -5.1119E-09, 3.8000000000000005E-13, 5.1128E-09
DataValue, 8.15, 0, 0, -5.115E-09, 2.0000000000000003E-14, 5.114E-09
DataValue, 8.2, 0, 0, -5.1195E-09, -2.5E-13, 5.1176E-09
DataValue, 8.25, 0, 0, -5.1215E-09, 4.3000000000000004E-13, 5.1217E-09
DataValue, 8.3, 0, 0, -5.1246E-09, 1.0600000000000001E-12, 5.1241E-09
DataValue, 8.35, 0, 0, -5.1282E-09, 1.23E-12, 5.129E-09
DataValue, 8.4, 0, 0, -5.1342E-09, 4.2000000000000003E-13, 5.1356E-09
DataValue, 8.45, 0, 0, -5.138E-09, 1.1000000000000001E-13, 5.1371E-09
DataValue, 8.5, 0, 0, -5.139E-09, -3.8000000000000005E-13, 5.1403E-09
DataValue, 8.55, 0, 0, -5.143E-09, 1.2000000000000002E-13, 5.1426E-09
DataValue, 8.6, 0, 0, -5.1464E-09, 7.7000000000000005E-13, 5.1473E-09
DataValue, 8.65, 0, 0, -5.1509E-09, 1.1100000000000001E-12, 5.1512E-09
DataValue, 8.7000000000000011, 0, 0, -5.1525E-09, 4.4000000000000004E-13, 5.1539E-09
DataValue, 8.75, 0, 0, -5.1582E-09, -1.6000000000000003E-13, 5.1576E-09
DataValue, 8.8, 0, 0, -5.1613E-09, -5.3000000000000006E-13, 5.1606E-09
DataValue, 8.85, 0, 0, -5.1642E-09, 3.5E-13, 5.1624E-09
DataValue, 8.9, 0, 0, -5.1667E-09, 7.7000000000000005E-13, 5.1673E-09
DataValue, 8.9500000000000011, 0, 0, -5.17E-09, 1.21E-12, 5.1691E-09
DataValue, 9, 0, 0, -5.1722E-09, 4.9E-13, 5.1723E-09
DataValue, 9.05, 0, 0, -5.1773E-09, 2.9000000000000003E-13, 5.1761E-09
DataValue, 9.1, 0, 0, -5.1797E-09, -4.8000000000000008E-13, 5.18E-09
DataValue, 9.15, 0, 0, -5.1824E-09, 5E-14, 5.1824E-09
DataValue, 9.2000000000000011, 0, 0, -5.1859E-09, 5.5000000000000008E-13, 5.1855E-09
DataValue, 9.25, 0, 0, -5.1905E-09, 1.3500000000000001E-12, 5.1899E-09
DataValue, 9.3, 0, 0, -5.1939E-09, 9.2000000000000012E-13, 5.1941E-09
DataValue, 9.35, 0, 0, -5.1978E-09, 7E-14, 5.1959E-09
DataValue, 9.4, 0, 0, -5.2025E-09, -3.8000000000000005E-13, 5.2011E-09
DataValue, 9.4500000000000011, 0, 0, -5.2049E-09, -2.3000000000000003E-13, 5.2048E-09
DataValue, 9.5, 0, 0, -5.2069E-09, 6.1E-13, 5.2069E-09
DataValue, 9.55, 0, 0, -5.211E-09, 8.4000000000000006E-13, 5.2123E-09
DataValue, 9.6, 0, 0, -5.215E-09, 8.9E-13, 5.2151E-09
DataValue, 9.65, 0, 0, -5.2178E-09, 1.1000000000000001E-13, 5.2181E-09
DataValue, 9.7000000000000011, 0, 0, -5.222E-09, -4.7E-13, 5.2216E-09
DataValue, 9.75, 0, 0, -5.2255E-09, 2.0000000000000003E-14, 5.2245E-09
DataValue, 9.8, 0, 0, -5.2268E-09, 8.2E-13, 5.2274E-09
DataValue, 9.85, 0, 0, -5.2325E-09, 1.46E-12, 5.2334E-09
DataValue, 9.9, 0, 0, -5.2349E-09, 1.2000000000000001E-12, 5.2348E-09
DataValue, 9.9500000000000011, 0, 0, -5.2375E-09, 3.3E-13, 5.2383E-09
DataValue, 10, 0, 0, -5.2422E-09, 2.0000000000000003E-14, 5.2423E-09
DataValue, 10.05, 0, 0, -5.2439E-09, -1.1000000000000001E-13, 5.2445E-09
DataValue, 10.1, 0, 0, -5.246E-09, 6.9000000000000009E-13, 5.2469E-09
DataValue, 10.15, 0, 0, -5.2504E-09, 1.0100000000000001E-12, 5.2499E-09
DataValue, 10.200000000000001, 0, 0, -5.2529E-09, 9.8E-13, 5.253E-09
