
SetupTitle, TFT Id-Vg-1
PrimitiveTest, I/V Sweep
TestParameter, Context.MainFrame, B1500A
TestParameter, Channel.UnitType, SMU, SMU, SMU
TestParameter, Channel.Unit, SMU4:HR, SMU1:HP, SMU3:HR
TestParameter, Channel.IName, Isource, Igate, Idrain
TestParameter, Channel.VName, Vsource, Vgate, Vdrain
TestParameter, Channel.Mode, V, V, V
TestParameter, Channel.Func, CONST, VAR1, VAR2
TestParameter, Channel.Index, 
TestParameter, Channel.Time, 
TestParameter, Measurement.Port.Unit, SMU4:HR, SMU1:HP, SMU3:HR
TestParameter, Measurement.Port.SeriesResistor, NONE, NONE, NONE
TestParameter, Measurement.Port.Filter, ON, ON, ON
TestParameter, Measurement.Port.OutputVoltageComparison, 0, 0, 0
TestParameter, Measurement.Primary.Locus, Single
TestParameter, Measurement.Primary.Scale, LINEAR
TestParameter, Measurement.Primary.Start, -5
TestParameter, Measurement.Primary.Stop, 10
TestParameter, Measurement.Primary.Step, 0.05
TestParameter, Measurement.Primary.Compliance, 0.01
TestParameter, Measurement.Primary.PowerCompliance, 0
TestParameter, Measurement.Aborting.Condition, CONTINUE AT ANY
TestParameter, Measurement.PostOutput.Value, START
TestParameter, Measurement.PostOutput.Retention, OFF
TestParameter, Measurement.Secondary.Start, 1
TestParameter, Measurement.Secondary.Count, 3
TestParameter, Measurement.Secondary.Step, 2
TestParameter, Measurement.Secondary.Compliance, 0.0001
TestParameter, Measurement.Secondary.PowerCompliance, 0
TestParameter, Measurement.Bias.Source, 0, -5, 1
TestParameter, Measurement.Bias.Compliance, 0.1, 0.01, 0.0001
TestParameter, Measurement.Monitor.Unit, SMU4:HR, SMU1:HP, SMU3:HR
TestParameter, Measurement.Monitor.Adc, HR ADC, HR ADC, HR ADC
TestParameter, Measurement.Monitor.Measurement, Compliance Side, Compliance Side, Compliance Side
TestParameter, Measurement.Monitor.RangingMode, LIMITED, LIMITED, LIMITED
TestParameter, Measurement.Monitor.RangeBoundary, 1nA, 1nA, 100pA
TestParameter, Measurement.Monitor.RangeRating, BY FULL RANGE, BY FULL RANGE, BY FULL RANGE
TestParameter, Measurement.Monitor.RangeRatingCoeff, 50, 50, 50
TestParameter, Measurement.Timing.Hold, 0
TestParameter, Measurement.Timing.Delay, 0
TestParameter, Measurement.Adc.HighSpeed.Mode, AUTO
TestParameter, Measurement.Adc.HighSpeed.Coeff, 1
TestParameter, Measurement.Adc.HighResolution.AutoZero, OFF
TestParameter, Measurement.Adc.HighResolution.Mode, AUTO
TestParameter, Measurement.Adc.HighResolution.Coeff, 6
TestParameter, Measurement.WaitTime.Source.Coeff, 1
TestParameter, Measurement.WaitTime.Source.Offset, 0
TestParameter, Measurement.WaitTime.Monitor.Coeff, 1
TestParameter, Measurement.WaitTime.Monitor.Offset, 0
TestParameter, Function.User.Name, gm
TestParameter, Function.User.Unit, S
TestParameter, Function.User.Definition, diff(Idrain, Vgate)
TestParameter, Output.Graph.Enabled, true
TestParameter, Output.Graph.XAxis.Data, Vgate
TestParameter, Output.Graph.XAxis.Scale, Linear
TestParameter, Output.Graph.XAxis.Left, -2
TestParameter, Output.Graph.XAxis.Right, 15
TestParameter, Output.Graph.YAxis.Data, Idrain, gm, Idrain
TestParameter, Output.Graph.YAxis.Scale, Log, Linear, Linear
TestParameter, Output.Graph.YAxis.Bottom, 0, 0, -0.0001
TestParameter, Output.Graph.YAxis.Top, 0.001, 1, 0.0001
TestParameter, Output.Graph.YAxis.Group, , , 
TestParameter, Output.List.Data, Vgate, Vdrain, Igate, Idrain, gm
TestParameter, AutoAnalysis.Interpolation, false
TestParameter, AutoAnalysis.Line1.Enabled, false
TestParameter, AutoAnalysis.Line1.Type, 1
TestParameter, AutoAnalysis.Line1.Fix, True
TestParameter, AutoAnalysis.Line1.YAxis, 0
TestParameter, AutoAnalysis.Line1.Point1.Type, 0
TestParameter, AutoAnalysis.Line1.Point1.XY.X, 
TestParameter, AutoAnalysis.Line1.Point1.XY.Y, 
TestParameter, AutoAnalysis.Line1.Point1.Data.Var, 
TestParameter, AutoAnalysis.Line1.Point1.Data.Condition, 
TestParameter, AutoAnalysis.Line1.Point1.Data.Start, false
TestParameter, AutoAnalysis.Line1.Point1.Data.StartVar, 
TestParameter, AutoAnalysis.Line1.Point1.Data.StartCondition, 
TestParameter, AutoAnalysis.Line1.Point2.Type, 0
TestParameter, AutoAnalysis.Line1.Point2.XY.X, 
TestParameter, AutoAnalysis.Line1.Point2.XY.Y, 
TestParameter, AutoAnalysis.Line1.Point2.Data.Var, 
TestParameter, AutoAnalysis.Line1.Point2.Data.Condition, 
TestParameter, AutoAnalysis.Line1.Point2.Data.Start, false
TestParameter, AutoAnalysis.Line1.Point2.Data.StartVar, 
TestParameter, AutoAnalysis.Line1.Point2.Data.StartCondition, 
TestParameter, AutoAnalysis.Line1.GradientExpr, 0
TestParameter, AutoAnalysis.Line2.Enabled, false
TestParameter, AutoAnalysis.Line2.Type, 1
TestParameter, AutoAnalysis.Line2.Fix, True
TestParameter, AutoAnalysis.Line2.YAxis, 0
TestParameter, AutoAnalysis.Line2.Point1.Type, 0
TestParameter, AutoAnalysis.Line2.Point1.XY.X, 
TestParameter, AutoAnalysis.Line2.Point1.XY.Y, 
TestParameter, AutoAnalysis.Line2.Point1.Data.Var, 
TestParameter, AutoAnalysis.Line2.Point1.Data.Condition, 
TestParameter, AutoAnalysis.Line2.Point1.Data.Start, false
TestParameter, AutoAnalysis.Line2.Point1.Data.StartVar, 
TestParameter, AutoAnalysis.Line2.Point1.Data.StartCondition, 
TestParameter, AutoAnalysis.Line2.Point2.Type, 0
TestParameter, AutoAnalysis.Line2.Point2.XY.X, 
TestParameter, AutoAnalysis.Line2.Point2.XY.Y, 
TestParameter, AutoAnalysis.Line2.Point2.Data.Var, 
TestParameter, AutoAnalysis.Line2.Point2.Data.Condition, 
TestParameter, AutoAnalysis.Line2.Point2.Data.Start, false
TestParameter, AutoAnalysis.Line2.Point2.Data.StartVar, 
TestParameter, AutoAnalysis.Line2.Point2.Data.StartCondition, 
TestParameter, AutoAnalysis.Line2.GradientExpr, 0
TestParameter, AutoAnalysis.Marker.Enabled, false
TestParameter, AutoAnalysis.Marker.Data.Var, 
TestParameter, AutoAnalysis.Marker.Data.Condition, 
TestParameter, AutoAnalysis.Marker.Data.Start, false
TestParameter, AutoAnalysis.Marker.Data.StartVar, 
TestParameter, AutoAnalysis.Marker.Data.StartCondition, 
MetaData, TestRecord.EntryPoint, true
MetaData, TestRecord.RecordTime, 11/10/2017 10:07:54
MetaData, TestRecord.TestTarget, 10um_100um
MetaData, TestRecord.IterationIndex, 1
MetaData, TestRecord.Preservation, true
MetaData, TestRecord.Flag, 
MetaData, TestRecord.Remarks, 
MetaData, TestRecord.LinkKey, 0b50da23-a003-40b0-8604-61ff0f54c461
Dimension1, 301, 301, 301, 301, 301
Dimension2, 3, 3, 3, 3, 3
DataName, Vgate, Vdrain, Igate, Idrain, gm
DataValue, -5, 1, 7.3E-13, 1.44E-13, -4.2000000000000144E-12
DataValue, -4.95, 1, 6.400000000000001E-13, -6.6E-14, -2.1640000000000077E-12
DataValue, -4.9, 1, -6.1E-13, -7.24E-14, 1.6400000000000056E-13
DataValue, -4.8500000000000005, 1, -1.8000000000000002E-13, -4.96E-14, -8.8599999999999522E-13
DataValue, -4.8, 1, 2.5E-13, -1.61E-13, -1.121999999999994E-12
DataValue, -4.75, 1, 1.0000000000000002E-14, -1.618E-13, 2.9400000000000112E-13
DataValue, -4.7, 1, -2.3000000000000003E-13, -1.316E-13, 3.0000000000000232E-14
DataValue, -4.65, 1, -2E-13, -1.588E-13, -3.4800000000000134E-13
DataValue, -4.6000000000000005, 1, 3.1000000000000004E-13, -1.664E-13, 4.7399999999999737E-13
DataValue, -4.55, 1, -2E-13, -1.114E-13, 4.8599999999999753E-13
DataValue, -4.5, 1, 8.1000000000000008E-13, -1.178E-13, -2.6000000000000057E-14
DataValue, -4.45, 1, 5.9E-13, -1.14E-13, -8.6600000000000308E-13
DataValue, -4.4, 1, 1.12E-12, -2.044E-13, -5.7000000000000212E-13
DataValue, -4.3500000000000005, 1, 4.0000000000000006E-14, -1.71E-13, -1.0999999999999946E-13
DataValue, -4.3, 1, 2.7E-13, -2.154E-13, -5.0199999999999736E-13
DataValue, -4.25, 1, 1.5000000000000002E-13, -2.212E-13, 5.0400000000000169E-13
DataValue, -4.2, 1, -3.3E-13, -1.65E-13, 6.3000000000000236E-13
DataValue, -4.15, 1, 2.0000000000000003E-14, -1.582E-13, -4.0199999999999783E-13
DataValue, -4.1, 1, 4E-13, -2.052E-13, -1.129999999999994E-12
DataValue, -4.05, 1, -7E-14, -2.712E-13, -3.4000000000000026E-14
DataValue, -4, 1, -2.5E-13, -2.086E-13, -3.3800000000000139E-13
DataValue, -3.95, 1, 1E-13, -3.05E-13, -2.6999999999999961E-13
DataValue, -3.9, 1, 0, -2.356E-13, 4.0399999999999974E-13
DataValue, -3.85, 1, -3.0000000000000003E-13, -2.646E-13, -5.020000000000021E-13
DataValue, -3.8000000000000003, 1, -3.0000000000000003E-13, -2.858E-13, -4.6999999999999961E-13
DataValue, -3.75, 1, 4.3000000000000004E-13, -3.116E-13, -6.9399999999999926E-13
DataValue, -3.7, 1, -2.5E-13, -3.552E-13, 6.6799999999999968E-13
DataValue, -3.65, 1, -3.2000000000000005E-13, -2.448E-13, 6.859999999999992E-13
DataValue, -3.6, 1, -5E-14, -2.866E-13, 6.8200000000000214E-13
DataValue, -3.5500000000000003, 1, 2.8E-13, -1.766E-13, 5.0399999999999977E-13
DataValue, -3.5, 1, 1.18E-12, -2.362E-13, -1.4859999999999989E-12
DataValue, -3.45, 1, 1.2000000000000002E-13, -3.252E-13, -1.1019999999999987E-12
DataValue, -3.4, 1, 2.7E-13, -3.4639999999999997E-13, 3.9800000000000007E-13
DataValue, -3.35, 1, -2.1000000000000001E-13, -2.854E-13, 1.2780000000000043E-12
DataValue, -3.3000000000000003, 1, -2.9000000000000003E-13, -2.186E-13, 1.2999999999999983E-13
DataValue, -3.25, 1, 1.4E-13, -2.724E-13, -8.69999999999999E-13
DataValue, -3.2, 1, 0, -3.056E-13, 3.6399999999999946E-13
DataValue, -3.15, 1, -5.8000000000000005E-13, -2.36E-13, 4.5999999999999966E-13
DataValue, -3.1, 1, 7E-14, -2.5959999999999997E-13, -1.9600000000000058E-13
DataValue, -3.0500000000000003, 1, 3.9000000000000005E-13, -2.556E-13, 2.939999999999993E-13
DataValue, -3, 1, -2.8E-13, -2.302E-13, 1.8000000000000009E-14
DataValue, -2.95, 1, -4.6000000000000006E-13, -2.538E-13, 7.2599999999999953E-13
DataValue, -2.9, 1, 5.2E-13, -1.576E-13, 1.1619999999999989E-12
DataValue, -2.85, 1, 8.6000000000000007E-13, -1.376E-13, -3.2000000000000106E-13
DataValue, -2.8000000000000003, 1, 1.2500000000000001E-12, -1.896E-13, -1.1499999999999991E-12
DataValue, -2.75, 1, 9.0000000000000008E-14, -2.526E-13, -7.5999999999999939E-13
DataValue, -2.7, 1, -3.2000000000000005E-13, -2.656E-13, 4.3399999999999956E-13
DataValue, -2.65, 1, -2.6E-13, -2.092E-13, -7.2000000000000034E-14
DataValue, -2.6, 1, -1.6000000000000003E-13, -2.728E-13, -9.46000000000003E-13
DataValue, -2.5500000000000003, 1, 2.3000000000000003E-13, -3.038E-13, -1.18E-13
DataValue, -2.5, 1, -2.7E-13, -2.846E-13, 9.1999999999999911E-13
DataValue, -2.45, 1, 2.0000000000000003E-14, -2.118E-13, 1.2799999999999993E-13
DataValue, -2.4, 1, 5.3000000000000006E-13, -2.718E-13, -6.7999999999999932E-13
DataValue, -2.35, 1, -2.0000000000000003E-14, -2.798E-13, -8.8000000000000042E-14
DataValue, -2.3000000000000003, 1, 1.2000000000000002E-13, -2.806E-13, 8.599999999999976E-14
DataValue, -2.25, 1, 0, -2.712E-13, -1.2400000000000018E-13
DataValue, -2.2, 1, 8.6000000000000007E-13, -2.93E-13, -1.779999999999997E-13
DataValue, -2.15, 1, 3.0000000000000005E-14, -2.89E-13, 3.54E-13
DataValue, -2.1, 1, -2.8E-13, -2.576E-13, 6.7399999999999935E-13
DataValue, -2.05, 1, 1.08E-12, -2.2159999999999999E-13, 1.125999999999999E-12
DataValue, -2, 1, 1.21E-12, -1.45E-13, -4.1800000000000089E-13
DataValue, -1.95, 1, 1.27E-12, -2.634E-13, -1.4320000000000018E-12
DataValue, -1.9000000000000001, 1, 2.6E-13, -2.8819999999999997E-13, -4.520000000000006E-13
DataValue, -1.85, 1, 4.2000000000000003E-13, -3.086E-13, 5.9999999999999946E-13
DataValue, -1.8, 1, -3.1000000000000004E-13, -2.282E-13, 7.3199999999999971E-13
DataValue, -1.75, 1, -3.0000000000000005E-14, -2.354E-13, -7.3799999999999938E-13
DataValue, -1.7, 1, 3.2000000000000005E-13, -3.02E-13, -5.2600000000000069E-13
DataValue, -1.6500000000000001, 1, -1.7E-13, -2.88E-13, 2.6400000000000004E-13
DataValue, -1.6, 1, -2.4000000000000004E-13, -2.756E-13, -6.3999999999999967E-14
DataValue, -1.55, 1, 5.9E-13, -2.944E-13, -2.3999999999999674E-14
DataValue, -1.5, 1, 6.0000000000000007E-13, -2.78E-13, 2.3799999999999989E-13
DataValue, -1.45, 1, -3.2000000000000005E-13, -2.706E-13, -2.1200000000000028E-13
DataValue, -1.4000000000000001, 1, -2.3000000000000003E-13, -2.992E-13, -4.4000000000000172E-14
DataValue, -1.35, 1, 3.5E-13, -2.75E-13, -3.4000000000000126E-14
DataValue, -1.3, 1, 2.6E-13, -3.026E-13, 1.959999999999997E-13
DataValue, -1.25, 1, -3.8000000000000005E-13, -2.554E-13, 1.2399999999999967E-13
DataValue, -1.2, 1, 8.0000000000000013E-14, -2.902E-13, -4.4800000000000031E-13
DataValue, -1.1500000000000001, 1, 3.2000000000000005E-13, -3.0019999999999997E-13, 4.1400000000000061E-13
DataValue, -1.1, 1, 6.0000000000000009E-14, -2.488E-13, 9.7799999999999886E-13
DataValue, -1.05, 1, 9.7000000000000011E-13, -2.024E-13, -8.0199999999999931E-13
DataValue, -1, 1, 4.9E-13, -3.29E-13, -9.999999999999959E-15
DataValue, -0.95000000000000007, 1, -5.3000000000000006E-13, -2.034E-13, 3.3000000000000016E-13
DataValue, -0.9, 1, 1.12E-12, -2.96E-13, -9.219999999999989E-13
DataValue, -0.85, 1, 7.3E-13, -2.9559999999999997E-13, 4.8800000000000014E-13
DataValue, -0.8, 1, -3.1000000000000004E-13, -2.472E-13, 6.5199999999999975E-13
DataValue, -0.75, 1, -6.0000000000000009E-14, -2.304E-13, -5.8000000000000015E-13
DataValue, -0.70000000000000007, 1, -1.7E-13, -3.052E-13, -6.6200000000000021E-13
DataValue, -0.65, 1, 3.2000000000000005E-13, -2.966E-13, 5.199999999999998E-13
DataValue, -0.6, 1, -2.5E-13, -2.5319999999999997E-13, 1.3040000000000005E-12
DataValue, -0.55, 1, 1.1100000000000001E-12, -1.662E-13, -5.0000000000000049E-13
DataValue, -0.5, 1, 5.1E-13, -3.032E-13, -6.4399999999999988E-13
DataValue, -0.45, 1, -2.3000000000000003E-13, -2.306E-13, 2.6640000000000008E-12
DataValue, -0.4, 1, 2.8E-13, -3.68E-14, 7.3240000000000023E-12
DataValue, -0.35000000000000003, 1, 4.3000000000000004E-13, 5.0179999999999994E-13, 3.0239999999999991E-11
DataValue, -0.3, 1, -1.5000000000000002E-13, 2.9872E-12, 1.0540799999999996E-10
DataValue, -0.25, 1, 1.1900000000000002E-12, 1.10426E-11, 3.1227200000000007E-10
DataValue, -0.2, 1, 1.46E-12, 3.42144E-11, 7.6413199999999994E-10
DataValue, -0.15, 1, -6.0000000000000009E-14, 8.7455799999999993E-11, 1.487856E-09
DataValue, -0.1, 1, 6.0000000000000009E-14, 1.8300000000000001E-10, 2.3882420000000007E-09
DataValue, -0.05, 1, -2.1000000000000001E-13, 3.2628000000000004E-10, 3.3866000000000003E-09
DataValue, 0, 1, 1E-13, 5.2166E-10, 4.3984E-09
DataValue, 0.05, 1, 7.5E-13, 7.6612E-10, 5.4112999999999993E-09
DataValue, 0.1, 1, 1E-12, 1.06279E-09, 6.4388000000000014E-09
DataValue, 0.15, 1, -6.3E-13, 1.41E-09, 7.5400999999999988E-09
DataValue, 0.2, 1, -3.4E-13, 1.8168E-09, 8.6129999999999958E-09
DataValue, 0.25, 1, 3.9000000000000005E-13, 2.2713E-09, 9.615E-09
DataValue, 0.3, 1, 1.2000000000000001E-12, 2.7783E-09, 1.0663E-08
DataValue, 0.35000000000000003, 1, 1.1600000000000001E-12, 3.3376E-09, 1.1727E-08
DataValue, 0.4, 1, 1.31E-12, 3.951E-09, 1.2786E-08
DataValue, 0.45, 1, 1.9000000000000002E-13, 4.6162E-09, 1.3858000000000002E-08
DataValue, 0.5, 1, -3.8000000000000005E-13, 5.3368E-09, 1.4939E-08
DataValue, 0.55, 1, -3.2000000000000005E-13, 6.1101E-09, 1.6031000000000003E-08
DataValue, 0.6, 1, 3.5E-13, 6.9399E-09, 1.7123000000000007E-08
DataValue, 0.65, 1, 8.5000000000000011E-13, 7.8224E-09, 1.8193999999999991E-08
DataValue, 0.70000000000000007, 1, 1.17E-12, 8.7593E-09, 1.9469999999999995E-08
DataValue, 0.75, 1, 1.3800000000000002E-12, 9.7694E-09, 2.0533000000000003E-08
DataValue, 0.8, 1, 6.3E-13, 1.08126E-08, 2.1426E-08
DataValue, 0.85, 1, 3.0000000000000005E-14, 1.1912E-08, 2.2473999999999993E-08
DataValue, 0.9, 1, 9.4E-13, 1.3059999999999999E-08, 2.3441999999999966E-08
DataValue, 0.95000000000000007, 1, 1.23E-12, 1.4256199999999998E-08, 2.4384000000000008E-08
DataValue, 1, 1, 9.1000000000000016E-13, 1.54984E-08, 2.5308000000000027E-08
DataValue, 1.05, 1, 7.7000000000000005E-13, 1.6787E-08, 2.604799999999996E-08
DataValue, 1.1, 1, 6.8E-13, 1.8103199999999998E-08, 2.6533999999999968E-08
DataValue, 1.1500000000000001, 1, 8.6000000000000007E-13, 1.94404E-08, 2.7062000000000024E-08
DataValue, 1.2, 1, 1.21E-12, 2.0809399999999996E-08, 2.7524000000000025E-08
DataValue, 1.25, 1, 1.02E-12, 2.2192799999999998E-08, 2.7764000000000006E-08
DataValue, 1.3, 1, 7.2000000000000006E-13, 2.35858E-08, 2.8185999999999959E-08
DataValue, 1.35, 1, 7.6000000000000009E-13, 2.5011399999999997E-08, 2.8439999999999962E-08
DataValue, 1.4000000000000001, 1, 9.2000000000000012E-13, 2.6429799999999998E-08, 2.8312000000000052E-08
DataValue, 1.45, 1, 7.3E-13, 2.7842599999999998E-08, 2.8524000000000034E-08
DataValue, 1.5, 1, 6.7000000000000007E-13, 2.9282199999999998E-08, 2.8719999999999982E-08
DataValue, 1.55, 1, 2.9000000000000003E-13, 3.07146E-08, 2.8571999999999953E-08
DataValue, 1.6, 1, 7.9000000000000007E-13, 3.2139399999999996E-08, 2.8805999999999934E-08
DataValue, 1.6500000000000001, 1, 5.2E-13, 3.3595199999999995E-08, 2.9168000000000053E-08
DataValue, 1.7, 1, 6.6E-13, 3.50562E-08, 2.9280000000000087E-08
DataValue, 1.75, 1, 4.7E-13, 3.65232E-08, 2.9393999999999965E-08
DataValue, 1.8, 1, 4.3000000000000004E-13, 3.7995599999999996E-08, 2.9489999999999929E-08
DataValue, 1.85, 1, 1E-13, 3.9472199999999995E-08, 2.9797999999999973E-08
DataValue, 1.9000000000000001, 1, 3.4E-13, 4.0975399999999996E-08, 3.0048000000000058E-08
DataValue, 1.95, 1, 2.3000000000000003E-13, 4.2477E-08, 3.002600000000006E-08
DataValue, 2, 1, 3.7000000000000004E-13, 4.3978E-08, 2.9946000000000035E-08
DataValue, 2.05, 1, 2E-13, 4.54716E-08, 2.9977999999999913E-08
DataValue, 2.1, 1, 3.0000000000000005E-14, 4.6975799999999992E-08, 3.0245999999999978E-08
DataValue, 2.15, 1, -1.1000000000000001E-13, 4.84962E-08, 3.0387999999999981E-08
DataValue, 2.2, 1, -3.2000000000000005E-13, 5.0014599999999993E-08, 3.0367999999999958E-08
DataValue, 2.25, 1, -3.9000000000000005E-13, 5.1532999999999996E-08, 3.0572000000000004E-08
DataValue, 2.3000000000000003, 1, -4.0000000000000006E-14, 5.3071799999999996E-08, 3.0681999999999996E-08
DataValue, 2.35, 1, -2.2000000000000002E-13, 5.46012E-08, 3.0678000000000111E-08
DataValue, 2.4, 1, -3.3E-13, 5.6139599999999997E-08, 3.106399999999994E-08
DataValue, 2.45, 1, -4.4000000000000004E-13, 5.7707599999999995E-08, 3.1201999999999924E-08
DataValue, 2.5, 1, -5.2E-13, 5.9259799999999992E-08, 3.112799999999996E-08
DataValue, 2.5500000000000003, 1, -1.2000000000000002E-13, 6.0820399999999993E-08, 3.1181999999999968E-08
DataValue, 2.6, 1, -2.5E-13, 6.2377999999999991E-08, 3.1294000000000075E-08
DataValue, 2.65, 1, 2.2000000000000002E-13, 6.3949799999999989E-08, 3.1350000000000052E-08
DataValue, 2.7, 1, 4.0000000000000006E-14, 6.5513E-08, 3.1286000000000033E-08
DataValue, 2.75, 1, -5E-14, 6.70784E-08, 3.14279999999999E-08
DataValue, 2.8000000000000003, 1, 9.0000000000000008E-14, 6.8655799999999992E-08, 3.1665999999999934E-08
DataValue, 2.85, 1, -1.8000000000000002E-13, 7.0244999999999991E-08, 3.16420000000001E-08
DataValue, 2.9, 1, -2.5E-13, 7.1819999999999991E-08, 3.1660000000000007E-08
DataValue, 2.95, 1, 0, 7.3411E-08, 3.1856000000000017E-08
DataValue, 3, 1, 2.3000000000000003E-13, 7.50056E-08, 3.2218000000000004E-08
DataValue, 3.0500000000000003, 1, 1.5000000000000002E-13, 7.66328E-08, 3.2201999999999933E-08
DataValue, 3.1, 1, 3.1000000000000004E-13, 7.8225799999999991E-08, 3.1928000000000079E-08
DataValue, 3.15, 1, 2.8E-13, 7.98256E-08, 3.196600000000001E-08
DataValue, 3.2, 1, 2.2000000000000002E-13, 8.14224E-08, 3.2157999999999936E-08
DataValue, 3.25, 1, 3.2000000000000005E-13, 8.3041399999999991E-08, 3.2417999999999966E-08
DataValue, 3.3000000000000003, 1, 3.6000000000000003E-13, 8.46642E-08, 3.2415999999999991E-08
DataValue, 3.35, 1, 1E-13, 8.6282999999999992E-08, 3.2396000000000107E-08
DataValue, 3.4, 1, 4.7E-13, 8.7903799999999993E-08, 3.2485999999999938E-08
DataValue, 3.45, 1, 8.8000000000000009E-13, 8.9531599999999989E-08, 3.2605999999999941E-08
DataValue, 3.5, 1, 9.2000000000000012E-13, 9.116439999999999E-08, 3.2588000000000027E-08
DataValue, 3.5500000000000003, 1, 4.4000000000000004E-13, 9.27904E-08, 3.2600000000000014E-08
DataValue, 3.6, 1, 8.5000000000000011E-13, 9.44244E-08, 3.2754000000000149E-08
DataValue, 3.65, 1, 7.5E-13, 9.60658E-08, 3.2889999999999946E-08
DataValue, 3.7, 1, 4.7E-13, 9.7713399999999991E-08, 3.2817999999999891E-08
