
SetupTitle, TFT Id-Vd
PrimitiveTest, I/V Sweep
TestParameter, Context.MainFrame, B1500A
TestParameter, Channel.UnitType, SMU, SMU, SMU
TestParameter, Channel.Unit, SMU4:HR, SMU1:HP, SMU3:HR
TestParameter, Channel.IName, Isource, Igate, Idrain
TestParameter, Channel.VName, Vsource, Vgate, Vdrain
TestParameter, Channel.Mode, V, V, V
TestParameter, Channel.Func, CONST, VAR2, VAR1
TestParameter, Channel.Index, 
TestParameter, Channel.Time, 
TestParameter, Measurement.Port.Unit, SMU4:HR, SMU1:HP, SMU3:HR
TestParameter, Measurement.Port.SeriesResistor, NONE, NONE, NONE
TestParameter, Measurement.Port.Filter, ON, ON, ON
TestParameter, Measurement.Port.OutputVoltageComparison, 0, 0, 0
TestParameter, Measurement.Primary.Locus, Single
TestParameter, Measurement.Primary.Scale, LINEAR
TestParameter, Measurement.Primary.Start, 0
TestParameter, Measurement.Primary.Stop, 15
TestParameter, Measurement.Primary.Step, 0.05
TestParameter, Measurement.Primary.Compliance, 0.01
TestParameter, Measurement.Primary.PowerCompliance, 0
TestParameter, Measurement.Aborting.Condition, CONTINUE AT ANY
TestParameter, Measurement.PostOutput.Value, START
TestParameter, Measurement.PostOutput.Retention, OFF
TestParameter, Measurement.Secondary.Start, 0
TestParameter, Measurement.Secondary.Count, 6
TestParameter, Measurement.Secondary.Step, 2
TestParameter, Measurement.Secondary.Compliance, 0.0001
TestParameter, Measurement.Secondary.PowerCompliance, 0
TestParameter, Measurement.Bias.Source, 0, 0, 0
TestParameter, Measurement.Bias.Compliance, 0.1, 0.0001, 0.01
TestParameter, Measurement.Monitor.Unit, SMU4:HR, SMU1:HP, SMU3:HR
TestParameter, Measurement.Monitor.Adc, HR ADC, HR ADC, HR ADC
TestParameter, Measurement.Monitor.Measurement, Compliance Side, Compliance Side, Compliance Side
TestParameter, Measurement.Monitor.RangingMode, LIMITED, LIMITED, LIMITED
TestParameter, Measurement.Monitor.RangeBoundary, 1nA, 1nA, 1nA
TestParameter, Measurement.Monitor.RangeRating, BY FULL RANGE, BY FULL RANGE, BY FULL RANGE
TestParameter, Measurement.Monitor.RangeRatingCoeff, 50, 50, 50
TestParameter, Measurement.Timing.Hold, 0
TestParameter, Measurement.Timing.Delay, 0
TestParameter, Measurement.Adc.HighSpeed.Mode, AUTO
TestParameter, Measurement.Adc.HighSpeed.Coeff, 1
TestParameter, Measurement.Adc.HighResolution.AutoZero, OFF
TestParameter, Measurement.Adc.HighResolution.Mode, AUTO
TestParameter, Measurement.Adc.HighResolution.Coeff, 6
TestParameter, Measurement.WaitTime.Source.Coeff, 1
TestParameter, Measurement.WaitTime.Source.Offset, 0
TestParameter, Measurement.WaitTime.Monitor.Coeff, 1
TestParameter, Measurement.WaitTime.Monitor.Offset, 0
TestParameter, Output.Graph.Enabled, true
TestParameter, Output.Graph.XAxis.Data, Vdrain
TestParameter, Output.Graph.XAxis.Scale, Linear
TestParameter, Output.Graph.XAxis.Left, 0
TestParameter, Output.Graph.XAxis.Right, 10
TestParameter, Output.Graph.YAxis.Data, Idrain
TestParameter, Output.Graph.YAxis.Scale, Linear
TestParameter, Output.Graph.YAxis.Bottom, 0
TestParameter, Output.Graph.YAxis.Top, 0.1
TestParameter, Output.Graph.YAxis.Group, 
TestParameter, Output.List.Data, Vgate, Vdrain, Vsource, Igate, Idrain, Isource
TestParameter, AutoAnalysis.Interpolation, false
TestParameter, AutoAnalysis.Line1.Enabled, false
TestParameter, AutoAnalysis.Line1.Type, 1
TestParameter, AutoAnalysis.Line1.Fix, True
TestParameter, AutoAnalysis.Line1.YAxis, 0
TestParameter, AutoAnalysis.Line1.Point1.Type, 0
TestParameter, AutoAnalysis.Line1.Point1.XY.X, 
TestParameter, AutoAnalysis.Line1.Point1.XY.Y, 
TestParameter, AutoAnalysis.Line1.Point1.Data.Var, 
TestParameter, AutoAnalysis.Line1.Point1.Data.Condition, 
TestParameter, AutoAnalysis.Line1.Point1.Data.Start, false
TestParameter, AutoAnalysis.Line1.Point1.Data.StartVar, 
TestParameter, AutoAnalysis.Line1.Point1.Data.StartCondition, 
TestParameter, AutoAnalysis.Line1.Point2.Type, 0
TestParameter, AutoAnalysis.Line1.Point2.XY.X, 
TestParameter, AutoAnalysis.Line1.Point2.XY.Y, 
TestParameter, AutoAnalysis.Line1.Point2.Data.Var, 
TestParameter, AutoAnalysis.Line1.Point2.Data.Condition, 
TestParameter, AutoAnalysis.Line1.Point2.Data.Start, false
TestParameter, AutoAnalysis.Line1.Point2.Data.StartVar, 
TestParameter, AutoAnalysis.Line1.Point2.Data.StartCondition, 
TestParameter, AutoAnalysis.Line1.GradientExpr, 0
TestParameter, AutoAnalysis.Line2.Enabled, false
TestParameter, AutoAnalysis.Line2.Type, 1
TestParameter, AutoAnalysis.Line2.Fix, True
TestParameter, AutoAnalysis.Line2.YAxis, 0
TestParameter, AutoAnalysis.Line2.Point1.Type, 0
TestParameter, AutoAnalysis.Line2.Point1.XY.X, 
TestParameter, AutoAnalysis.Line2.Point1.XY.Y, 
TestParameter, AutoAnalysis.Line2.Point1.Data.Var, 
TestParameter, AutoAnalysis.Line2.Point1.Data.Condition, 
TestParameter, AutoAnalysis.Line2.Point1.Data.Start, false
TestParameter, AutoAnalysis.Line2.Point1.Data.StartVar, 
TestParameter, AutoAnalysis.Line2.Point1.Data.StartCondition, 
TestParameter, AutoAnalysis.Line2.Point2.Type, 0
TestParameter, AutoAnalysis.Line2.Point2.XY.X, 
TestParameter, AutoAnalysis.Line2.Point2.XY.Y, 
TestParameter, AutoAnalysis.Line2.Point2.Data.Var, 
TestParameter, AutoAnalysis.Line2.Point2.Data.Condition, 
TestParameter, AutoAnalysis.Line2.Point2.Data.Start, false
TestParameter, AutoAnalysis.Line2.Point2.Data.StartVar, 
TestParameter, AutoAnalysis.Line2.Point2.Data.StartCondition, 
TestParameter, AutoAnalysis.Line2.GradientExpr, 0
TestParameter, AutoAnalysis.Marker.Enabled, false
TestParameter, AutoAnalysis.Marker.Data.Var, 
TestParameter, AutoAnalysis.Marker.Data.Condition, 
TestParameter, AutoAnalysis.Marker.Data.Start, false
TestParameter, AutoAnalysis.Marker.Data.StartVar, 
TestParameter, AutoAnalysis.Marker.Data.StartCondition, 
MetaData, TestRecord.EntryPoint, true
MetaData, TestRecord.RecordTime, 11/10/2017 10:33:23
MetaData, TestRecord.TestTarget, 100um_50um
MetaData, TestRecord.IterationIndex, 1
MetaData, TestRecord.Preservation, true
MetaData, TestRecord.Flag, 
MetaData, TestRecord.Remarks, 
MetaData, TestRecord.LinkKey, e033f85e-7d69-45a8-aeba-09a35822a309
Dimension1, 301, 301, 301, 301, 301, 301
Dimension2, 6, 6, 6, 6, 6, 6
DataName, Vdrain, Vgate, Vsource, Isource, Igate, Idrain
DataValue, 0, 0, 0, -1.9780000000000002E-11, 3.9000000000000005E-13, 1.9310000000000002E-11
DataValue, 0.05, 0, 0, -2.9101E-09, 7.8000000000000011E-13, 2.9103E-09
DataValue, 0.1, 0, 0, -4.7646E-09, -4.4000000000000004E-13, 4.7646E-09
DataValue, 0.15, 0, 0, -5.8016E-09, 2.2000000000000002E-13, 5.8016E-09
DataValue, 0.2, 0, 0, -6.3034E-09, 9.7000000000000011E-13, 6.303E-09
DataValue, 0.25, 0, 0, -6.5145E-09, 1.17E-12, 6.5163E-09
DataValue, 0.3, 0, 0, -6.6068E-09, 8.1000000000000008E-13, 6.6074E-09
DataValue, 0.35000000000000003, 0, 0, -6.6557E-09, -1.4E-13, 6.6539E-09
DataValue, 0.4, 0, 0, -6.6846E-09, -3.7000000000000004E-13, 6.6831E-09
DataValue, 0.45, 0, 0, -6.7046E-09, 5E-14, 6.7038E-09
DataValue, 0.5, 0, 0, -6.7208E-09, 9.2000000000000012E-13, 6.7219E-09
DataValue, 0.55, 0, 0, -6.7356E-09, 1.5200000000000002E-12, 6.7374E-09
DataValue, 0.6, 0, 0, -6.749E-09, 9.7000000000000011E-13, 6.7513E-09
DataValue, 0.65, 0, 0, -6.7604E-09, 1.2000000000000002E-13, 6.7598E-09
DataValue, 0.70000000000000007, 0, 0, -6.7703E-09, -2.3000000000000003E-13, 6.7704E-09
DataValue, 0.75, 0, 0, -6.7806E-09, 3.1000000000000004E-13, 6.7788E-09
DataValue, 0.8, 0, 0, -6.7873E-09, 9.1000000000000016E-13, 6.789E-09
DataValue, 0.85, 0, 0, -6.7983E-09, 1.36E-12, 6.799E-09
DataValue, 0.9, 0, 0, -6.8063E-09, 6.0000000000000007E-13, 6.8072E-09
DataValue, 0.95000000000000007, 0, 0, -6.8156E-09, 1.9000000000000002E-13, 6.8157E-09
DataValue, 1, 0, 0, -6.8251E-09, -4.9E-13, 6.8244E-09
DataValue, 1.05, 0, 0, -6.833E-09, -2.3000000000000003E-13, 6.8317E-09
DataValue, 1.1, 0, 0, -6.8393E-09, 2.8E-13, 6.8385E-09
DataValue, 1.1500000000000001, 0, 0, -6.8478E-09, 8.300000000000001E-13, 6.8481E-09
DataValue, 1.2, 0, 0, -6.8542E-09, 1.2900000000000002E-12, 6.8544E-09
DataValue, 1.25, 0, 0, -6.8618E-09, 2.3000000000000003E-13, 6.8628E-09
DataValue, 1.3, 0, 0, -6.8687E-09, 1E-13, 6.8664E-09
DataValue, 1.35, 0, 0, -6.8751999999999996E-09, -4.6000000000000006E-13, 6.8747E-09
DataValue, 1.4000000000000001, 0, 0, -6.8837E-09, 6.1E-13, 6.8838E-09
DataValue, 1.45, 0, 0, -6.8878E-09, 8.9E-13, 6.8885E-09
DataValue, 1.5, 0, 0, -6.8936E-09, 1.36E-12, 6.8941E-09
DataValue, 1.55, 0, 0, -6.9023E-09, 2.8E-13, 6.9036E-09
DataValue, 1.6, 0, 0, -6.9081E-09, 2.9000000000000003E-13, 6.909E-09
DataValue, 1.6500000000000001, 0, 0, -6.9172E-09, -2.5E-13, 6.9163E-09
DataValue, 1.7, 0, 0, -6.9238E-09, 5.6E-13, 6.9238E-09
DataValue, 1.75, 0, 0, -6.9319E-09, 1.1600000000000001E-12, 6.9322E-09
DataValue, 1.8, 0, 0, -6.9377E-09, 1.0100000000000001E-12, 6.9385E-09
DataValue, 1.85, 0, 0, -6.9453E-09, 2.1000000000000001E-13, 6.9447E-09
DataValue, 1.9000000000000001, 0, 0, -6.9518E-09, -1.2000000000000002E-13, 6.9527E-09
DataValue, 1.95, 0, 0, -6.9587E-09, -4.4000000000000004E-13, 6.9565E-09
DataValue, 2, 0, 0, -6.9658E-09, 1E-13, 6.9627E-09
DataValue, 2.05, 0, 0, -6.9702E-09, 9.8E-13, 6.9716E-09
DataValue, 2.1, 0, 0, -6.9779E-09, 1.2500000000000001E-12, 6.98E-09
DataValue, 2.15, 0, 0, -6.9855E-09, 3.9000000000000005E-13, 6.986E-09
DataValue, 2.2, 0, 0, -6.9924E-09, -2.4000000000000004E-13, 6.9928E-09
DataValue, 2.25, 0, 0, -7.0014E-09, 0, 6.9998E-09
DataValue, 2.3000000000000003, 0, 0, -7.0099E-09, 4.2000000000000003E-13, 7.0093E-09
DataValue, 2.35, 0, 0, -7.0157E-09, 1.51E-12, 7.0169E-09
DataValue, 2.4, 0, 0, -7.0238E-09, 1.59E-12, 7.0248E-09
DataValue, 2.45, 0, 0, -7.031E-09, 8.8000000000000009E-13, 7.0307E-09
DataValue, 2.5, 0, 0, -7.038E-09, 4E-13, 7.0391E-09
DataValue, 2.5500000000000003, 0, 0, -7.0469E-09, -3.8000000000000005E-13, 7.0464E-09
DataValue, 2.6, 0, 0, -7.0554E-09, 4.2000000000000003E-13, 7.0537E-09
DataValue, 2.65, 0, 0, -7.0606E-09, 9.000000000000001E-13, 7.0605E-09
DataValue, 2.7, 0, 0, -7.0677E-09, 1.1000000000000002E-12, 7.0693E-09
DataValue, 2.75, 0, 0, -7.0737E-09, 7.4000000000000008E-13, 7.0748E-09
DataValue, 2.8000000000000003, 0, 0, -7.0841E-09, -1.3E-13, 7.0843E-09
DataValue, 2.85, 0, 0, -7.0919E-09, -7.7000000000000005E-13, 7.0911E-09
DataValue, 2.9, 0, 0, -7.0988E-09, -2.0000000000000003E-14, 7.098E-09
DataValue, 2.95, 0, 0, -7.1036E-09, 7.100000000000001E-13, 7.1034E-09
DataValue, 3, 0, 0, -7.11E-09, 1.5E-12, 7.109E-09
DataValue, 3.0500000000000003, 0, 0, -7.1173E-09, 7.5E-13, 7.1191E-09
DataValue, 3.1, 0, 0, -7.1265E-09, 1.1000000000000001E-13, 7.1262E-09
DataValue, 3.15, 0, 0, -7.1336E-09, -1.5000000000000002E-13, 7.1331E-09
DataValue, 3.2, 0, 0, -7.1405E-09, -2.1000000000000001E-13, 7.1398E-09
DataValue, 3.25, 0, 0, -7.1484E-09, 1.3900000000000001E-12, 7.1485E-09
DataValue, 3.3000000000000003, 0, 0, -7.1576E-09, 1.4E-12, 7.1576E-09
DataValue, 3.35, 0, 0, -7.1656E-09, 6.1E-13, 7.1668E-09
DataValue, 3.4, 0, 0, -7.1704E-09, 2.4000000000000004E-13, 7.1693E-09
DataValue, 3.45, 0, 0, -7.1785E-09, -4.2000000000000003E-13, 7.179E-09
DataValue, 3.5, 0, 0, -7.1854E-09, 4.4000000000000004E-13, 7.1848E-09
DataValue, 3.5500000000000003, 0, 0, -7.1927E-09, 7.2000000000000006E-13, 7.1953E-09
DataValue, 3.6, 0, 0, -7.1994E-09, 1.3400000000000002E-12, 7.1997E-09
DataValue, 3.65, 0, 0, -7.2105E-09, 1.08E-12, 7.2102E-09
DataValue, 3.7, 0, 0, -7.2172E-09, 7E-14, 7.2167E-09
DataValue, 3.75, 0, 0, -7.2242E-09, -5.4E-13, 7.2243E-09
DataValue, 3.8000000000000003, 0, 0, -7.2307E-09, -2.0000000000000003E-14, 7.2299E-09
DataValue, 3.85, 0, 0, -7.2396E-09, 7.2000000000000006E-13, 7.2393E-09
DataValue, 3.9, 0, 0, -7.245E-09, 1.17E-12, 7.2459E-09
DataValue, 3.95, 0, 0, -7.254E-09, 7E-13, 7.2541E-09
DataValue, 4, 0, 0, -7.2592E-09, -1.8000000000000002E-13, 7.2577E-09
DataValue, 4.05, 0, 0, -7.2661E-09, -2.4000000000000004E-13, 7.2668E-09
DataValue, 4.1, 0, 0, -7.2771E-09, 1.8000000000000002E-13, 7.2765E-09
DataValue, 4.15, 0, 0, -7.2853E-09, 7.6000000000000009E-13, 7.2844E-09
DataValue, 4.2, 0, 0, -7.291E-09, 1.2500000000000001E-12, 7.2924E-09
DataValue, 4.25, 0, 0, -7.299E-09, 8.4000000000000006E-13, 7.2992E-09
DataValue, 4.3, 0, 0, -7.3058E-09, 3.8000000000000005E-13, 7.3051E-09
DataValue, 4.3500000000000005, 0, 0, -7.3125E-09, 1.2000000000000002E-13, 7.3118E-09
DataValue, 4.4, 0, 0, -7.3205E-09, 3.0000000000000003E-13, 7.3188E-09
DataValue, 4.45, 0, 0, -7.3279E-09, 8.7E-13, 7.3295E-09
DataValue, 4.5, 0, 0, -7.3364E-09, 1.41E-12, 7.3378E-09
DataValue, 4.55, 0, 0, -7.3426E-09, 6.8E-13, 7.3437E-09
DataValue, 4.6000000000000005, 0, 0, -7.3513E-09, 2.4000000000000004E-13, 7.3499E-09
DataValue, 4.65, 0, 0, -7.3557E-09, -3.7000000000000004E-13, 7.3548E-09
DataValue, 4.7, 0, 0, -7.3643E-09, -1.4E-13, 7.3635E-09
DataValue, 4.75, 0, 0, -7.3703E-09, 8.300000000000001E-13, 7.3701E-09
DataValue, 4.8, 0, 0, -7.377E-09, 1.12E-12, 7.3777E-09
DataValue, 4.8500000000000005, 0, 0, -7.3848E-09, 4.7E-13, 7.3861E-09
DataValue, 4.9, 0, 0, -7.3916E-09, -2.0000000000000003E-14, 7.3903E-09
DataValue, 4.95, 0, 0, -7.3979E-09, -7.3E-13, 7.3968E-09
DataValue, 5, 0, 0, -7.4052E-09, 1.5000000000000002E-13, 7.4034E-09
DataValue, 5.05, 0, 0, -7.4119E-09, 7.2000000000000006E-13, 7.413E-09
DataValue, 5.1000000000000005, 0, 0, -7.4228E-09, 1.2400000000000002E-12, 7.4228E-09
DataValue, 5.15, 0, 0, -7.4292E-09, 9.9E-13, 7.4297E-09
DataValue, 5.2, 0, 0, -7.4358E-09, 5.3000000000000006E-13, 7.4359E-09
DataValue, 5.25, 0, 0, -7.443E-09, -1.9000000000000002E-13, 7.4436E-09
DataValue, 5.3, 0, 0, -7.4525E-09, -3.0000000000000005E-14, 7.4508E-09
DataValue, 5.3500000000000005, 0, 0, -7.459E-09, 5.5000000000000008E-13, 7.4592E-09
DataValue, 5.4, 0, 0, -7.4665E-09, 1.2500000000000001E-12, 7.4668E-09
DataValue, 5.45, 0, 0, -7.4763E-09, 1.02E-12, 7.477E-09
DataValue, 5.5, 0, 0, -7.4805999999999992E-09, 3.1000000000000004E-13, 7.4805999999999992E-09
DataValue, 5.55, 0, 0, -7.4893E-09, -4.9E-13, 7.4883E-09
DataValue, 5.6000000000000005, 0, 0, -7.4973E-09, -2.2000000000000002E-13, 7.4966E-09
DataValue, 5.65, 0, 0, -7.5043E-09, 3.2000000000000005E-13, 7.5041E-09
DataValue, 5.7, 0, 0, -7.5105E-09, 9.8E-13, 7.5118E-09
DataValue, 5.75, 0, 0, -7.5201E-09, 1.02E-12, 7.5224E-09
DataValue, 5.8, 0, 0, -7.5255E-09, 1.2000000000000002E-13, 7.5267E-09
DataValue, 5.8500000000000005, 0, 0, -7.5382E-09, 7E-14, 7.5365E-09
DataValue, 5.9, 0, 0, -7.5441E-09, -3.6000000000000003E-13, 7.5442E-09
DataValue, 5.95, 0, 0, -7.5503E-09, 8E-13, 7.5502E-09
DataValue, 6, 0, 0, -7.5575E-09, 1.0600000000000001E-12, 7.5592E-09
DataValue, 6.05, 0, 0, -7.5629E-09, 1.4700000000000002E-12, 7.5644E-09
DataValue, 6.1000000000000005, 0, 0, -7.5706E-09, 6.0000000000000007E-13, 7.5714E-09
DataValue, 6.15, 0, 0, -7.58E-09, 5E-14, 7.5788E-09
DataValue, 6.2, 0, 0, -7.588E-09, -3.5E-13, 7.5873E-09
DataValue, 6.25, 0, 0, -7.5948E-09, 3.9000000000000005E-13, 7.5939E-09
DataValue, 6.3, 0, 0, -7.6031E-09, 8.2E-13, 7.6038E-09
DataValue, 6.3500000000000005, 0, 0, -7.609E-09, 1.1600000000000001E-12, 7.611E-09
DataValue, 6.4, 0, 0, -7.62E-09, 3.2000000000000005E-13, 7.6193E-09
DataValue, 6.45, 0, 0, -7.6264E-09, -2.0000000000000003E-14, 7.6267E-09
DataValue, 6.5, 0, 0, -7.6316E-09, -3.8000000000000005E-13, 7.6308E-09
DataValue, 6.55, 0, 0, -7.6419E-09, -4.0000000000000006E-14, 7.6414E-09
DataValue, 6.6000000000000005, 0, 0, -7.649E-09, 9.000000000000001E-13, 7.6482E-09
DataValue, 6.65, 0, 0, -7.6575E-09, 1.31E-12, 7.659E-09
DataValue, 6.7, 0, 0, -7.6647E-09, 9.8E-13, 7.667E-09
DataValue, 6.75, 0, 0, -7.6742E-09, -1E-13, 7.6737E-09
DataValue, 6.8, 0, 0, -7.6802E-09, -2.2000000000000002E-13, 7.6785E-09
DataValue, 6.8500000000000005, 0, 0, -7.6882E-09, 4E-13, 7.6878E-09
DataValue, 6.9, 0, 0, -7.6955E-09, 1.3400000000000002E-12, 7.6961E-09
DataValue, 6.95, 0, 0, -7.7047E-09, 1.5200000000000002E-12, 7.7054E-09
DataValue, 7, 0, 0, -7.7084E-09, 9.7000000000000011E-13, 7.7101E-09
DataValue, 7.05, 0, 0, -7.7169E-09, 1.6000000000000003E-13, 7.7175E-09
DataValue, 7.1000000000000005, 0, 0, -7.7233E-09, -4.9E-13, 7.7225E-09
DataValue, 7.15, 0, 0, -7.7298E-09, -3.1000000000000004E-13, 7.7294E-09
DataValue, 7.2, 0, 0, -7.7396E-09, 4.4000000000000004E-13, 7.7401E-09
DataValue, 7.25, 0, 0, -7.7452E-09, 1.2500000000000001E-12, 7.7455E-09
DataValue, 7.3, 0, 0, -7.7501E-09, 7.6000000000000009E-13, 7.7509E-09
DataValue, 7.3500000000000005, 0, 0, -7.7606E-09, 2.4000000000000004E-13, 7.7633E-09
DataValue, 7.4, 0, 0, -7.7706E-09, -3.1000000000000004E-13, 7.7694E-09
DataValue, 7.45, 0, 0, -7.7806E-09, -4.6000000000000006E-13, 7.7792E-09
DataValue, 7.5, 0, 0, -7.7858E-09, 4.8000000000000008E-13, 7.785E-09
DataValue, 7.55, 0, 0, -7.7902E-09, 1.02E-12, 7.7931E-09
DataValue, 7.6000000000000005, 0, 0, -7.8003E-09, 1.3800000000000002E-12, 7.8007E-09
DataValue, 7.65, 0, 0, -7.807E-09, 4.1E-13, 7.8065E-09
DataValue, 7.7, 0, 0, -7.8166E-09, -1.8000000000000002E-13, 7.8149E-09
DataValue, 7.75, 0, 0, -7.8219E-09, 5E-14, 7.8217E-09
DataValue, 7.8, 0, 0, -7.8304E-09, 9.1000000000000016E-13, 7.8296E-09
DataValue, 7.8500000000000005, 0, 0, -7.8368E-09, 1.4300000000000002E-12, 7.8384E-09
DataValue, 7.9, 0, 0, -7.8444E-09, 1.45E-12, 7.8443E-09
DataValue, 7.95, 0, 0, -7.8529E-09, 3.5E-13, 7.8548E-09
DataValue, 8, 0, 0, -7.8619E-09, -3.1000000000000004E-13, 7.8617E-09
DataValue, 8.05, 0, 0, -7.8699E-09, -7E-14, 7.8678E-09
DataValue, 8.1, 0, 0, -7.8762E-09, 7E-13, 7.8737E-09
DataValue, 8.15, 0, 0, -7.8826E-09, 1.45E-12, 7.8813E-09
DataValue, 8.2, 0, 0, -7.8893E-09, 8E-13, 7.8906E-09
DataValue, 8.25, 0, 0, -7.897E-09, 7E-14, 7.8973E-09
DataValue, 8.3, 0, 0, -7.9044E-09, -5.7E-13, 7.9038E-09
DataValue, 8.35, 0, 0, -7.9119E-09, -2.1000000000000001E-13, 7.9111E-09
DataValue, 8.4, 0, 0, -7.9203E-09, 9.6000000000000015E-13, 7.9208E-09
DataValue, 8.45, 0, 0, -7.9277E-09, 1.1000000000000002E-12, 7.9268E-09
DataValue, 8.5, 0, 0, -7.9349E-09, 9.7000000000000011E-13, 7.9369E-09
DataValue, 8.55, 0, 0, -7.9432E-09, 1.8000000000000002E-13, 7.9441E-09
DataValue, 8.6, 0, 0, -7.9519E-09, -2.8E-13, 7.9491E-09
DataValue, 8.65, 0, 0, -7.9588E-09, 4.0000000000000006E-14, 7.9583E-09
DataValue, 8.7000000000000011, 0, 0, -7.9679E-09, 8.1000000000000008E-13, 7.9683E-09
DataValue, 8.75, 0, 0, -7.9756E-09, 1.3400000000000002E-12, 7.9758E-09
DataValue, 8.8, 0, 0, -7.9811E-09, 1.02E-12, 7.9819E-09
DataValue, 8.85, 0, 0, -7.9894E-09, 2.8E-13, 7.9881E-09
DataValue, 8.9, 0, 0, -7.9963E-09, -1.1000000000000001E-13, 7.9946E-09
DataValue, 8.9500000000000011, 0, 0, -8.0032E-09, 2.0000000000000003E-14, 8.0034E-09
DataValue, 9, 0, 0, -8.0094E-09, 8.9E-13, 8.01E-09
DataValue, 9.05, 0, 0, -8.0168E-09, 1.21E-12, 8.0162E-09
DataValue, 9.1, 0, 0, -8.0216E-09, 1.1000000000000002E-12, 8.0235E-09
DataValue, 9.15, 0, 0, -8.0309E-09, 4.8000000000000008E-13, 8.0321E-09
DataValue, 9.2000000000000011, 0, 0, -8.0383E-09, -3.2000000000000005E-13, 8.0412E-09
DataValue, 9.25, 0, 0, -8.0498E-09, -3.2000000000000005E-13, 8.0478E-09
DataValue, 9.3, 0, 0, -8.0582E-09, 6.1E-13, 8.059E-09
DataValue, 9.35, 0, 0, -8.065E-09, 7.100000000000001E-13, 8.0638E-09
DataValue, 9.4, 0, 0, -8.072E-09, 9.6000000000000015E-13, 8.0728E-09
DataValue, 9.4500000000000011, 0, 0, -8.0842E-09, 1.5000000000000002E-13, 8.0833E-09
DataValue, 9.5, 0, 0, -8.0896E-09, -3.6000000000000003E-13, 8.0904E-09
DataValue, 9.55, 0, 0, -8.0982E-09, -2.1000000000000001E-13, 8.0968E-09
DataValue, 9.6, 0, 0, -8.1057E-09, 5.1E-13, 8.1039E-09
DataValue, 9.65, 0, 0, -8.1088E-09, 1.45E-12, 8.1086E-09
DataValue, 9.7000000000000011, 0, 0, -8.1172E-09, 1.2000000000000001E-12, 8.1185E-09
DataValue, 9.75, 0, 0, -8.1235E-09, 6.400000000000001E-13, 8.1241E-09
DataValue, 9.8, 0, 0, -8.1328E-09, -2.6E-13, 8.132E-09
DataValue, 9.85, 0, 0, -8.1436E-09, -2E-13, 8.1421E-09
DataValue, 9.9, 0, 0, -8.1515E-09, 5.7E-13, 8.1487E-09
DataValue, 9.9500000000000011, 0, 0, -8.1591E-09, 1.37E-12, 8.1583E-09
DataValue, 10, 0, 0, -8.1672E-09, 1.4E-12, 8.1668E-09
DataValue, 10.05, 0, 0, -8.1729E-09, 5.2E-13, 8.1723E-09
DataValue, 10.1, 0, 0, -8.1826E-09, -3.1000000000000004E-13, 8.1843E-09
DataValue, 10.15, 0, 0, -8.1897E-09, -1.8000000000000002E-13, 8.1878E-09
