
SetupTitle, TFT Id-Vd
PrimitiveTest, I/V Sweep
TestParameter, Context.MainFrame, B1500A
TestParameter, Channel.UnitType, SMU, SMU, SMU
TestParameter, Channel.Unit, SMU4:HR, SMU1:HP, SMU3:HR
TestParameter, Channel.IName, Isource, Igate, Idrain
TestParameter, Channel.VName, Vsource, Vgate, Vdrain
TestParameter, Channel.Mode, V, V, V
TestParameter, Channel.Func, CONST, VAR2, VAR1
TestParameter, Channel.Index, 
TestParameter, Channel.Time, 
TestParameter, Measurement.Port.Unit, SMU4:HR, SMU1:HP, SMU3:HR
TestParameter, Measurement.Port.SeriesResistor, NONE, NONE, NONE
TestParameter, Measurement.Port.Filter, ON, ON, ON
TestParameter, Measurement.Port.OutputVoltageComparison, 0, 0, 0
TestParameter, Measurement.Primary.Locus, Single
TestParameter, Measurement.Primary.Scale, LINEAR
TestParameter, Measurement.Primary.Start, 0
TestParameter, Measurement.Primary.Stop, 15
TestParameter, Measurement.Primary.Step, 0.05
TestParameter, Measurement.Primary.Compliance, 0.01
TestParameter, Measurement.Primary.PowerCompliance, 0
TestParameter, Measurement.Aborting.Condition, CONTINUE AT ANY
TestParameter, Measurement.PostOutput.Value, START
TestParameter, Measurement.PostOutput.Retention, OFF
TestParameter, Measurement.Secondary.Start, 0
TestParameter, Measurement.Secondary.Count, 6
TestParameter, Measurement.Secondary.Step, 2
TestParameter, Measurement.Secondary.Compliance, 0.0001
TestParameter, Measurement.Secondary.PowerCompliance, 0
TestParameter, Measurement.Bias.Source, 0, 0, 0
TestParameter, Measurement.Bias.Compliance, 0.1, 0.0001, 0.01
TestParameter, Measurement.Monitor.Unit, SMU4:HR, SMU1:HP, SMU3:HR
TestParameter, Measurement.Monitor.Adc, HR ADC, HR ADC, HR ADC
TestParameter, Measurement.Monitor.Measurement, Compliance Side, Compliance Side, Compliance Side
TestParameter, Measurement.Monitor.RangingMode, LIMITED, LIMITED, LIMITED
TestParameter, Measurement.Monitor.RangeBoundary, 1nA, 1nA, 1nA
TestParameter, Measurement.Monitor.RangeRating, BY FULL RANGE, BY FULL RANGE, BY FULL RANGE
TestParameter, Measurement.Monitor.RangeRatingCoeff, 50, 50, 50
TestParameter, Measurement.Timing.Hold, 0
TestParameter, Measurement.Timing.Delay, 0
TestParameter, Measurement.Adc.HighSpeed.Mode, AUTO
TestParameter, Measurement.Adc.HighSpeed.Coeff, 1
TestParameter, Measurement.Adc.HighResolution.AutoZero, OFF
TestParameter, Measurement.Adc.HighResolution.Mode, AUTO
TestParameter, Measurement.Adc.HighResolution.Coeff, 6
TestParameter, Measurement.WaitTime.Source.Coeff, 1
TestParameter, Measurement.WaitTime.Source.Offset, 0
TestParameter, Measurement.WaitTime.Monitor.Coeff, 1
TestParameter, Measurement.WaitTime.Monitor.Offset, 0
TestParameter, Output.Graph.Enabled, true
TestParameter, Output.Graph.XAxis.Data, Vdrain
TestParameter, Output.Graph.XAxis.Scale, Linear
TestParameter, Output.Graph.XAxis.Left, 0
TestParameter, Output.Graph.XAxis.Right, 10
TestParameter, Output.Graph.YAxis.Data, Idrain
TestParameter, Output.Graph.YAxis.Scale, Linear
TestParameter, Output.Graph.YAxis.Bottom, 0
TestParameter, Output.Graph.YAxis.Top, 0.1
TestParameter, Output.Graph.YAxis.Group, 
TestParameter, Output.List.Data, Vgate, Vdrain, Vsource, Igate, Idrain, Isource
TestParameter, AutoAnalysis.Interpolation, false
TestParameter, AutoAnalysis.Line1.Enabled, false
TestParameter, AutoAnalysis.Line1.Type, 1
TestParameter, AutoAnalysis.Line1.Fix, True
TestParameter, AutoAnalysis.Line1.YAxis, 0
TestParameter, AutoAnalysis.Line1.Point1.Type, 0
TestParameter, AutoAnalysis.Line1.Point1.XY.X, 
TestParameter, AutoAnalysis.Line1.Point1.XY.Y, 
TestParameter, AutoAnalysis.Line1.Point1.Data.Var, 
TestParameter, AutoAnalysis.Line1.Point1.Data.Condition, 
TestParameter, AutoAnalysis.Line1.Point1.Data.Start, false
TestParameter, AutoAnalysis.Line1.Point1.Data.StartVar, 
TestParameter, AutoAnalysis.Line1.Point1.Data.StartCondition, 
TestParameter, AutoAnalysis.Line1.Point2.Type, 0
TestParameter, AutoAnalysis.Line1.Point2.XY.X, 
TestParameter, AutoAnalysis.Line1.Point2.XY.Y, 
TestParameter, AutoAnalysis.Line1.Point2.Data.Var, 
TestParameter, AutoAnalysis.Line1.Point2.Data.Condition, 
TestParameter, AutoAnalysis.Line1.Point2.Data.Start, false
TestParameter, AutoAnalysis.Line1.Point2.Data.StartVar, 
TestParameter, AutoAnalysis.Line1.Point2.Data.StartCondition, 
TestParameter, AutoAnalysis.Line1.GradientExpr, 0
TestParameter, AutoAnalysis.Line2.Enabled, false
TestParameter, AutoAnalysis.Line2.Type, 1
TestParameter, AutoAnalysis.Line2.Fix, True
TestParameter, AutoAnalysis.Line2.YAxis, 0
TestParameter, AutoAnalysis.Line2.Point1.Type, 0
TestParameter, AutoAnalysis.Line2.Point1.XY.X, 
TestParameter, AutoAnalysis.Line2.Point1.XY.Y, 
TestParameter, AutoAnalysis.Line2.Point1.Data.Var, 
TestParameter, AutoAnalysis.Line2.Point1.Data.Condition, 
TestParameter, AutoAnalysis.Line2.Point1.Data.Start, false
TestParameter, AutoAnalysis.Line2.Point1.Data.StartVar, 
TestParameter, AutoAnalysis.Line2.Point1.Data.StartCondition, 
TestParameter, AutoAnalysis.Line2.Point2.Type, 0
TestParameter, AutoAnalysis.Line2.Point2.XY.X, 
TestParameter, AutoAnalysis.Line2.Point2.XY.Y, 
TestParameter, AutoAnalysis.Line2.Point2.Data.Var, 
TestParameter, AutoAnalysis.Line2.Point2.Data.Condition, 
TestParameter, AutoAnalysis.Line2.Point2.Data.Start, false
TestParameter, AutoAnalysis.Line2.Point2.Data.StartVar, 
TestParameter, AutoAnalysis.Line2.Point2.Data.StartCondition, 
TestParameter, AutoAnalysis.Line2.GradientExpr, 0
TestParameter, AutoAnalysis.Marker.Enabled, false
TestParameter, AutoAnalysis.Marker.Data.Var, 
TestParameter, AutoAnalysis.Marker.Data.Condition, 
TestParameter, AutoAnalysis.Marker.Data.Start, false
TestParameter, AutoAnalysis.Marker.Data.StartVar, 
TestParameter, AutoAnalysis.Marker.Data.StartCondition, 
MetaData, TestRecord.EntryPoint, true
MetaData, TestRecord.RecordTime, 11/10/2017 10:44:28
MetaData, TestRecord.TestTarget, 50um_25um
MetaData, TestRecord.IterationIndex, 1
MetaData, TestRecord.Preservation, true
MetaData, TestRecord.Flag, 
MetaData, TestRecord.Remarks, 
MetaData, TestRecord.LinkKey, a11de84a-a4e6-439e-b990-971e4359d30f
Dimension1, 301, 301, 301, 301, 301, 301
Dimension2, 6, 6, 6, 6, 6, 6
DataName, Vdrain, Vgate, Vsource, Isource, Igate, Idrain
DataValue, 0, 0, 0, -7.770000000000001E-12, 8.8000000000000009E-13, 7.94E-12
DataValue, 0.05, 0, 0, -1.2961E-09, 2.1000000000000001E-13, 1.2982E-09
DataValue, 0.1, 0, 0, -2.0105E-09, 1.31E-12, 2.0087E-09
DataValue, 0.15, 0, 0, -2.3466E-09, 5.6E-13, 2.3477E-09
DataValue, 0.2, 0, 0, -2.493E-09, -1.6000000000000003E-13, 2.4934E-09
DataValue, 0.25, 0, 0, -2.5549E-09, -4.1E-13, 2.5558E-09
DataValue, 0.3, 0, 0, -2.5871E-09, 2.3000000000000003E-13, 2.5868E-09
DataValue, 0.35000000000000003, 0, 0, -2.6042E-09, 8.7E-13, 2.6048E-09
DataValue, 0.4, 0, 0, -2.6173E-09, 8.9E-13, 2.6155E-09
DataValue, 0.45, 0, 0, -2.6258E-09, 9.000000000000001E-13, 2.6246E-09
DataValue, 0.5, 0, 0, -2.6341E-09, -2.0000000000000003E-14, 2.6339E-09
DataValue, 0.55, 0, 0, -2.6419E-09, -2.5E-13, 2.6416E-09
DataValue, 0.6, 0, 0, -2.649E-09, 5E-14, 2.6458E-09
DataValue, 0.65, 0, 0, -2.6523E-09, 8.7E-13, 2.6529E-09
DataValue, 0.70000000000000007, 0, 0, -2.6557E-09, 1.18E-12, 2.6571E-09
DataValue, 0.75, 0, 0, -2.6627E-09, 7.6000000000000009E-13, 2.6631E-09
DataValue, 0.8, 0, 0, -2.6666E-09, 7E-14, 2.6653E-09
DataValue, 0.85, 0, 0, -2.6683E-09, 1.3E-13, 2.668E-09
DataValue, 0.9, 0, 0, -2.6705E-09, 2.2000000000000002E-13, 2.6719E-09
DataValue, 0.95000000000000007, 0, 0, -2.676E-09, 1.0600000000000001E-12, 2.6753E-09
DataValue, 1, 0, 0, -2.6805E-09, 1.31E-12, 2.6796E-09
DataValue, 1.05, 0, 0, -2.6817E-09, 9.5E-13, 2.682E-09
DataValue, 1.1, 0, 0, -2.6863E-09, 1.9000000000000002E-13, 2.6879E-09
DataValue, 1.1500000000000001, 0, 0, -2.6916E-09, -5.9E-13, 2.6891E-09
DataValue, 1.2, 0, 0, -2.6928E-09, -1.2000000000000002E-13, 2.6919E-09
DataValue, 1.25, 0, 0, -2.6946E-09, 7.4000000000000008E-13, 2.6967E-09
DataValue, 1.3, 0, 0, -2.6984E-09, 9.1000000000000016E-13, 2.7004E-09
DataValue, 1.35, 0, 0, -2.6994E-09, 8.9E-13, 2.7012E-09
DataValue, 1.4000000000000001, 0, 0, -2.7026E-09, 1.5000000000000002E-13, 2.7044E-09
DataValue, 1.45, 0, 0, -2.7076E-09, -2.9000000000000003E-13, 2.7064E-09
DataValue, 1.5, 0, 0, -2.7122E-09, 1.0000000000000002E-14, 2.7124E-09
DataValue, 1.55, 0, 0, -2.7136E-09, 6.7000000000000007E-13, 2.7123E-09
DataValue, 1.6, 0, 0, -2.7183E-09, 1.23E-12, 2.7183E-09
DataValue, 1.6500000000000001, 0, 0, -2.7191E-09, 1E-12, 2.7191E-09
DataValue, 1.7, 0, 0, -2.7236E-09, 2.6E-13, 2.7248E-09
DataValue, 1.75, 0, 0, -2.7309E-09, -4.0000000000000006E-14, 2.7295E-09
DataValue, 1.8, 0, 0, -2.7309E-09, -2.0000000000000003E-14, 2.7324E-09
DataValue, 1.85, 0, 0, -2.7352E-09, 9.7000000000000011E-13, 2.733E-09
DataValue, 1.9000000000000001, 0, 0, -2.736E-09, 1.37E-12, 2.739E-09
DataValue, 1.95, 0, 0, -2.7446E-09, 9.9E-13, 2.7438E-09
DataValue, 2, 0, 0, -2.7454E-09, 4.4000000000000004E-13, 2.7441E-09
DataValue, 2.05, 0, 0, -2.7464E-09, -9.0000000000000008E-14, 2.7452E-09
DataValue, 2.1, 0, 0, -2.7484E-09, -7E-14, 2.7486E-09
DataValue, 2.15, 0, 0, -2.75E-09, 5.3000000000000006E-13, 2.753E-09
DataValue, 2.2, 0, 0, -2.7546E-09, 1.1100000000000001E-12, 2.7553E-09
DataValue, 2.25, 0, 0, -2.7583E-09, 1.1900000000000002E-12, 2.7608E-09
DataValue, 2.3000000000000003, 0, 0, -2.7633E-09, 6.0000000000000007E-13, 2.7629E-09
DataValue, 2.35, 0, 0, -2.7652E-09, -4.6000000000000006E-13, 2.7644E-09
DataValue, 2.4, 0, 0, -2.7685E-09, -2.5E-13, 2.7652E-09
DataValue, 2.45, 0, 0, -2.7671E-09, 4.8000000000000008E-13, 2.7691E-09
DataValue, 2.5, 0, 0, -2.7714E-09, 7.5E-13, 2.7716E-09
DataValue, 2.5500000000000003, 0, 0, -2.7743E-09, 1.02E-12, 2.7754E-09
DataValue, 2.6, 0, 0, -2.7793E-09, 5.2E-13, 2.7774E-09
DataValue, 2.65, 0, 0, -2.7806E-09, -2.5E-13, 2.7832E-09
DataValue, 2.7, 0, 0, -2.7843E-09, -5.3000000000000006E-13, 2.7813E-09
DataValue, 2.75, 0, 0, -2.7878E-09, 6.3E-13, 2.787E-09
DataValue, 2.8000000000000003, 0, 0, -2.792E-09, 1E-12, 2.7902E-09
DataValue, 2.85, 0, 0, -2.7928E-09, 1.18E-12, 2.7933E-09
DataValue, 2.9, 0, 0, -2.7944E-09, 5.5000000000000008E-13, 2.7915E-09
DataValue, 2.95, 0, 0, -2.7953E-09, 1.9000000000000002E-13, 2.7978E-09
DataValue, 3, 0, 0, -2.8017E-09, -3.0000000000000005E-14, 2.8021E-09
DataValue, 3.0500000000000003, 0, 0, -2.8045E-09, 4.7E-13, 2.8034E-09
DataValue, 3.1, 0, 0, -2.8078E-09, 1.21E-12, 2.808E-09
DataValue, 3.15, 0, 0, -2.8081E-09, 1.5400000000000001E-12, 2.8086E-09
DataValue, 3.2, 0, 0, -2.8101E-09, 6.1E-13, 2.8094E-09
DataValue, 3.25, 0, 0, -2.8144E-09, -2.1000000000000001E-13, 2.813E-09
DataValue, 3.3000000000000003, 0, 0, -2.8131E-09, -7.8000000000000011E-13, 2.8149E-09
DataValue, 3.35, 0, 0, -2.8224E-09, 4.9E-13, 2.8203E-09
DataValue, 3.4, 0, 0, -2.823E-09, 9.6000000000000015E-13, 2.8235E-09
DataValue, 3.45, 0, 0, -2.8256E-09, 9.3E-13, 2.8265E-09
DataValue, 3.5, 0, 0, -2.8307E-09, 3.8000000000000005E-13, 2.8322E-09
DataValue, 3.5500000000000003, 0, 0, -2.8336E-09, -4.0000000000000006E-14, 2.8348E-09
DataValue, 3.6, 0, 0, -2.8403E-09, -2.6E-13, 2.838E-09
DataValue, 3.65, 0, 0, -2.844E-09, 1.9000000000000002E-13, 2.8446E-09
DataValue, 3.7, 0, 0, -2.8448E-09, 8.7E-13, 2.8442E-09
DataValue, 3.75, 0, 0, -2.8503E-09, 1.4200000000000002E-12, 2.8484E-09
DataValue, 3.8000000000000003, 0, 0, -2.8505E-09, 7.7000000000000005E-13, 2.85E-09
DataValue, 3.85, 0, 0, -2.8516E-09, 2.3000000000000003E-13, 2.8516E-09
DataValue, 3.9, 0, 0, -2.8535E-09, -2.4000000000000004E-13, 2.8551E-09
DataValue, 3.95, 0, 0, -2.8572E-09, 2.7E-13, 2.8562E-09
DataValue, 4, 0, 0, -2.8621E-09, 1.0500000000000002E-12, 2.863E-09
DataValue, 4.05, 0, 0, -2.8641E-09, 1.2900000000000002E-12, 2.8637E-09
DataValue, 4.1, 0, 0, -2.868E-09, 8.1000000000000008E-13, 2.8713E-09
DataValue, 4.15, 0, 0, -2.8693E-09, 4.8000000000000008E-13, 2.868E-09
DataValue, 4.2, 0, 0, -2.8765E-09, -1.4E-13, 2.8729E-09
DataValue, 4.25, 0, 0, -2.8759E-09, 6.0000000000000007E-13, 2.8758E-09
DataValue, 4.3, 0, 0, -2.8792E-09, 9.2000000000000012E-13, 2.8804E-09
DataValue, 4.3500000000000005, 0, 0, -2.8819E-09, 1.65E-12, 2.8811E-09
DataValue, 4.4, 0, 0, -2.8842E-09, 8.300000000000001E-13, 2.8844E-09
DataValue, 4.45, 0, 0, -2.8859E-09, 1.0000000000000002E-14, 2.8853E-09
DataValue, 4.5, 0, 0, -2.8922E-09, -1.9000000000000002E-13, 2.8912E-09
DataValue, 4.55, 0, 0, -2.892E-09, -4.4000000000000004E-13, 2.8938E-09
DataValue, 4.6000000000000005, 0, 0, -2.8966E-09, 5.4E-13, 2.8963E-09
DataValue, 4.65, 0, 0, -2.8985E-09, 1.1900000000000002E-12, 2.8984E-09
DataValue, 4.7, 0, 0, -2.9015E-09, 5.2E-13, 2.9031E-09
DataValue, 4.75, 0, 0, -2.9048E-09, 1E-13, 2.9087E-09
DataValue, 4.8, 0, 0, -2.9101E-09, -4.4000000000000004E-13, 2.9099E-09
DataValue, 4.8500000000000005, 0, 0, -2.913E-09, -6.0000000000000009E-14, 2.913E-09
DataValue, 4.9, 0, 0, -2.9153E-09, 6.3E-13, 2.9151E-09
DataValue, 4.95, 0, 0, -2.9204E-09, 1.26E-12, 2.918E-09
DataValue, 5, 0, 0, -2.9221E-09, 7.2000000000000006E-13, 2.9215E-09
DataValue, 5.05, 0, 0, -2.925E-09, 5.1E-13, 2.9249E-09
DataValue, 5.1000000000000005, 0, 0, -2.9276E-09, -1.0000000000000002E-14, 2.9264E-09
DataValue, 5.15, 0, 0, -2.9326E-09, 1.7E-13, 2.9304E-09
DataValue, 5.2, 0, 0, -2.9337E-09, 9.6000000000000015E-13, 2.9369E-09
DataValue, 5.25, 0, 0, -2.9345E-09, 1.0500000000000002E-12, 2.9375E-09
DataValue, 5.3, 0, 0, -2.9421E-09, 8.6000000000000007E-13, 2.9415E-09
DataValue, 5.3500000000000005, 0, 0, -2.9443E-09, 4.3000000000000004E-13, 2.9447E-09
DataValue, 5.4, 0, 0, -2.9474E-09, 6.0000000000000009E-14, 2.9461E-09
DataValue, 5.45, 0, 0, -2.9512E-09, -9.0000000000000008E-14, 2.9506E-09
DataValue, 5.5, 0, 0, -2.9515E-09, 6.7000000000000007E-13, 2.9493E-09
DataValue, 5.55, 0, 0, -2.9548E-09, 1.08E-12, 2.9579E-09
DataValue, 5.6000000000000005, 0, 0, -2.9588E-09, 1.2500000000000001E-12, 2.958E-09
DataValue, 5.65, 0, 0, -2.963E-09, 1.0000000000000002E-14, 2.9617E-09
DataValue, 5.7, 0, 0, -2.9663E-09, 7E-14, 2.9633E-09
DataValue, 5.75, 0, 0, -2.9686E-09, 1.5000000000000002E-13, 2.9681E-09
DataValue, 5.8, 0, 0, -2.9681E-09, 7E-13, 2.9696E-09
DataValue, 5.8500000000000005, 0, 0, -2.972E-09, 1.2900000000000002E-12, 2.9743E-09
DataValue, 5.9, 0, 0, -2.9774E-09, 8.6000000000000007E-13, 2.975E-09
DataValue, 5.95, 0, 0, -2.9773E-09, -9.0000000000000008E-14, 2.9777E-09
DataValue, 6, 0, 0, -2.9823E-09, -4E-13, 2.983E-09
DataValue, 6.05, 0, 0, -2.9824E-09, 1.1000000000000001E-13, 2.983E-09
DataValue, 6.1000000000000005, 0, 0, -2.9869E-09, 7.6000000000000009E-13, 2.9844E-09
DataValue, 6.15, 0, 0, -2.9931E-09, 1.1500000000000002E-12, 2.9909E-09
DataValue, 6.2, 0, 0, -2.9986E-09, 1.13E-12, 2.9976E-09
DataValue, 6.25, 0, 0, -3.0009E-09, 7E-14, 3.0002E-09
DataValue, 6.3, 0, 0, -3.0038E-09, -1.6000000000000003E-13, 3.0055E-09
DataValue, 6.3500000000000005, 0, 0, -3.0044E-09, 1.0000000000000002E-14, 3.0032E-09
DataValue, 6.4, 0, 0, -3.0091E-09, 7.9000000000000007E-13, 3.0078E-09
DataValue, 6.45, 0, 0, -3.0084E-09, 1.1600000000000001E-12, 3.0084E-09
DataValue, 6.5, 0, 0, -3.0138E-09, 1.4400000000000001E-12, 3.0139E-09
DataValue, 6.55, 0, 0, -3.0167E-09, 6.0000000000000007E-13, 3.0165E-09
DataValue, 6.6000000000000005, 0, 0, -3.0174E-09, -1.2000000000000002E-13, 3.0194E-09
DataValue, 6.65, 0, 0, -3.0211E-09, -5.1E-13, 3.0209E-09
DataValue, 6.7, 0, 0, -3.0254E-09, -7E-14, 3.0265E-09
DataValue, 6.75, 0, 0, -3.0292E-09, 6.8E-13, 3.0291E-09
DataValue, 6.8, 0, 0, -3.031E-09, 1.18E-12, 3.0321E-09
DataValue, 6.8500000000000005, 0, 0, -3.0329E-09, 7.2000000000000006E-13, 3.0345E-09
DataValue, 6.9, 0, 0, -3.0355E-09, 2.5E-13, 3.0385E-09
DataValue, 6.95, 0, 0, -3.0377E-09, -4.6000000000000006E-13, 3.0408E-09
DataValue, 7, 0, 0, -3.0393E-09, 2.4000000000000004E-13, 3.0419E-09
DataValue, 7.05, 0, 0, -3.0425E-09, 8.300000000000001E-13, 3.0445E-09
DataValue, 7.1000000000000005, 0, 0, -3.0433E-09, 1.14E-12, 3.0462E-09
DataValue, 7.15, 0, 0, -3.0473E-09, 1.17E-12, 3.0487E-09
DataValue, 7.2, 0, 0, -3.051E-09, 6.400000000000001E-13, 3.0539E-09
DataValue, 7.25, 0, 0, -3.0531E-09, -8.0000000000000013E-14, 3.0544E-09
DataValue, 7.3, 0, 0, -3.0595E-09, -1.3E-13, 3.0605E-09
DataValue, 7.3500000000000005, 0, 0, -3.0629E-09, 8E-13, 3.0606E-09
DataValue, 7.4, 0, 0, -3.0657E-09, 1.2800000000000002E-12, 3.0649E-09
DataValue, 7.45, 0, 0, -3.0704E-09, 9.9E-13, 3.0686E-09
DataValue, 7.5, 0, 0, -3.07E-09, 1.9000000000000002E-13, 3.0727E-09
DataValue, 7.55, 0, 0, -3.078E-09, -3.0000000000000003E-13, 3.0763E-09
DataValue, 7.6000000000000005, 0, 0, -3.0795E-09, -4.5000000000000005E-13, 3.0768E-09
DataValue, 7.65, 0, 0, -3.0827E-09, 2E-13, 3.0811E-09
DataValue, 7.7, 0, 0, -3.0828E-09, 9.000000000000001E-13, 3.0821E-09
DataValue, 7.75, 0, 0, -3.0865E-09, 1.2000000000000001E-12, 3.0875E-09
DataValue, 7.8, 0, 0, -3.0903E-09, 3.9000000000000005E-13, 3.0916E-09
DataValue, 7.8500000000000005, 0, 0, -3.0924E-09, 2.4000000000000004E-13, 3.0946E-09
DataValue, 7.9, 0, 0, -3.0977E-09, -5.3000000000000006E-13, 3.098E-09
DataValue, 7.95, 0, 0, -3.1031E-09, 2.6E-13, 3.1017E-09
DataValue, 8, 0, 0, -3.1071E-09, 8.7E-13, 3.1071E-09
DataValue, 8.05, 0, 0, -3.1087E-09, 1.4400000000000001E-12, 3.1092E-09
DataValue, 8.1, 0, 0, -3.1107E-09, 9.9E-13, 3.1105E-09
DataValue, 8.15, 0, 0, -3.1128E-09, 1.6000000000000003E-13, 3.1129E-09
DataValue, 8.2, 0, 0, -3.1165E-09, -3.0000000000000003E-13, 3.1188E-09
DataValue, 8.25, 0, 0, -3.1193E-09, 3.9000000000000005E-13, 3.1196E-09
DataValue, 8.3, 0, 0, -3.1237E-09, 8.300000000000001E-13, 3.1218E-09
DataValue, 8.35, 0, 0, -3.1258E-09, 1.08E-12, 3.1283E-09
DataValue, 8.4, 0, 0, -3.1278E-09, 9.1000000000000016E-13, 3.1285E-09
DataValue, 8.45, 0, 0, -3.1331E-09, -3.0000000000000005E-14, 3.1292E-09
DataValue, 8.5, 0, 0, -3.1329E-09, -2.8E-13, 3.1306E-09
DataValue, 8.55, 0, 0, -3.1363E-09, -1.9000000000000002E-13, 3.1349E-09
DataValue, 8.6, 0, 0, -3.139E-09, 4.4000000000000004E-13, 3.1389E-09
DataValue, 8.65, 0, 0, -3.1428E-09, 1.2900000000000002E-12, 3.1424E-09
DataValue, 8.7000000000000011, 0, 0, -3.143E-09, 9.1000000000000016E-13, 3.1454E-09
DataValue, 8.75, 0, 0, -3.1497E-09, 3.4E-13, 3.1505E-09
DataValue, 8.8, 0, 0, -3.1538E-09, 1.4E-13, 3.1545E-09
DataValue, 8.85, 0, 0, -3.1552E-09, -1.6000000000000003E-13, 3.1544E-09
DataValue, 8.9, 0, 0, -3.158E-09, 9.2000000000000012E-13, 3.158E-09
DataValue, 8.9500000000000011, 0, 0, -3.1597E-09, 1.0500000000000002E-12, 3.1615E-09
DataValue, 9, 0, 0, -3.1653E-09, 1.4300000000000002E-12, 3.1646E-09
DataValue, 9.05, 0, 0, -3.167E-09, 4.9E-13, 3.1639E-09
DataValue, 9.1, 0, 0, -3.1692E-09, -1.2000000000000002E-13, 3.17E-09
DataValue, 9.15, 0, 0, -3.1741E-09, -4E-13, 3.173E-09
DataValue, 9.2000000000000011, 0, 0, -3.1768E-09, 2.6E-13, 3.1736E-09
DataValue, 9.25, 0, 0, -3.1833E-09, 6.3E-13, 3.1816E-09
DataValue, 9.3, 0, 0, -3.184E-09, 1.3000000000000001E-12, 3.1844E-09
DataValue, 9.35, 0, 0, -3.1852E-09, 3.6000000000000003E-13, 3.1831E-09
DataValue, 9.4, 0, 0, -3.1891E-09, -1.7E-13, 3.1867E-09
DataValue, 9.4500000000000011, 0, 0, -3.191E-09, -4.6000000000000006E-13, 3.1885E-09
DataValue, 9.5, 0, 0, -3.1939E-09, 2.6E-13, 3.1968E-09
DataValue, 9.55, 0, 0, -3.1979E-09, 1.1600000000000001E-12, 3.1964E-09
DataValue, 9.6, 0, 0, -3.2022E-09, 1.18E-12, 3.2051E-09
DataValue, 9.65, 0, 0, -3.2066E-09, 7.9000000000000007E-13, 3.2056E-09
DataValue, 9.7000000000000011, 0, 0, -3.2109E-09, 3.8000000000000005E-13, 3.21E-09
DataValue, 9.75, 0, 0, -3.2136E-09, -3.2000000000000005E-13, 3.2142E-09
DataValue, 9.8, 0, 0, -3.2149E-09, -2E-13, 3.2124E-09
DataValue, 9.85, 0, 0, -3.2179E-09, 3.7000000000000004E-13, 3.2183E-09
DataValue, 9.9, 0, 0, -3.2189E-09, 1.18E-12, 3.2221E-09
DataValue, 9.9500000000000011, 0, 0, -3.2259E-09, 1.17E-12, 3.2222E-09
DataValue, 10, 0, 0, -3.2289E-09, 3.5E-13, 3.2278E-09
DataValue, 10.05, 0, 0, -3.2341E-09, -1.8000000000000002E-13, 3.2322E-09
DataValue, 10.1, 0, 0, -3.2334E-09, -3.0000000000000003E-13, 3.2334E-09
DataValue, 10.15, 0, 0, -3.2338E-09, 4.9E-13, 3.2383E-09
DataValue, 10.200000000000001, 0, 0, -3.2409E-09, 1.1000000000000002E-12, 3.2404E-09
DataValue, 10.25, 0, 0, -3.2421E-09, 1.41E-12, 3.2426E-09
